(1762374382.354747) can0 1FFFFFF0#0119000708000043
(1762374382.356778) can0 1FFFFFF0#010000050C000063
(1762374382.385391) can0 5F4#00091E5B00000001
(1762374382.412358) can0 377#5030315F30370000
(1762374382.412599) can0 076#000F010F020F00AE
(1762374382.464383) can0 351#AC0B000000007008
(1762374382.464591) can0 356#6D0B0000AA00
(1762374382.464826) can0 355#5300640043030618
(1762374382.470223) can0 1D8#00000000000000D9
(1762374382.480248) can0 1D8#00000000000020F9
(1762374382.484133) can0 266#00002C2C00000000
(1762374382.484387) can0 118#1280F00000080180
(1762374382.490245) can0 1D8#0000000000004019
(1762374382.490495) can0 5A6#3880030000000300
(1762374382.490740) can0 386#0000000000008000
(1762374382.494118) can0 266#00002C2C00000000
(1762374382.494416) can0 118#1381F00000080180
(1762374382.494642) can0 166#0000000000B603
(1762374382.494885) can0 1D6#00080800282DD710
(1762374382.495062) can0 279#17900C0000
(1762374382.495309) can0 395#F70DFFFFFFFF007D
(1762374382.495542) can0 108#8E00000400008001
(1762374382.495672) can0 2B6#8A01
(1762374382.495928) can0 397#000000003B000000
(1762374382.496096) can0 128#8F00EC0A
(1762374382.496340) can0 268#2C2CFF01FF
(1762374382.500253) can0 1D8#0000000000006039
(1762374382.504126) can0 266#00002C2C00000000
(1762374382.504368) can0 118#1482F00000080180
(1762374382.504620) can0 3D5#FFFFFFFFFFFFFFFF
(1762374382.504875) can0 527#C080000000000000
(1762374382.505104) can0 315#1839383B50389D7D
(1762374382.505340) can0 5A5#4380000003000000
(1762374382.505583) can0 315#0138380038280000
(1762374382.505829) can0 3B5#0400000000000000
(1762374382.506076) can0 315#02FFFFFFFF000000
(1762374382.506337) can0 36B#0000000000000080
(1762374382.506568) can0 315#FBFFFFFFFBFFFB0F
(1762374382.506818) can0 7D5#2B00000000000000
(1762374382.507067) can0 315#04FFFFFFFF000000
(1762374382.507326) can0 7D5#3260000000000000
(1762374382.507488) can0 5D7#8C8C000000
(1762374382.507744) can0 7D7#322C000000000000
(1762374382.507917) can0 3B6#FFFFFFFF
(1762374382.508162) can0 7D5#42FD00FD00E62000
(1762374382.508391) can0 335#0A010533FC000500
(1762374382.508634) can0 7D5#43FD00FD003C0000
(1762374382.508877) can0 3A7#0000000000000000
(1762374382.509109) can0 7D5#442A421D56372444
(1762374382.509362) can0 3C5#0000000000000000
(1762374382.509591) can0 7D5#4628282828282828
(1762374382.509843) can0 3E5#0000000000000000
(1762374382.510089) can0 7D5#4828280000004A00
(1762374382.510326) can0 1D8#0000000000008059
(1762374382.510576) can0 367#0000000000000000
(1762374382.510835) can0 368#0000000000000000
(1762374382.511081) can0 36E#0000000000000000
(1762374382.512442) can0 379#9C00000000000000
(1762374382.512674) can0 076#030F040F050F00B7
(1762374382.514129) can0 266#00002C2C00000000
(1762374382.514411) can0 118#1583F00000080180
(1762374382.520242) can0 1D8#000000000000A079
(1762374382.524129) can0 266#00002C2C00000000
(1762374382.524358) can0 118#1684F00000080180
(1762374382.530243) can0 1D8#000000000000C099
(1762374382.534112) can0 266#00002C2C00000000
(1762374382.534411) can0 118#1785F00000080180
(1762374382.540238) can0 1D8#000000000000E0B9
(1762374382.544120) can0 266#00002C2C00000000
(1762374382.544356) can0 118#1886F00000080180
(1762374382.550242) can0 1D8#00000000000000D9
(1762374382.554109) can0 266#00002C2C00000000
(1762374382.554407) can0 118#1987F00000080180
(1762374382.560243) can0 1D8#00000000000020F9
(1762374382.564122) can0 266#00002C2C00000000
(1762374382.564415) can0 118#1A88F00000080180
(1762374382.568446) can0 351#AC0B0A00D2007008
(1762374382.568652) can0 356#6D0B0000AA00
(1762374382.568889) can0 355#5300640043030618
(1762374382.569163) can0 554#0021041723C001
(1762374382.569424) can0 344#0000000000000047
(1762374382.569649) can0 6D4#0A010533FC000900
(1762374382.569902) can0 3A0#0000000000000000
(1762374382.570157) can0 384#0000000000000000
(1762374382.570401) can0 1D8#0000000000004019
(1762374382.570663) can0 380#0000000000000000
(1762374382.574115) can0 266#00002C2C00000000
(1762374382.574406) can0 118#1B89F00000080180
(1762374382.580238) can0 1D8#0000000000006039
(1762374382.580484) can0 5A4#4280010000000000
(1762374382.580724) can0 5A4#1580020000000000
(1762374382.580978) can0 3A0#0000000000000000
(1762374382.584126) can0 266#00002C2C00000000
(1762374382.584399) can0 118#1C8AF00000080180
(1762374382.584644) can0 5A5#5C80040000000000
(1762374382.584889) can0 5A5#5A80080000000000
(1762374382.585140) can0 3B5#0400000A00000000
(1762374382.590236) can0 1D8#0000000000008059
(1762374382.594110) can0 266#00002C2C00000000
(1762374382.594402) can0 118#1D8BF00000080180
(1762374382.594647) can0 166#0000000000B603
(1762374382.594865) can0 1D6#40080808282D8010
(1762374382.595043) can0 279#28A10C0000
(1762374382.595285) can0 395#F0110040FF00007D
(1762374382.595524) can0 108#8F01000400008001
(1762374382.595652) can0 2B6#8A01
(1762374382.595911) can0 397#000000003B000000
(1762374382.596069) can0 128#8708EC0A
(1762374382.596323) can0 268#2C2CFF01FF
(1762374382.600241) can0 1D8#000000000000A079
(1762374382.604108) can0 266#00002C2C00000000
(1762374382.604349) can0 118#1E8CF00000080180
(1762374382.604606) can0 7D5#2B00000000000000
(1762374382.604849) can0 7D5#3260000000000000
(1762374382.605090) can0 7D7#322C000000000000
(1762374382.610234) can0 1D8#000000000000C099
(1762374382.612339) can0 380#4C35414136343033
(1762374382.612582) can0 076#06110711000F00BC
(1762374382.614110) can0 266#00002C2C00000000
(1762374382.614405) can0 118#1F8DF00000080180
(1762374382.620231) can0 1D8#000000000000E0B9
(1762374382.624104) can0 266#00002C2C00000000
(1762374382.624351) can0 118#208EF00000080180
(1762374382.630234) can0 1D8#00000000000000D9
(1762374382.634105) can0 266#00002C2C00000000
(1762374382.634397) can0 118#218FF00000080180
(1762374382.640232) can0 1D8#00000000000020F9
(1762374382.644105) can0 266#00002C2C00000000
(1762374382.644360) can0 118#1280F00000080180
(1762374382.650232) can0 1D8#0000000000004019
(1762374382.654107) can0 266#00002C2C00000000
(1762374382.654405) can0 118#1381F00000080180
(1762374382.660229) can0 1D8#0000000000006039
(1762374382.664099) can0 266#00002C2C00000000
(1762374382.664351) can0 118#1482F00000080180
(1762374382.670226) can0 1D8#0000000000008059
(1762374382.672444) can0 351#AC0B0A00D2007008
(1762374382.672649) can0 356#6B0B0100AA00
(1762374382.672897) can0 355#5300640043030618
(1762374382.674116) can0 266#00002C2C00000000
(1762374382.674401) can0 118#1583F00000080180
(1762374382.680230) can0 1D8#000000000000A079
(1762374382.684102) can0 266#00002C2C00000000
(1762374382.684342) can0 118#1684F00000080180
(1762374382.690230) can0 1D8#000000000000C099
(1762374382.690471) can0 5A6#0A80480140000000
(1762374382.690722) can0 386#0002000000008000
(1762374382.694109) can0 266#00002C2C00000000
(1762374382.694399) can0 118#1785F00000080180
(1762374382.694624) can0 166#BC08000000B603
(1762374382.694862) can0 1D6#40080800282D5B10
(1762374382.695052) can0 279#09820C0000
(1762374382.695286) can0 395#F0110040FF00007D
(1762374382.695533) can0 108#9002000400008001
(1762374382.695668) can0 2B6#8A01
(1762374382.695914) can0 397#000000003B000000
(1762374382.696093) can0 128#8F483802
(1762374382.696311) can0 268#2C2CFF01FF
(1762374382.700228) can0 1D8#000000000000E0B9
(1762374382.704110) can0 266#00002C2C00000000
(1762374382.704355) can0 118#1886F00000080180
(1762374382.704609) can0 7D5#2B00000000000000
(1762374382.704851) can0 7D5#3260000000000000
(1762374382.705122) can0 7D7#322C000000000000
(1762374382.710230) can0 1D8#00000000000000D9
(1762374382.712445) can0 381#FFFFFF0000000000
(1762374382.712683) can0 076#010F020F030F00B1
(1762374382.714106) can0 266#00002C2C00000000
(1762374382.714397) can0 118#1987F00000080180
(1762374382.720224) can0 1D8#00000000000020F9
(1762374382.724100) can0 266#00002C2C00000000
(1762374382.724344) can0 118#1A88F00000080180
(1762374382.730226) can0 1D8#0000000000004019
(1762374382.734106) can0 266#00002C2C00000000
(1762374382.734390) can0 118#1B89F00000080180
(1762374382.740221) can0 1D8#0000000000006039
(1762374382.744097) can0 266#00002C2C00000000
(1762374382.744339) can0 118#1C8AF00000080180
(1762374382.750219) can0 1D8#0000000000008059
(1762374382.754100) can0 266#00002C2C00000000
(1762374382.754377) can0 118#1D8BF00000080180
(1762374382.760221) can0 1D8#000000000000A079
(1762374382.764100) can0 266#00002C2C00000000
(1762374382.764340) can0 118#1E8CF00000080180
(1762374382.770220) can0 1D8#000000000000C099
(1762374382.774101) can0 266#00002C2C00000000
(1762374382.774388) can0 118#1F8DF00000080180
(1762374382.776438) can0 351#AC0B0A00D2007008
(1762374382.776637) can0 356#6B0B0000AA00
(1762374382.776883) can0 355#5300640043030618
(1762374382.780220) can0 1D8#000000000000E0B9
(1762374382.784099) can0 266#00002C2C00000000
(1762374382.784345) can0 118#208EF00000080180
(1762374382.790218) can0 1D8#00000000000000D9
(1762374382.794098) can0 266#00002C2C00000000
(1762374382.794383) can0 118#218FF00000080180
(1762374382.794600) can0 166#2309000000B603
(1762374382.794833) can0 1D6#40080800282D5B10
(1762374382.795011) can0 279#0A830C0000
(1762374382.795262) can0 395#F0110040FF00007D
(1762374382.795506) can0 108#9103000400008001
(1762374382.795608) can0 2B6#8A01
(1762374382.795870) can0 397#000000003B000000
(1762374382.796036) can0 128#8B483802
(1762374382.796308) can0 268#2C2CFF01FF
(1762374382.800224) can0 1D8#00000000000020F9
(1762374382.804102) can0 266#00002C2C00000000
(1762374382.804349) can0 118#1280F00000080180
(1762374382.804599) can0 7D5#2B00000000000000
(1762374382.804837) can0 7D5#3260000000000000
(1762374382.805099) can0 7D7#322C000000000000
(1762374382.810218) can0 1D8#0000000000004019
(1762374382.812343) can0 374#5030315F30373000
(1762374382.812572) can0 076#040F050F061100BC
(1762374382.814092) can0 266#00002C2C00000000
(1762374382.814393) can0 118#1381F00000080180
(1762374382.820211) can0 1D8#0000000000006039
(1762374382.824095) can0 266#00002C2C00000000
(1762374382.824338) can0 118#1482F00000080180
(1762374382.830210) can0 1D8#0000000000008059
(1762374382.834096) can0 266#00002C2C00000000
(1762374382.834379) can0 118#1583F00000080180
(1762374382.840209) can0 1D8#000000000000A079
(1762374382.844090) can0 266#00002C2C00000000
(1762374382.844341) can0 118#1684F00000080180
(1762374382.850210) can0 1D8#000000000000C099
(1762374382.854090) can0 266#00002C2C00000000
(1762374382.854387) can0 118#1785F00000080180
(1762374382.860208) can0 1D8#000000000000E0B9
(1762374382.864092) can0 266#00002C2C00000000
(1762374382.864351) can0 118#1886F00000080180
(1762374382.864512) can0 35A#00000000
(1762374382.864689) can0 35B#75100500
(1762374382.870217) can0 1D8#00000000000000D9
(1762374382.874085) can0 266#00002C2C00000000
(1762374382.874346) can0 118#1987F00000080180
(1762374382.876799) can0 036#019EB110129EB200
(1762374382.880208) can0 1D8#00000000000020F9
(1762374382.880455) can0 351#AC0B0A00D2007008
(1762374382.880649) can0 356#6D0B0000AA00
(1762374382.880888) can0 355#5300640043030618
(1762374382.884103) can0 266#00002C2C00000000
(1762374382.884346) can0 118#1A88F00000080180
(1762374382.890207) can0 1D8#0000000000004019
(1762374382.894090) can0 266#00002C2C00000000
(1762374382.894349) can0 118#1B89F00000080180
(1762374382.894590) can0 166#2509000000B603
(1762374382.894844) can0 1D6#40080800282D5C10
(1762374382.895040) can0 279#0B840C0000
(1762374382.895272) can0 395#F0110040FF00007D
(1762374382.895511) can0 108#1204000200FFFF05
(1762374382.895648) can0 2B6#8A01
(1762374382.895902) can0 397#000000003B000000
(1762374382.896055) can0 128#8B483802
(1762374382.896307) can0 268#2C2CFF01FF
(1762374382.900211) can0 1D8#0000000000006039
(1762374382.904110) can0 266#00002C2C00000000
(1762374382.904376) can0 118#1C8AF00000080180
(1762374382.904619) can0 7D5#2B00000000000000
(1762374382.904880) can0 7D5#3260000000000000
(1762374382.905122) can0 7D7#322C000000000000
(1762374382.910206) can0 1D8#0000000000008059
(1762374382.912510) can0 375#5030315F30323000
(1762374382.912745) can0 076#0711000F010F00B5
(1762374382.914103) can0 266#00002C2C00000000
(1762374382.914369) can0 118#1D8BF00000080180
(1762374382.920202) can0 1D8#000000000000A079
(1762374382.924106) can0 266#00002C2C00000000
(1762374382.924368) can0 118#1E8CF00000080180
(1762374382.930198) can0 1D8#000000000000C099
(1762374382.934100) can0 266#00002C2C00000000
(1762374382.934374) can0 118#1F8DF00000080180
(1762374382.940201) can0 1D8#000000000000E0B9
(1762374382.944107) can0 266#00002C2C00000000
(1762374382.944362) can0 118#208EF00000080180
(1762374382.950198) can0 1D8#00000000000000D9
(1762374382.954096) can0 266#00002C2C00000000
(1762374382.954363) can0 118#218FF00000080180
(1762374382.960197) can0 1D8#00000000000020F9
(1762374382.964100) can0 266#00002C2C00000000
(1762374382.964375) can0 118#1280F00000080180
(1762374382.970194) can0 1D8#0000000000004019
(1762374382.974098) can0 266#00002C2C00000000
(1762374382.974368) can0 118#1381F00000080180
(1762374382.980195) can0 1D8#0000000000006039
(1762374382.984109) can0 266#00002C2C00000000
(1762374382.984373) can0 118#1482F00000080180
(1762374382.984571) can0 356#6D0B0000AA00
(1762374382.984794) can0 355#5300640043030618
(1762374382.985039) can0 351#AC0B0A00D2007008
(1762374382.990198) can0 1D8#0000000000008059
(1762374382.994109) can0 266#00002C2C00000000
(1762374382.994373) can0 118#1583F00000080180
(1762374382.994646) can0 166#2509000000B603
(1762374382.994883) can0 1D6#40080800282D5C10
(1762374382.995061) can0 279#0C850C0000
(1762374382.995378) can0 395#F0110041FF00007D
(1762374382.995612) can0 108#1305000200FFFF05
(1762374382.995707) can0 2B6#8A01
(1762374382.995995) can0 397#000000003B000000
(1762374382.996142) can0 128#8B483802
(1762374382.996334) can0 268#2C2CFF01FF
(1762374383.000201) can0 1D8#000000000000A079
(1762374383.004110) can0 266#00002C2C00000000
(1762374383.004360) can0 118#1684F00000080180
(1762374383.004608) can0 7D5#2B00000000000000
(1762374383.004864) can0 7D5#3260000000000000
(1762374383.005106) can0 7D7#322C000000000000
(1762374383.010193) can0 1D8#000000000000C099
(1762374383.012352) can0 376#5030315F30310000
(1762374383.012595) can0 076#020F030F040F00B4
(1762374383.014096) can0 266#00002C2C00000000
(1762374383.014369) can0 118#1785F00000080180
(1762374383.020189) can0 1D8#000000000000E0B9
(1762374383.020443) can0 5A6#3580010000000000
(1762374383.020687) can0 386#0002000000009000
(1762374383.024344) can0 266#00002C2C00000000
(1762374383.024596) can0 118#1886F00000080180
(1762374383.024834) can0 5A5#9B80040000000000
(1762374383.025082) can0 3C5#0000000400000000
(1762374383.030190) can0 1D8#00000000000000D9
(1762374383.034092) can0 266#00002C2C00000000
(1762374383.034365) can0 118#1987F00000080180
(1762374383.040185) can0 1D8#00000000000020F9
(1762374383.044104) can0 266#00002C2C00000000
(1762374383.044364) can0 118#1A88F00000080180
(1762374383.050183) can0 1D8#0000000000004019
(1762374383.054096) can0 266#00002C2C00000000
(1762374383.054356) can0 118#1B89F00000080180
(1762374383.060184) can0 1D8#0000000000006039
(1762374383.064102) can0 266#00002C2C00000000
(1762374383.064361) can0 118#1C8AF00000080180
(1762374383.070178) can0 1D8#0000000000008059
(1762374383.074097) can0 266#00002C2C00000000
(1762374383.074371) can0 118#1D8BF00000080180
(1762374383.080180) can0 1D8#800000000000A0F9
(1762374383.080430) can0 5A4#1680040000000000
(1762374383.080688) can0 3A0#0000000000000000
(1762374383.084336) can0 266#00002C2C00000000
(1762374383.084581) can0 118#1E8CF00000080180
(1762374383.088375) can0 351#AC0B0A00D2007008
(1762374383.088582) can0 356#6D0B0000AA00
(1762374383.088812) can0 355#5300640043030618
(1762374383.090180) can0 1D8#800000000000C019
(1762374383.094091) can0 266#00002C2C00000000
(1762374383.094371) can0 118#1F8DF00000080180
(1762374383.094628) can0 166#2509000000B603
(1762374383.094869) can0 1D6#40080800282D6A10
(1762374383.095043) can0 279#0D860C0000
(1762374383.095352) can0 395#011100410000007D
(1762374383.095598) can0 108#1406000200FFFF05
(1762374383.095729) can0 2B6#8A01
(1762374383.095981) can0 397#000000003B000000
(1762374383.096136) can0 128#8B483802
(1762374383.096323) can0 268#2C2CFF01FF
(1762374383.100183) can0 1D8#800000000000E039
(1762374383.104106) can0 266#00002C2C00000000
(1762374383.104348) can0 118#208EF00000080180
(1762374383.104602) can0 7D5#2B00000000000000
(1762374383.104847) can0 7D5#3260000000000000
(1762374383.105119) can0 7D7#322C000000000000
(1762374383.110180) can0 1D8#8000000000000059
(1762374383.112450) can0 377#5030315F30370000
(1762374383.112684) can0 076#050F0611071100C1
(1762374383.114085) can0 266#00002C2C00000000
(1762374383.114358) can0 118#218FF00000080180
(1762374383.119179) can0 078#1000000000000000
(1762374383.119915) can0 078#1000000000000000
(1762374383.120186) can0 1D8#8000000000002079
(1762374383.120946) can0 078#1000000000000000
(1762374383.121928) can0 078#1000000000000000
(1762374383.124367) can0 266#00002C2C00000000
(1762374383.124622) can0 118#1280F00000080180
(1762374383.130187) can0 1D8#8000000000004099
(1762374383.134086) can0 266#00002C2C00000000
(1762374383.134353) can0 118#1381F00000080180
(1762374383.140169) can0 1D8#80000000000060B9
(1762374383.144100) can0 266#00002C2C00000000
(1762374383.144349) can0 118#1482F00000080180
(1762374383.150172) can0 1D8#80000000000080D9
(1762374383.154090) can0 266#00002C2C00000000
(1762374383.154370) can0 118#1583F00000080180
(1762374383.160173) can0 1D8#800000000000A0F9
(1762374383.164326) can0 266#00002C2C00000000
(1762374383.164580) can0 118#1684F00000080180
(1762374383.170164) can0 1D8#800000000000C019
(1762374383.172567) can0 079#0B00000000000000
(1762374383.174079) can0 266#00002C2C00000000
(1762374383.174365) can0 118#1785F00000080180
(1762374383.180165) can0 1D8#800000000000E039
(1762374383.182414) can0 079#0B00000000000000
(1762374383.184096) can0 266#00002C2C00000000
(1762374383.184343) can0 118#1886F00000080180
(1762374383.190167) can0 1D8#8000000000000059
(1762374383.192070) can0 079#0B00000000000000
(1762374383.192383) can0 351#AC0B0A00D2007008
(1762374383.192586) can0 356#6D0B0000AA00
(1762374383.192814) can0 355#5300640043030618
(1762374383.194081) can0 266#00002C2C00000000
(1762374383.194360) can0 118#1987F00000080180
(1762374383.194666) can0 166#2509000000B603
(1762374383.194891) can0 1D6#40080800282D6710
(1762374383.195086) can0 279#0E870C0000
(1762374383.195354) can0 395#011100410000007D
(1762374383.195598) can0 108#1707000200000005
(1762374383.195738) can0 2B6#8801
(1762374383.195991) can0 397#000000003B000000
(1762374383.196143) can0 128#8B483802
(1762374383.196322) can0 268#2C2CFF01FF
(1762374383.200178) can0 1D8#8000000000002079
(1762374383.202061) can0 079#0B00000000000000
(1762374383.204097) can0 266#00002C2C00000000
(1762374383.204341) can0 118#1A88F00000080180
(1762374383.204586) can0 7D5#2B00000000000000
(1762374383.204844) can0 7D5#3260000000000000
(1762374383.205089) can0 7D7#322C000000000000
(1762374383.210165) can0 1D8#8000000000004099
(1762374383.212086) can0 079#0B00000000000000
(1762374383.212369) can0 379#9C00000000000000
(1762374383.212624) can0 076#000F010F020F00AE
(1762374383.214089) can0 266#00002C2C00000000
(1762374383.214352) can0 118#1B89F00000080180
(1762374383.220161) can0 1D8#80000000000060B9
(1762374383.222097) can0 079#0B00000000000000
(1762374383.224091) can0 266#00002C2C00000000
(1762374383.224335) can0 118#1C8AF00000080180
(1762374383.229782) can0 080#FD472F80D81E2E54
(1762374383.230169) can0 1D8#80000000000080D9
(1762374383.231987) can0 079#0B00000000000000
(1762374383.234086) can0 266#00002C2C00000000
(1762374383.234347) can0 118#1D8BF00000080180
(1762374383.240166) can0 1D8#800000000000A0F9
(1762374383.244319) can0 266#00002C2C00000000
(1762374383.244564) can0 118#1E8CF00000080180
(1762374383.249321) can0 081#143E4EFD0AEA83A6
(1762374383.250158) can0 1D8#800000000000C019
(1762374383.254071) can0 266#00002C2C00000000
(1762374383.254365) can0 118#1F8DF00000080180
(1762374383.260159) can0 1D8#800000000000E039
(1762374383.260431) can0 056#040000000000015B
(1762374383.264313) can0 266#00002C2C00000000
(1762374383.264566) can0 118#208EF00000080180
(1762374383.270154) can0 1D8#8000000000000059
(1762374383.274065) can0 266#00002C2C00000000
(1762374383.274350) can0 118#218FF00000080180
(1762374383.279209) can0 080#5FF830F68C5343A9
(1762374383.280162) can0 1D8#8000000000002079
(1762374383.284315) can0 266#00002C2C00000000
(1762374383.284565) can0 118#1280F00000080180
(1762374383.289705) can0 081#6A83792B864FC86F
(1762374383.290153) can0 1D8#8000000000004099
(1762374383.294062) can0 266#00002C2C00000000
(1762374383.294347) can0 118#1381F00000080180
(1762374383.294648) can0 166#2509000000B603
(1762374383.294884) can0 1D6#40080800282D5410
(1762374383.295073) can0 279#0F880C0000
(1762374383.295342) can0 395#011100410000007D
(1762374383.295589) can0 108#1808000200000005
(1762374383.295726) can0 2B6#8801
(1762374383.295977) can0 397#000000003B000000
(1762374383.296139) can0 128#8B483802
(1762374383.296344) can0 268#2C2CFF01FF
(1762374383.296534) can0 356#6D0B0000AA00
(1762374383.296772) can0 355#5300640043030618
(1762374383.297001) can0 351#AC0B0A00D2007008
(1762374383.300163) can0 1D8#80000000000060B9
(1762374383.304087) can0 266#00002C2C00000000
(1762374383.304350) can0 118#1482F00000080180
(1762374383.304601) can0 7D5#2B00000000000000
(1762374383.304839) can0 7D5#3260000000000000
(1762374383.305087) can0 7D7#322C000000000000
(1762374383.310159) can0 1D8#80000000000080D9
(1762374383.312436) can0 380#4C35414136343033
(1762374383.312681) can0 076#030F040F050F00B7
(1762374383.314059) can0 266#00002C2C00000000
(1762374383.314352) can0 118#1583F00000080180
(1762374383.320155) can0 1D8#800000000000A0F9
(1762374383.324078) can0 266#00002C2C00000000
(1762374383.324342) can0 118#1684F00000080180
(1762374383.329932) can0 080#982B8F1A5A926D80
(1762374383.330193) can0 1D8#800000000000C019
(1762374383.334058) can0 266#00002C2C00000000
(1762374383.334341) can0 118#1785F00000080180
(1762374383.340155) can0 1D8#800000000000E039
(1762374383.344072) can0 266#00002C2C00000000
(1762374383.344336) can0 118#1886F00000080180
(1762374383.349792) can0 081#5CAD17071FE5CB85
(1762374383.350149) can0 1D8#8000000000000059
(1762374383.354052) can0 266#00002C2C00000000
(1762374383.354332) can0 118#1987F00000080180
(1762374383.359509) can0 056#040000000000025C
(1762374383.360155) can0 1D8#8000000000002079
(1762374383.360415) can0 6B0#00A700487243005C
(1762374383.360663) can0 6B4#0163000100150000
(1762374383.360912) can0 6B3#00110000000F0000
(1762374383.361137) can0 6B2#004600819E6000C5
(1762374383.361377) can0 6B1#001500009EC1002D
(1762374383.364076) can0 266#00002C2C00000000
(1762374383.364328) can0 118#1A88F00000080180
(1762374383.368321) can0 35B#75100500
(1762374383.368482) can0 35A#00000000
(1762374383.370152) can0 1D8#8000000000004099
(1762374383.374058) can0 266#00002C2C00000000
(1762374383.374347) can0 118#1B89F00000080180
(1762374383.376810) can0 036#029EB510129EB70A
(1762374383.379371) can0 080#9A7FAFBBCF8C3F43
(1762374383.380142) can0 1D8#80000000000060B9
(1762374383.384070) can0 266#00002C2C00000000
(1762374383.384337) can0 118#1C8AF00000080180
(1762374383.389802) can0 081#0DC290BBC9B26E33
(1762374383.390147) can0 1D8#80000000000080D9
(1762374383.394050) can0 266#00002C2C00000000
(1762374383.394322) can0 118#1D8BF00000080180
(1762374383.394643) can0 166#2509000000B603
(1762374383.394866) can0 1D6#40080800282D6210
(1762374383.395062) can0 279#10890C0000
(1762374383.395340) can0 395#011102410000007D
(1762374383.395592) can0 108#1909000200000005
(1762374383.395690) can0 2B6#8801
(1762374383.395960) can0 397#000000003B000000
(1762374383.396132) can0 128#8B483802
(1762374383.396311) can0 268#2C2CFF01FF
(1762374383.400159) can0 1D8#800000000000A0F9
(1762374383.400396) can0 351#AC0B0A00D2007008
(1762374383.400594) can0 356#6D0B0000AA00
(1762374383.400823) can0 355#5300640043030618
(1762374383.404069) can0 266#00002C2C00000000
(1762374383.404312) can0 118#1E8CF00000080180
(1762374383.404571) can0 7D5#2B00000000000000
(1762374383.404822) can0 7D5#3260000000000000
(1762374383.405078) can0 7D7#322C000000000000
(1762374383.410145) can0 1D8#800000000000C019
(1762374383.412369) can0 381#FFFFFF0000000000
(1762374383.412626) can0 076#06110711000F00BC
(1762374383.414047) can0 266#00002C2C00000000
(1762374383.414330) can0 118#1F8DF00000080180
(1762374383.420138) can0 1D8#800000000000E039
(1762374383.424061) can0 266#00002C2C00000000
(1762374383.424332) can0 118#208EF00000080180
(1762374383.430086) can0 080#D3B20EDF9DCB691A
(1762374383.430335) can0 1D8#8000000000000059
(1762374383.434044) can0 266#00002C2C00000000
(1762374383.434329) can0 118#218FF00000080180
(1762374383.440141) can0 1D8#8000000000002079
(1762374383.444058) can0 266#00002C2C00000000
(1762374383.444323) can0 118#1280F00000080180
(1762374383.449876) can0 081#A1FC17C6383A64A9
(1762374383.450145) can0 1D8#8000000000004099
(1762374383.454043) can0 266#00002C2C00000000
(1762374383.454339) can0 118#1381F00000080180
(1762374383.458599) can0 056#040000000000035D
(1762374383.460140) can0 1D8#80000000000060B9
(1762374383.464057) can0 266#00002C2C00000000
(1762374383.464328) can0 118#1482F00000080180
(1762374383.470135) can0 1D8#80000000000080D9
(1762374383.474041) can0 266#00002C2C00000000
(1762374383.474327) can0 118#1583F00000080180
(1762374383.479519) can0 080#D5062E8012C53BDE
(1762374383.480140) can0 1D8#800000000000A0F9
(1762374383.484053) can0 266#00002C2C00000000
(1762374383.484304) can0 118#1684F00000080180
(1762374383.489694) can0 081#62836B733264A370
(1762374383.490134) can0 1D8#800000000000C019
(1762374383.494039) can0 266#00002C2C00000000
(1762374383.494325) can0 118#1785F00000080180
(1762374383.494620) can0 166#2509000000B603
(1762374383.494853) can0 1D6#40080800282D6510
(1762374383.495046) can0 279#219A0C0000
(1762374383.495319) can0 395#01111F410A00077D
(1762374383.495564) can0 108#1A0A000200000005
(1762374383.495660) can0 2B6#8801
(1762374383.495948) can0 397#000000003B000000
(1762374383.496108) can0 128#8B483802
(1762374383.496307) can0 268#2C2CFF01FF
(1762374383.500142) can0 1D8#800000000000E039
(1762374383.504039) can0 266#00002C2C00000000
(1762374383.504329) can0 118#1886F00000080180
(1762374383.504525) can0 356#6D0B0000AA00
(1762374383.504773) can0 355#5300640043030618
(1762374383.504989) can0 351#AC0B0A00D2007008
(1762374383.505222) can0 3D5#3D3C3C3B3B2D0343
(1762374383.505463) can0 7D5#2B00000000000000
(1762374383.505716) can0 315#1839383B50389E7D
(1762374383.505953) can0 7D5#3260000000000000
(1762374383.506203) can0 315#0138380039280000
(1762374383.506442) can0 7D7#322C000000000000
(1762374383.506687) can0 315#02FFFFFFFF000000
(1762374383.506931) can0 7D5#420000E400E42000
(1762374383.507174) can0 315#FBFFFFFFFBFFFB0F
(1762374383.507407) can0 7D5#43BDC1B46B3C0000
(1762374383.507672) can0 315#04FFFFFFFF000000
(1762374383.507884) can0 7D5#442E462856372444
(1762374383.508059) can0 5D7#506E000000
(1762374383.508297) can0 7D5#4628282828282828
(1762374383.508465) can0 3B6#FFFFFFFF
(1762374383.508713) can0 7D5#4828280000004A93
(1762374383.508950) can0 335#0B001E5B00000000
(1762374383.509197) can0 3A7#0000000000000000
(1762374383.509452) can0 3E5#0000000000000000
(1762374383.509696) can0 367#0000000000000000
(1762374383.509947) can0 368#0000000000000000
(1762374383.510206) can0 1D8#8000000000000059
(1762374383.510445) can0 36B#0000000000000080
(1762374383.510688) can0 36E#0000000000000000
(1762374383.512544) can0 374#5030315F30373000
(1762374383.512764) can0 076#010F020F030F00B1
(1762374383.514047) can0 266#00002C2C00000000
(1762374383.514323) can0 118#1987F00000080180
(1762374383.520133) can0 1D8#8000000000002079
(1762374383.524046) can0 266#00002C2C00000000
(1762374383.524308) can0 118#1A88F00000080180
(1762374383.530128) can0 1D8#8000000000004099
(1762374383.530367) can0 080#0E398DA4E00464B5
(1762374383.534030) can0 266#00002C2C00000000
(1762374383.534322) can0 118#1B89F00000080180
(1762374383.539911) can0 081#7B40E07C874A2069
(1762374383.540150) can0 1D8#80000000000060B9
(1762374383.544044) can0 266#00002C2C00000000
(1762374383.544298) can0 118#1C8AF00000080180
(1762374383.550130) can0 1D8#80000000000080D9
(1762374383.554026) can0 266#00002C2C00000000
(1762374383.554317) can0 118#1D8BF00000080180
(1762374383.557687) can0 056#040000000000045E
(1762374383.560136) can0 1D8#800000000000A0F9
(1762374383.564040) can0 266#00002C2C00000000
(1762374383.564285) can0 118#1E8CF00000080180
(1762374383.569065) can0 554#0021041723C001
(1762374383.569314) can0 344#0000000000002067
(1762374383.569564) can0 6D4#0B001E5B00000000
(1762374383.569808) can0 384#0000300000000004
(1762374383.570051) can0 380#0200000063000000
(1762374383.570302) can0 1D8#800000000000C019
(1762374383.570550) can0 5A6#1180010000000000
(1762374383.570788) can0 5A4#3B80010000000000
(1762374383.571037) can0 386#0002010000009000
(1762374383.571285) can0 3A0#0000000000000000
(1762374383.574018) can0 266#00002C2C00000000
(1762374383.574299) can0 118#1F8DF00000080180
(1762374383.574544) can0 527#6980010000000000
(1762374383.574791) can0 5A5#6E80010000000000
(1762374383.575039) can0 5A5#EA80010000000000
(1762374383.575307) can0 527#E780010000000000
(1762374383.575571) can0 3B5#0400000800200000
(1762374383.575816) can0 3E5#0000000000020000
(1762374383.576075) can0 368#0000000000010000
(1762374383.576320) can0 36E#0000000040000000
(1762374383.580128) can0 1D8#800000000000E039
(1762374383.580979) can0 080#D804E0F241BC7682
(1762374383.584018) can0 266#00002C2C00000000
(1762374383.584294) can0 118#208EF00000080180
(1762374383.590120) can0 1D8#8000000000000059
(1762374383.594013) can0 266#00002C2C00000000
(1762374383.594280) can0 118#218FF00000080180
(1762374383.594608) can0 166#2509000000B603
(1762374383.594844) can0 1D6#40080800282D8610
(1762374383.595036) can0 279#128B0C0000
(1762374383.595315) can0 395#01111C411300067D
(1762374383.595564) can0 108#1B0B000200000005
(1762374383.595661) can0 2B6#8801
(1762374383.595941) can0 397#000000003B000000
(1762374383.596100) can0 128#8B483802
(1762374383.596291) can0 268#2C2CFF01FF
(1762374383.600130) can0 1D8#8000000000002079
(1762374383.600540) can0 081#835B16A875BB62CC
(1762374383.604017) can0 266#00002C2C00000000
(1762374383.604299) can0 118#1280F00000080180
(1762374383.604546) can0 7D5#2B00000000000000
(1762374383.604794) can0 7D5#3260000000000000
(1762374383.605039) can0 7D7#322C000000000000
(1762374383.608403) can0 351#AC0B0A00D2007008
(1762374383.608608) can0 356#6D0B0000AA00
(1762374383.608837) can0 355#5300640043030618
(1762374383.610123) can0 1D8#8000000000004099
(1762374383.612346) can0 375#5030315F30323100
(1762374383.612582) can0 076#040F050F061100BC
(1762374383.614015) can0 266#00002C2C00000000
(1762374383.614292) can0 118#1381F00000080180
(1762374383.620128) can0 1D8#80000000000060B9
(1762374383.624013) can0 266#00002C2C00000000
(1762374383.624293) can0 118#1482F00000080180
(1762374383.630118) can0 1D8#80000000000080D9
(1762374383.630413) can0 080#814ADABD387E2044
(1762374383.634007) can0 266#00002C2C00000000
(1762374383.634273) can0 118#1583F00000080180
(1762374383.639916) can0 081#C5913842AAD64AC6
(1762374383.640172) can0 1D8#800000000000A0F9
(1762374383.644014) can0 266#00002C2C00000000
(1762374383.644291) can0 118#1684F00000080180
(1762374383.650107) can0 1D8#800000000000C019
(1762374383.654004) can0 266#00002C2C00000000
(1762374383.654269) can0 118#1785F00000080180
(1762374383.656771) can0 056#040000000000055F
(1762374383.660110) can0 1D8#800000000000E039
(1762374383.664008) can0 266#00002C2C00000000
(1762374383.664288) can0 118#1886F00000080180
(1762374383.670112) can0 1D8#8000000000000059
(1762374383.674002) can0 266#00002C2C00000000
(1762374383.674286) can0 118#1987F00000080180
(1762374383.680113) can0 1D8#8000000000002079
(1762374383.681119) can0 080#138C5FB784F5721D
(1762374383.684002) can0 266#00002C2C00000000
(1762374383.684277) can0 118#1A88F00000080180
(1762374383.690107) can0 1D8#8000000000004099
(1762374383.693999) can0 266#00002C2C00000000
(1762374383.694285) can0 118#1B89F00000080180
(1762374383.694594) can0 166#2509000000B603
(1762374383.694830) can0 1D6#40080800282D6B10
(1762374383.695016) can0 279#138C0C0000
(1762374383.695290) can0 395#01111A411700057D
(1762374383.695541) can0 108#1C0C000200000005
(1762374383.695683) can0 2B6#8801
(1762374383.695935) can0 397#000000003B000000
(1762374383.696105) can0 128#8B483802
(1762374383.696275) can0 268#2C2CFF01FF
(1762374383.700123) can0 1D8#80000000000060B9
(1762374383.700607) can0 081#58A12F886E86F860
(1762374383.704006) can0 266#00002C2C00000000
(1762374383.704286) can0 118#1C8AF00000080180
(1762374383.704528) can0 7D5#2B00000000000000
(1762374383.704781) can0 7D5#3260000000000000
(1762374383.705031) can0 7D7#322C000000000000
(1762374383.710110) can0 1D8#80000000000080D9
(1762374383.712470) can0 351#AC0B0A00D2007008
(1762374383.712671) can0 356#6D0B0000AA00
(1762374383.712916) can0 355#5300640043030618
(1762374383.713142) can0 376#5030315F30310000
(1762374383.713377) can0 076#0711000F010F00B5
(1762374383.714011) can0 266#00002C2C00000000
(1762374383.714274) can0 118#1D8BF00000080180
(1762374383.720113) can0 1D8#800000000000A0F9
(1762374383.724003) can0 266#00002C2C00000000
(1762374383.724289) can0 118#1E8CF00000080180
(1762374383.730106) can0 1D8#800000000000C019
(1762374383.730556) can0 080#BCD159837BB71CDF
(1762374383.733997) can0 266#00002C2C00000000
(1762374383.734287) can0 118#1F8DF00000080180
(1762374383.740002) can0 081#7EF70317F4B1C394
(1762374383.740247) can0 1D8#800000000000E039
(1762374383.743999) can0 266#00002C2C00000000
(1762374383.744285) can0 118#208EF00000080180
(1762374383.750106) can0 1D8#8000000000000059
(1762374383.753996) can0 266#00002C2C00000000
(1762374383.754285) can0 118#218FF00000080180
(1762374383.755858) can0 056#0400000000000660
(1762374383.760108) can0 1D8#8000000000002079
(1762374383.763997) can0 266#00002C2C00000000
(1762374383.764288) can0 118#1280F00000080180
(1762374383.770102) can0 1D8#8000000000004099
(1762374383.773993) can0 266#00002C2C00000000
(1762374383.774281) can0 118#1381F00000080180
(1762374383.780098) can0 1D8#80000000000060B9
(1762374383.781287) can0 080#4E13DE7CC72E6DB7
(1762374383.784006) can0 266#00002C2C00000000
(1762374383.784281) can0 118#1482F00000080180
(1762374383.790102) can0 1D8#80000000000080D9
(1762374383.793990) can0 266#00002C2C00000000
(1762374383.794271) can0 118#1583F00000080180
(1762374383.794575) can0 166#2509000000B603
(1762374383.794807) can0 1D6#40080800282D8B10
(1762374383.795001) can0 279#148D0C0000
(1762374383.795269) can0 395#011119411A00057D
(1762374383.795509) can0 108#1D0D000200000005
(1762374383.795647) can0 2B6#8801
(1762374383.795884) can0 397#000000003B000000
(1762374383.796037) can0 128#8B483802
(1762374383.796233) can0 268#2C2CFF01FF
(1762374383.800126) can0 1D8#800000000000A0F9
(1762374383.800974) can0 081#7E0C2311328E27C5
(1762374383.804000) can0 266#00002C2C00000000
(1762374383.804282) can0 118#1684F00000080180
(1762374383.804542) can0 7D5#2B00000000000000
(1762374383.804778) can0 7D5#3260000000000000
(1762374383.805025) can0 7D7#322C000000000000
(1762374383.810105) can0 1D8#800000000000C019
(1762374383.812348) can0 377#5030315F30370000
(1762374383.812587) can0 076#020F030F040F00B4
(1762374383.813989) can0 266#00002C2C00000000
(1762374383.814269) can0 118#1785F00000080180
(1762374383.816460) can0 351#AC0B0A00D2007008
(1762374383.816665) can0 356#6D0B0000AA00
(1762374383.816900) can0 355#5300640043030618
(1762374383.820108) can0 1D8#800000000000E039
(1762374383.823992) can0 266#00002C2C00000000
(1762374383.824282) can0 118#1886F00000080180
(1762374383.830106) can0 1D8#8000000000000059
(1762374383.830718) can0 080#5067FF1E3B283F7A
(1762374383.833985) can0 266#00002C2C00000000
(1762374383.834257) can0 118#1987F00000080180
(1762374383.840079) can0 081#FB37C4437433DA09
(1762374383.840348) can0 1D8#8000000000002079
(1762374383.843994) can0 266#00002C2C00000000
(1762374383.844271) can0 118#1A88F00000080180
(1762374383.850103) can0 1D8#8000000000004099
(1762374383.853981) can0 266#00002C2C00000000
(1762374383.854272) can0 118#1B89F00000080180
(1762374383.854940) can0 056#0400000000000761
(1762374383.860100) can0 1D8#80000000000060B9
(1762374383.863996) can0 266#00002C2C00000000
(1762374383.864269) can0 118#1C8AF00000080180
(1762374383.870100) can0 1D8#80000000000080D9
(1762374383.872387) can0 35B#3A0B0500
(1762374383.872557) can0 35A#00000000
(1762374383.873986) can0 266#00002C2C00000000
(1762374383.874270) can0 118#1D8BF00000080180
(1762374383.876814) can0 036#039EB310129EB709
(1762374383.880100) can0 1D8#800000000000A0F9
(1762374383.881442) can0 080#899A5D420A666951
(1762374383.884007) can0 266#00002C2C00000000
(1762374383.884252) can0 118#1E8CF00000080180
(1762374383.890097) can0 1D8#800000000000C019
(1762374383.893981) can0 266#00002C2C00000000
(1762374383.894270) can0 118#1F8DF00000080180
(1762374383.894556) can0 166#2509000000B603
(1762374383.894804) can0 1D6#40080800282D7110
(1762374383.894983) can0 279#158E0C0000
(1762374383.895266) can0 395#011119411A00057D
(1762374383.895499) can0 108#1E0E000200000005
(1762374383.895635) can0 2B6#8801
(1762374383.895883) can0 397#000000003B000000
(1762374383.896047) can0 128#8B483802
(1762374383.896250) can0 268#2C2CFF01FF
(1762374383.900101) can0 1D8#800000000000E039
(1762374383.901074) can0 081#38C224EE436B19A9
(1762374383.903988) can0 266#00002C2C00000000
(1762374383.904234) can0 118#208EF00000080180
(1762374383.904500) can0 7D5#2B00000000000000
(1762374383.904736) can0 7D5#3260000000000000
(1762374383.904994) can0 7D7#322C000000000000
(1762374383.910100) can0 1D8#8000000000000059
(1762374383.912464) can0 379#9C00000000000000
(1762374383.912707) can0 076#050F0611071100C1
(1762374383.913975) can0 266#00002C2C00000000
(1762374383.914268) can0 118#218FF00000080180
(1762374383.920096) can0 1D8#8000000000002079
(1762374383.920462) can0 351#AC0B0A00D2007008
(1762374383.920659) can0 356#6D0B0000AA00
(1762374383.920901) can0 355#5300640043030618
(1762374383.924006) can0 266#00002C2C00000000
(1762374383.924258) can0 118#1280F00000080180
(1762374383.930093) can0 1D8#8000000000004099
(1762374383.932173) can0 080#8BEE7EE37E613B14
(1762374383.933983) can0 266#00002C2C00000000
(1762374383.934269) can0 118#1381F00000080180
(1762374383.940092) can0 1D8#80000000000060B9
(1762374383.943984) can0 266#00002C2C00000000
(1762374383.944234) can0 118#1482F00000080180
(1762374383.950089) can0 1D8#80000000000080D9
(1762374383.950321) can0 081#A0C7FDE7720A2CC2
(1762374383.953978) can0 266#00002C2C00000000
(1762374383.954228) can0 056#0400000000000862
(1762374383.954464) can0 118#1583F00000080180
(1762374383.960092) can0 1D8#800000000000A0F9
(1762374383.963987) can0 266#00002C2C00000000
(1762374383.964254) can0 118#1684F00000080180
(1762374383.970085) can0 1D8#800000000000C019
(1762374383.973981) can0 266#00002C2C00000000
(1762374383.974234) can0 118#1785F00000080180
(1762374383.980085) can0 1D8#800000000000E039
(1762374383.982903) can0 080#FCAAAA5B61E125E1
(1762374383.983992) can0 266#00002C2C00000000
(1762374383.984247) can0 118#1886F00000080180
(1762374383.990085) can0 1D8#8000000000000059
(1762374383.993977) can0 266#00002C2C00000000
(1762374383.994251) can0 118#1987F00000080180
(1762374383.994558) can0 166#2509000000B603
(1762374383.994781) can0 1D6#40080800282D7610
(1762374383.994960) can0 279#168F0C0000
(1762374383.995241) can0 395#011118411B02047D
(1762374383.995497) can0 108#1F0F000200000005
(1762374383.995628) can0 2B6#8801
(1762374383.995870) can0 397#000000003B000000
(1762374383.996031) can0 128#8B483802
(1762374383.996226) can0 268#2C2CFF01FF
(1762374384.000095) can0 1D8#8000000000002079
(1762374384.000921) can0 081#453A4C68D1A8A495
(1762374384.003991) can0 266#00002C2C00000000
(1762374384.004241) can0 118#1A88F00000080180
(1762374384.004499) can0 7D5#2B00000000000000
(1762374384.004741) can0 7D5#3260000000000000
(1762374384.004985) can0 7D7#322C000000000000
(1762374384.010086) can0 1D8#8000000000004099
(1762374384.012344) can0 380#4C35414136343033
(1762374384.012587) can0 076#000F010F020F00AE
(1762374384.013973) can0 266#00002C2C00000000
(1762374384.014225) can0 118#1B89F00000080180
(1762374384.020088) can0 1D8#80000000000060B9
(1762374384.021018) can0 606#0322F01300000000
(1762374384.021509) can0 616#101162F013504754
(1762374384.023991) can0 266#00002C2C00000000
(1762374384.024237) can0 118#1C8AF00000080180
(1762374384.024451) can0 356#6D0B0000AA00
(1762374384.024679) can0 355#5300640043030618
(1762374384.024920) can0 351#AC0B0A00D2007008
(1762374384.030088) can0 1D8#80000000000080D9
(1762374384.031030) can0 606#30000A0000000000
(1762374384.031309) can0 616#2132313235383035
(1762374384.033973) can0 266#00002C2C00000000
(1762374384.034214) can0 118#1D8BF00000080180
(1762374384.040089) can0 1D8#800000000000A0F9
(1762374384.043989) can0 266#00002C2C00000000
(1762374384.044247) can0 118#1E8CF00000080180
(1762374384.050080) can0 1D8#800000000000C019
(1762374384.050724) can0 616#2232393638AAAAAA
(1762374384.053117) can0 056#0400000000000963
(1762374384.053972) can0 266#00002C2C00000000
(1762374384.054267) can0 118#1F8DF00000080180
(1762374384.060080) can0 1D8#800000000000E039
(1762374384.063987) can0 266#00002C2C00000000
(1762374384.064238) can0 118#208EF00000080180
(1762374384.064483) can0 604#0211010000000000
(1762374384.064732) can0 644#0211010000000000
(1762374384.064971) can0 614#025101AAAAAAAAAA
(1762374384.069517) can0 1D5#21000000000000F7
(1762374384.069762) can0 2E5#000000000000DD00
(1762374384.070106) can0 1D8#8000000000000059
(1762374384.074087) can0 132#107200003840080E
(1762374384.075958) can0 055#0000000000000156
(1762374384.081385) can0 1D5#2100000000002017
(1762374384.081644) can0 2E5#000000000000DD00
(1762374384.085234) can0 053#D43084C78F384615
(1762374384.100873) can0 132#107200003840080E
(1762374384.101121) can0 055#0100000000000157
(1762374384.101375) can0 1D5#2100000000004037
(1762374384.101623) can0 2E5#000000000000DD00
(1762374384.103431) can0 39D#32600A2800
(1762374384.104575) can0 132#107200003840080E
(1762374384.104821) can0 055#0201000000000159
(1762374384.105045) can0 053#D43084C78F384615
(1762374384.110501) can0 1D5#2100000000006057
(1762374384.110751) can0 2E5#000000000000DD00
(1762374384.111618) can0 5F4#00091E5B00000001
(1762374384.112467) can0 381#FFFFFF0000000000
(1762374384.112695) can0 076#030F040F050F00B7
(1762374384.113469) can0 221#60555515545101E8
(1762374384.113705) can0 3A1#884E0BC8000000B4
(1762374384.113941) can0 3C2#1055555500005D19
(1762374384.114168) can0 441#46652220DB0E0090
(1762374384.114688) can0 132#107200003840080E
(1762374384.114926) can0 055#0300000000000159
(1762374384.120527) can0 1D5#2100000000008077
(1762374384.120774) can0 2E5#000000000000DD00
(1762374384.124590) can0 132#107200003840080E
(1762374384.124835) can0 055#0000000000000257
(1762374384.125062) can0 053#D43084C78F384615
(1762374384.125539) can0 000107D0#2164648B13180002
(1762374384.128391) can0 351#AC0B0A00D2007008
(1762374384.128590) can0 356#6D0B0000AA00
(1762374384.128828) can0 355#5300640043030618
(1762374384.130568) can0 1D5#210000000000A097
(1762374384.130812) can0 2E5#000000000000DD00
(1762374384.134705) can0 132#107200003840080E
(1762374384.134950) can0 055#0100000000000258
(1762374384.140521) can0 1D5#210000000000C0B7
(1762374384.140768) can0 2E5#000000000000DD00
(1762374384.143450) can0 39D#33610A2800
(1762374384.144558) can0 132#107200003840080E
(1762374384.144806) can0 055#020100000000025A
(1762374384.145023) can0 053#D43084C78F384615
(1762374384.150521) can0 1D5#210000000000E0D7
(1762374384.150778) can0 2E5#000000000000DD00
(1762374384.152215) can0 056#0400000000000A64
(1762374384.154565) can0 132#107200003840080E
(1762374384.154816) can0 055#030000000000025A
(1762374384.160552) can0 1D5#21000000000000F7
(1762374384.160809) can0 2E5#000000000000DD00
(1762374384.163535) can0 221#61055505000010F3
(1762374384.163777) can0 3A1#0300986EBE0010E2
(1762374384.164001) can0 3C2#0155151500005509
(1762374384.164252) can0 441#00000000000005BF
(1762374384.164486) can0 052#6418138B64312000
(1762374384.164721) can0 339#4144FE0000038000
(1762374384.164965) can0 102#22B348040000A009
(1762374384.165210) can0 103#22B3884400002032
(1762374384.165454) can0 207#0000000000282800
(1762374384.165695) can0 224#0408004019011008
(1762374384.165906) can0 241#3C3C160F8F5500
(1762374384.166150) can0 247#100EFF0000000000
(1762374384.166406) can0 2A8#020000000080002C
(1762374384.166652) can0 2E8#020000000080006C
(1762374384.166882) can0 2E1#10210B9EE4680004
(1762374384.166991) can0 500#0101
(1762374384.167249) can0 7FF#0141535504041501
(1762374384.167476) can0 212#B904A32F01380001
(1762374384.167715) can0 252#0000CD0100000100
(1762374384.167979) can0 25D#3441012A08000000
(1762374384.168199) can0 2D2#302A343A0A008C00
(1762374384.168347) can0 229#460000
(1762374384.168477) can0 2D1#FF01
(1762374384.168667) can0 333#0030840702
(1762374384.168915) can0 125#0A00720B00000000
(1762374384.169162) can0 126#00C0000010000000
(1762374384.169404) can0 132#107200003840080E
(1762374384.169658) can0 055#0000000000000358
(1762374384.169870) can0 053#D43084C38F384615
(1762374384.170554) can0 1D5#2100000000002017
(1762374384.170787) can0 2E5#000000000000DD00
(1762374384.178587) can0 132#107200003840080E
(1762374384.178824) can0 055#0100000000000359
(1762374384.180565) can0 1D5#2100000000004037
(1762374384.180824) can0 2E5#000000000000DD00
(1762374384.183470) can0 39D#34620A2800
(1762374384.188624) can0 132#107200003840080E
(1762374384.188879) can0 055#020100000000035B
(1762374384.189110) can0 053#D43084C38F384615
(1762374384.190573) can0 1D5#2100000000006057
(1762374384.190815) can0 2E5#000000000000DD00
(1762374384.196446) can0 1D8#00000000000000D9
(1762374384.198664) can0 132#107200003840080E
(1762374384.198918) can0 055#030000000000035B
(1762374384.200571) can0 1D5#2100000000008077
(1762374384.200825) can0 2E5#000000000000DD00
(1762374384.206500) can0 1D8#00000000000020F9
(1762374384.206740) can0 5A6#6080010300400200
(1762374384.206985) can0 5A6#3880030000000300
(1762374384.207245) can0 386#0000000000008000
(1762374384.208612) can0 132#107200003840080E
(1762374384.208863) can0 055#0000000000000459
(1762374384.209086) can0 053#D43084C38F384615
(1762374384.210371) can0 266#00002C2C00000000
(1762374384.210620) can0 1D5#210000000000A097
(1762374384.210863) can0 118#1280F00000080180
(1762374384.211122) can0 2E5#000000000000DD00
(1762374384.212351) can0 374#5030315F30373000
(1762374384.212588) can0 076#06110711000F00BC
(1762374384.213512) can0 221#00555515545121A8
(1762374384.213750) can0 3A1#884E0BC8000020D4
(1762374384.213979) can0 3C2#1055555500005D19
(1762374384.214207) can0 441#46652220DB0E0898
(1762374384.216473) can0 1D8#0000000000004019
(1762374384.219715) can0 132#107200003840080E
(1762374384.219965) can0 055#010000000000045A
(1762374384.220404) can0 266#00002C2C00000000
(1762374384.220650) can0 1D5#210000000000C0B7
(1762374384.220895) can0 118#1381F00000080180
(1762374384.221120) can0 166#A500000000B603
(1762374384.221363) can0 2E5#000000000000DD00
(1762374384.221614) can0 1D6#00080800282DB010
(1762374384.221777) can0 279#17900C0000
(1762374384.222022) can0 395#F70DFFFFFFFF007D
(1762374384.222273) can0 108#8E00000400008001
(1762374384.222404) can0 2B6#8801
(1762374384.222646) can0 397#000000003B000000
(1762374384.222805) can0 128#8B00EC0A
(1762374384.222995) can0 268#2C2CFF01FF
(1762374384.223531) can0 39D#35630A2800
(1762374384.226478) can0 1D8#0000000000006039
(1762374384.229071) can0 132#107200003840080E
(1762374384.229320) can0 055#020100000000045C
(1762374384.229543) can0 053#D43084C78F384615
(1762374384.230380) can0 266#00002C2C00000000
(1762374384.230666) can0 118#1482F00000080180
(1762374384.230915) can0 3D5#FFFFFFFFFFFFFFFF
(1762374384.231164) can0 527#C080000000000000
(1762374384.231400) can0 315#1839383B50389D7D
(1762374384.231643) can0 36B#0000000000000080
(1762374384.231880) can0 315#0138380038280000
(1762374384.232142) can0 7D5#2B00000000000000
(1762374384.232373) can0 1D5#210000000000E0D7
(1762374384.232629) can0 2E5#000000000000DD00
(1762374384.232876) can0 315#02FFFFFFFF000000
(1762374384.233077) can0 356#6D0B0000AA00
(1762374384.233318) can0 315#FBFFFFFFFBFFFB0F
(1762374384.233552) can0 355#5300640043030618
(1762374384.233795) can0 315#04FFFFFFFF000000
(1762374384.234025) can0 351#AC0B0A00D2007008
(1762374384.234229) can0 5D7#8C8C000000
(1762374384.234479) can0 7D5#3260000000000000
(1762374384.234619) can0 3B6#FFFFFFFF
(1762374384.234876) can0 7D7#322C000000000000
(1762374384.235121) can0 335#0A010533FC000500
(1762374384.235361) can0 7D5#42FD00FD00E41700
(1762374384.235617) can0 3A7#0000000000000000
(1762374384.235861) can0 7D5#43FD00FD003C0000
(1762374384.236103) can0 3B5#0000000000000000
(1762374384.236323) can0 7D5#442D431E56482448
(1762374384.236569) can0 1D8#0000000000008059
(1762374384.236822) can0 3C5#0000000000000000
(1762374384.237055) can0 7D5#4628282828282828
(1762374384.237306) can0 3E5#0000000000000000
(1762374384.237544) can0 7D5#482828000000CA93
(1762374384.237794) can0 367#0000000000000000
(1762374384.238052) can0 368#0000000000000000
(1762374384.238310) can0 36E#0000000000000000
(1762374384.239119) can0 132#107200003840080E
(1762374384.239352) can0 055#030000000000045C
(1762374384.240355) can0 266#00002C2C00000000
(1762374384.240622) can0 118#1583F00000080180
(1762374384.242742) can0 1D5#21000000000000F7
(1762374384.242993) can0 2E5#000000000000DD00
(1762374384.246470) can0 1D8#000000000000A079
(1762374384.249071) can0 132#107200003840080E
(1762374384.249327) can0 055#000000000000055A
(1762374384.249546) can0 053#D43084C78F384615
(1762374384.250383) can0 266#00002C2C00000000
(1762374384.250643) can0 118#1684F00000080180
(1762374384.251289) can0 056#0400000000000B65
(1762374384.252658) can0 1D5#2100000000002017
(1762374384.252915) can0 2E5#000000000000DD00
(1762374384.256472) can0 1D8#000000000000C099
(1762374384.259100) can0 132#107200003840080E
(1762374384.259363) can0 055#010000000000055B
(1762374384.260354) can0 266#00002C2C00000000
(1762374384.260625) can0 118#1785F00000080180
(1762374384.262690) can0 1D5#2100000000004037
(1762374384.262934) can0 2E5#000000000000DD00
(1762374384.263522) can0 39D#36640A2800
(1762374384.263754) can0 221#6105550500003013
(1762374384.264000) can0 3A1#0300986EBE003002
(1762374384.264226) can0 3C2#0155151500005509
(1762374384.264480) can0 441#0000000000000DC7
(1762374384.264705) can0 052#6418138B64312000
(1762374384.264955) can0 339#4144FE0000038000
(1762374384.265187) can0 102#22B348040000A009
(1762374384.265426) can0 103#22B3884400002032
(1762374384.265668) can0 207#0000000000282800
(1762374384.265912) can0 224#0408004019011008
(1762374384.266119) can0 241#3C3C160F8F5500
(1762374384.266368) can0 247#100EFF0000000000
(1762374384.266623) can0 1D8#000000000000E0B9
(1762374384.266861) can0 2A8#020000000080103C
(1762374384.267103) can0 2E8#020000000080107C
(1762374384.267342) can0 2E1#390D00700C000000
(1762374384.267476) can0 500#0101
(1762374384.267718) can0 7FF#02263226441196A2
(1762374384.267943) can0 212#B904A32F01380001
(1762374384.268190) can0 252#0000CD0100000100
(1762374384.268431) can0 25D#3441012A08000000
(1762374384.268660) can0 2D2#302A343A0A008C00
(1762374384.268804) can0 229#440100
(1762374384.268941) can0 2D1#FF01
(1762374384.269125) can0 333#0030840702
(1762374384.269376) can0 125#0000720600000000
(1762374384.269615) can0 126#00C034F310000000
(1762374384.269897) can0 132#107200003840080E
(1762374384.270138) can0 055#020100000000055D
(1762374384.270362) can0 053#D43084C78F384615
(1762374384.271139) can0 266#00002C2C00000000
(1762374384.271376) can0 7D7#02F0320000000000
(1762374384.271611) can0 118#6886300000180180
(1762374384.272643) can0 1D5#2100000000006057
(1762374384.272874) can0 2E5#000000000000DD00
(1762374384.276566) can0 1D8#00000000000000D9
(1762374384.279117) can0 132#107200003840080E
(1762374384.279369) can0 055#030000000000055D
(1762374384.281190) can0 266#00002C2C00000000
(1762374384.281442) can0 7D7#02F0320000000000
(1762374384.281675) can0 118#5987300000080180
(1762374384.281919) can0 297#72441F0002A00F05
(1762374384.282669) can0 1D5#2100000000008077
(1762374384.282922) can0 2E5#000000000000DD00
(1762374384.286587) can0 1D8#00000000000020F9
(1762374384.289100) can0 132#107200003840080E
(1762374384.289359) can0 055#000100000000065C
(1762374384.289575) can0 053#D43084C78F384615
(1762374384.291804) can0 266#00002C2C00000000
(1762374384.292063) can0 7D7#02F0320000000000
(1762374384.292298) can0 118#DA88300000080100
(1762374384.292706) can0 1D5#210000000000A097
(1762374384.292941) can0 2E5#000000000000DD00
(1762374384.295389) can0 554#0021041723C001
(1762374384.295640) can0 344#0000000000000047
(1762374384.295878) can0 6D4#0A010533FC000900
(1762374384.296132) can0 3A0#0000008000000000
(1762374384.296389) can0 384#0000000000000000
(1762374384.296626) can0 1D8#0000000000004019
(1762374384.296884) can0 380#0000000000000000
(1762374384.299104) can0 132#107200003840080E
(1762374384.299351) can0 055#010000000000065C
(1762374384.301344) can0 266#00002C2C00000000
(1762374384.301585) can0 118#DB89300000080100
(1762374384.301828) can0 7D7#02F0320000000000
(1762374384.302071) can0 297#6F451F0002A00F01
(1762374384.302671) can0 1D5#210000000000C0B7
(1762374384.302911) can0 2E5#000000000000DD00
(1762374384.303524) can0 39D#37650A2800
(1762374384.306580) can0 1D8#0000000000006039
(1762374384.309122) can0 132#107200003840080E
(1762374384.309367) can0 055#020100000000065E
(1762374384.309597) can0 053#D43084C78F384615
(1762374384.311803) can0 266#00002C2C00000000
(1762374384.312049) can0 7D7#02F0320000000000
(1762374384.312299) can0 118#DC8A300000080100
(1762374384.312529) can0 375#5030315F30323100
(1762374384.312770) can0 076#010F020F030F00B1
(1762374384.313000) can0 1D5#210000000000E0D7
(1762374384.313247) can0 2E5#000000000000DD00
(1762374384.313567) can0 221#6055551554514128
(1762374384.313810) can0 3A1#884E0BC8000040F4
(1762374384.314038) can0 3C2#1055555500005D19
(1762374384.314273) can0 441#46652220DB0E10A0
(1762374384.314515) can0 55A#0100000030000000
(1762374384.316557) can0 1D8#0000000000008059
(1762374384.319131) can0 132#107200003840080E
(1762374384.319392) can0 055#030000000000065E
(1762374384.321364) can0 266#00002C2C00000000
(1762374384.321624) can0 118#DD8B300000080100
(1762374384.321869) can0 7D7#02F0320000000000
(1762374384.322103) can0 297#70461F0002A00F01
(1762374384.322321) can0 166#2401000000B603
(1762374384.322558) can0 1D6#00080808282D9510
(1762374384.322804) can0 1D5#21000000000000F7
(1762374384.322978) can0 279#08810C0000
(1762374384.323234) can0 2E5#000000000000DD00
(1762374384.323463) can0 395#F1111741FF07047D
(1762374384.323714) can0 108#8F01000400008001
(1762374384.323844) can0 2B6#021B
(1762374384.324096) can0 397#000000003B000000
(1762374384.324251) can0 128#8B00EC0A
(1762374384.324443) can0 268#2C2CFF01FF
(1762374384.326582) can0 1D8#000000000000A079
(1762374384.329164) can0 132#107200003840080E
(1762374384.329416) can0 055#000100000000075D
(1762374384.329645) can0 053#D43084C78F384615
(1762374384.331854) can0 266#00002C2C00000000
(1762374384.332109) can0 7D7#02F0320000000000
(1762374384.332336) can0 276#002D004401660B52
(1762374384.332583) can0 7D5#20FD000000000000
(1762374384.332836) can0 118#7E2C300000080100
(1762374384.333072) can0 1D5#2100000000002017
(1762374384.333317) can0 2E5#000000000000DD00
(1762374384.333564) can0 7D5#21FF00000000E015
(1762374384.333813) can0 7D5#2261000000000000
(1762374384.334060) can0 7D5#23FA000000001027
(1762374384.334313) can0 7D5#24FA000000000000
(1762374384.334547) can0 7D5#25AB000000005E04
(1762374384.334794) can0 7D5#2600252100000000
(1762374384.335038) can0 7D5#27000000FAFA0000
(1762374384.335287) can0 7D5#280000000000FA00
(1762374384.335526) can0 7D5#2900000094100000
(1762374384.335768) can0 7D5#2A0000FA43000000
(1762374384.336022) can0 7D5#2B00000000000000
(1762374384.336265) can0 7D5#2ECDFF1F04000000
(1762374384.336466) can0 356#6D0B0000AA00
(1762374384.336711) can0 1D8#000000000000C099
(1762374384.336948) can0 355#5300640043030618
(1762374384.337183) can0 351#AC0B0A00D2007008
(1762374384.337428) can0 7D5#2F00000000004600
(1762374384.337672) can0 7D5#306E6E3566000000
(1762374384.337922) can0 7D5#3100000000000000
(1762374384.338164) can0 7D5#3260000000000000
(1762374384.338409) can0 7D5#3400000000000000
(1762374384.338669) can0 7D5#3F00000000000000
(1762374384.338925) can0 7D7#200100FAFAFAFA01
(1762374384.339164) can0 132#107200003840080E
(1762374384.339409) can0 055#010000000000075D
(1762374384.339656) can0 7D7#21FF0F00FAFA0000
(1762374384.339891) can0 7D7#2290650000000000
(1762374384.340151) can0 7D7#2300000000000000
(1762374384.340395) can0 7D7#2400000000000000
(1762374384.340643) can0 7D7#2500000000000000
(1762374384.340899) can0 7D7#2600000000000000
(1762374384.341151) can0 7D7#2700400000000000
(1762374384.341397) can0 7D7#2D000000000D0000
(1762374384.341633) can0 7D7#322C000000000000
(1762374384.341883) can0 266#00002C2C00000000
(1762374384.342127) can0 7D7#3590650000000000
(1762374384.342362) can0 276#002D004401660B52
(1762374384.342604) can0 7D7#02F0320000000000
(1762374384.342851) can0 118#7F2D300000080100
(1762374384.343075) can0 297#71471F0002A00F01
(1762374384.345377) can0 1D5#2100000000004037
(1762374384.345616) can0 2E5#000000000000DD00
(1762374384.345798) can0 39D#38660A2800
(1762374384.346608) can0 1D8#000000000000E0B9
(1762374384.349142) can0 132#107200003840080E
(1762374384.349386) can0 055#020100000000075F
(1762374384.349614) can0 053#D43084C78F384615
(1762374384.350365) can0 056#0400000000000C66
(1762374384.351851) can0 266#00002C2C00000000
(1762374384.352099) can0 7D7#02F0320000000000
(1762374384.352333) can0 276#002D004401660B52
(1762374384.352577) can0 118#802E300000080100
(1762374384.354662) can0 1D5#2100000000006057
(1762374384.354913) can0 2E5#000000000000DD00
(1762374384.356558) can0 1D8#00000000000000D9
(1762374384.359124) can0 132#107200003840080E
(1762374384.359376) can0 055#030000000000075F
(1762374384.360337) can0 6B0#00A700487243005C
(1762374384.360591) can0 6B4#0163000100150000
(1762374384.360834) can0 6B3#00110000000F0000
(1762374384.361061) can0 6B2#004600809E6100C5
(1762374384.361298) can0 6B1#001500009EC2002E
(1762374384.361544) can0 266#00002C2C00000000
(1762374384.361788) can0 7D7#02F0320000000000
(1762374384.362028) can0 276#002D004401660B52
(1762374384.362271) can0 118#812F300000080100
(1762374384.362498) can0 297#72481F0002A00F01
(1762374384.363632) can0 221#6105550500005033
(1762374384.363864) can0 3A1#0300986EBE005022
(1762374384.364104) can0 3C2#0155151500005509
(1762374384.364343) can0 441#00000000000015CF
(1762374384.364581) can0 052#6418138B64312000
(1762374384.364824) can0 339#4144FE0000038000
(1762374384.365060) can0 102#22B348040000A009
(1762374384.365289) can0 103#22B3884400002032
(1762374384.365539) can0 207#0000000000282800
(1762374384.365785) can0 224#0408004019011008
(1762374384.365990) can0 241#3C3C160F8F5500
(1762374384.366248) can0 247#100EFF0000000000
(1762374384.366485) can0 2A8#040000000080204E
(1762374384.366730) can0 1D8#00000000000020F9
(1762374384.366981) can0 2E8#040000000080208E
(1762374384.367213) can0 2E1#02000000FF000200
(1762374384.367352) can0 500#0101
(1762374384.367595) can0 7FF#03300868E1410082
(1762374384.367821) can0 212#B904A32F01380001
(1762374384.368060) can0 252#0000CD0100000100
(1762374384.368306) can0 25D#3441012A08000000
(1762374384.368539) can0 2D2#302A343A0A008C00
(1762374384.368677) can0 229#520200
(1762374384.368825) can0 2D1#FF01
(1762374384.369002) can0 333#0030840702
(1762374384.369244) can0 125#0000680B00000000
(1762374384.369489) can0 126#00C234F310000000
(1762374384.369719) can0 3D9#5A1CD27D9D103EFF
(1762374384.369968) can0 132#107200003840080E
(1762374384.370206) can0 055#000100000000085E
(1762374384.370450) can0 1D5#2100000000008077
(1762374384.370707) can0 2E5#000000000000DD00
(1762374384.370929) can0 053#D43084C78F384615
(1762374384.371942) can0 266#00002C2C00000000
(1762374384.372186) can0 7D7#02F0320000000000
(1762374384.372432) can0 118#9240300000080100
(1762374384.376318) can0 35B#70090500
(1762374384.376553) can0 1D8#0000000000004019
(1762374384.376730) can0 35A#00000000
(1762374384.376965) can0 036#049EB210129EB90B
(1762374384.379156) can0 132#107200003840080E
(1762374384.379409) can0 055#010000000000085E
(1762374384.379673) can0 1D5#210000000000A097
(1762374384.379927) can0 2E5#000000000000DD00
(1762374384.381649) can0 266#00002C2C00000000
(1762374384.381903) can0 7D7#02F0320000000000
(1762374384.382145) can0 118#9341300000080100
(1762374384.382368) can0 297#73491F0002A00F01
(1762374384.384582) can0 39D#39670A2800
(1762374384.386575) can0 1D8#0000000000006039
(1762374384.389143) can0 132#107200003840080E
(1762374384.389386) can0 055#0201000000000860
(1762374384.389708) can0 1D5#210000000000C0B7
(1762374384.389955) can0 2E5#000000000000DD00
(1762374384.390619) can0 053#D43084C78F384615
(1762374384.391891) can0 266#00002C2C00000000
(1762374384.392157) can0 7D7#02F0320000000000
(1762374384.392373) can0 118#B462300000080100
(1762374384.396552) can0 1D8#0000000000008059
(1762374384.399164) can0 132#107200003840080E
(1762374384.399416) can0 055#0300000000000860
(1762374384.399687) can0 1D5#210000000000E0D7
(1762374384.399941) can0 2E5#000000000000DD00
(1762374384.401645) can0 266#00002C2C00000000
(1762374384.401893) can0 7D7#02F0320000000000
(1762374384.402136) can0 118#B563300000080100
(1762374384.402363) can0 297#744A1F0002A00F01
(1762374384.406572) can0 1D8#000000000000A079
(1762374384.409180) can0 132#107200003840080E
(1762374384.409433) can0 055#000100000000095F
(1762374384.409696) can0 1D5#21000000000000F7
(1762374384.409943) can0 2E5#000000000000DD00
(1762374384.410652) can0 053#D43084C78F384615
(1762374384.411884) can0 266#00002C2C00000000
(1762374384.412173) can0 7D7#02F0320000000000
(1762374384.412376) can0 118#B664300000080100
(1762374384.412618) can0 376#5030315F30310000
(1762374384.412844) can0 076#040F050F061100BC
(1762374384.413668) can0 221#6055551554516148
(1762374384.413916) can0 3A1#884E0BC800006014
(1762374384.414140) can0 3C2#1055555500005D19
(1762374384.414367) can0 441#46652220DB0E18A8
(1762374384.416544) can0 1D8#000000000000C099
(1762374384.419195) can0 132#107200003840080E
(1762374384.419452) can0 055#010000000000095F
(1762374384.419699) can0 1D5#2100000000002017
(1762374384.419948) can0 2E5#000000000000DD00
(1762374384.421649) can0 266#00002C2C00000000
(1762374384.421904) can0 7D7#02F0320000000000
(1762374384.422141) can0 118#B765300000080100
(1762374384.422355) can0 166#2509000000B603
(1762374384.422601) can0 297#754B1F0002A00F01
(1762374384.422839) can0 1D6#00080800282D7810
(1762374384.423022) can0 279#09820C0000
(1762374384.423258) can0 395#F1111741FF07047D
(1762374384.423514) can0 108#9002000400008001
(1762374384.423658) can0 2B6#021B
(1762374384.423896) can0 397#000000003B000000
(1762374384.424050) can0 128#83003802
(1762374384.424241) can0 268#2C2CFF01FF
(1762374384.424641) can0 39D#3A680A2800
(1762374384.426567) can0 1D8#000000000000E0B9
(1762374384.429195) can0 132#107200003840080E
(1762374384.429436) can0 055#0201000000000961
(1762374384.429724) can0 1D5#2100000000004037
(1762374384.429971) can0 2E5#000000000000DD00
(1762374384.430665) can0 053#D43084C78F384615
(1762374384.431881) can0 266#00002C2C00000000
(1762374384.432132) can0 7D7#02F0320000000000
(1762374384.432379) can0 118#B866300000080100
(1762374384.432611) can0 7D5#20FA000000000000
(1762374384.432860) can0 7D5#21FE00000000E015
(1762374384.433116) can0 7D5#2261000000000000
(1762374384.433353) can0 7D5#23FA000000001027
(1762374384.433605) can0 7D5#24FA000000000000
(1762374384.433856) can0 7D5#25AA000000008F24
(1762374384.434092) can0 7D5#2600252100000000
(1762374384.434337) can0 7D5#27250000FAFA0000
(1762374384.434588) can0 7D5#280000000000FA00
(1762374384.434834) can0 7D5#290000005B100000
(1762374384.435068) can0 7D5#2A0000FA43000000
(1762374384.435341) can0 7D5#2B00000000000000
(1762374384.435577) can0 7D5#2ECDFF1F04000000
(1762374384.435826) can0 7D5#2F00000000004600
(1762374384.436064) can0 7D5#306E6E3566000000
(1762374384.436314) can0 7D5#3100000000000000
(1762374384.436564) can0 1D8#00000000000000D9
(1762374384.436807) can0 7D5#3260000000000000
(1762374384.437064) can0 7D5#3400000000000000
(1762374384.437307) can0 7D5#3F00000000000000
(1762374384.437552) can0 7D7#200100FAFAFAFA01
(1762374384.437800) can0 7D7#21FF0F00FAFA0000
(1762374384.438048) can0 7D7#2290650000000000
(1762374384.438296) can0 7D7#2300000000000000
(1762374384.438547) can0 7D7#2400000000000000
(1762374384.438803) can0 7D7#2500000000000000
(1762374384.439057) can0 7D7#2600000000000000
(1762374384.439295) can0 132#107200003840080E
(1762374384.439537) can0 055#0300000000000961
(1762374384.439781) can0 1D5#2100000000006057
(1762374384.440032) can0 2E5#000000000000DD00
(1762374384.440279) can0 7D7#2700400000000000
(1762374384.440482) can0 356#6D0B0000AA00
(1762374384.440712) can0 355#5300640043030618
(1762374384.440943) can0 351#AC0B0A00D2007008
(1762374384.441197) can0 7D7#2D00000000040000
(1762374384.441446) can0 7D7#322C000000000000
(1762374384.441689) can0 266#00002C2C00000000
(1762374384.441935) can0 7D7#3590650000000000
(1762374384.442175) can0 118#B967300000080100
(1762374384.442423) can0 7D7#02F0320000000000
(1762374384.442654) can0 297#764C1F0002A00F01
(1762374384.446566) can0 1D8#00000000000020F9
(1762374384.449171) can0 132#107200003840080E
(1762374384.449419) can0 055#0001000000000A60
(1762374384.449665) can0 056#0400000000000D67
(1762374384.449899) can0 1D5#2100000000008077
(1762374384.450154) can0 2E5#000000000000DD00
(1762374384.450671) can0 053#D43084C78F384615
(1762374384.451886) can0 266#00002C2C00000000
(1762374384.452147) can0 7D7#02F0320000000000
(1762374384.452386) can0 118#BA68300000080100
(1762374384.456542) can0 1D8#0000000000004019
(1762374384.459181) can0 132#107200003840080E
(1762374384.459432) can0 055#0100000000000A60
(1762374384.459718) can0 1D5#210000000000A097
(1762374384.459973) can0 2E5#000000000000DD00
(1762374384.461632) can0 266#00002C2C00000000
(1762374384.461894) can0 7D7#02F0320000000000
(1762374384.462125) can0 118#BB69300000080100
(1762374384.462359) can0 297#774D1F0002A00F01
(1762374384.463654) can0 221#6105550500007053
(1762374384.463900) can0 3A1#0300986EBE007042
(1762374384.464129) can0 3C2#0155151500005509
(1762374384.464367) can0 441#0000000000001DD7
(1762374384.464600) can0 052#6418138B64312000
(1762374384.464848) can0 339#4144FE0000038000
(1762374384.465082) can0 102#22B348040000A009
(1762374384.465322) can0 103#22B3884400002032
(1762374384.465570) can0 207#0000000000282800
(1762374384.465809) can0 224#0408004019011008
(1762374384.466027) can0 241#3C3C160F8F5500
(1762374384.466269) can0 247#100EFF0000000000
(1762374384.466508) can0 2A8#040000000080305E
(1762374384.466756) can0 1D8#0000000000006039
(1762374384.466998) can0 2E8#040000000080309E
(1762374384.467228) can0 2E1#036D9902194F0000
(1762374384.467354) can0 500#0101
(1762374384.467610) can0 7FF#0477000000000000
(1762374384.467842) can0 212#B904A32F01380001
(1762374384.468091) can0 252#0000CD0100000100
(1762374384.468331) can0 25D#3441012A08000000
(1762374384.468557) can0 2D2#302A343A0A008C00
(1762374384.468707) can0 229#6D0300
(1762374384.468841) can0 2D1#FF01
(1762374384.469020) can0 333#0030840702
(1762374384.469271) can0 125#0A00720B00000000
(1762374384.469503) can0 126#00C234F310000000
(1762374384.469738) can0 3D9#5A1CD27D9D103EFF
(1762374384.469974) can0 132#107200003840080E
(1762374384.470222) can0 055#0201000000000A62
(1762374384.470487) can0 1D5#210000000000C0B7
(1762374384.470719) can0 2E5#000000000000DD00
(1762374384.470938) can0 053#D43084C78F384615
(1762374384.471931) can0 266#00002C2C00000000
(1762374384.472107) can0 39D#3B690A2800
(1762374384.472352) can0 118#BC6A300000080100
(1762374384.472596) can0 7D7#02F0320000000000
(1762374384.476542) can0 1D8#0000000000008059
(1762374384.479219) can0 132#107200003840080E
(1762374384.479462) can0 055#0300000000000A62
(1762374384.479748) can0 1D5#210000000000E0D7
(1762374384.479997) can0 2E5#000000000000DD00
(1762374384.481626) can0 266#00002C2C00000000
(1762374384.481886) can0 7D7#02F0320000000000
(1762374384.482119) can0 118#BD6B300000080100
(1762374384.482350) can0 297#784E1F0002A00F01
(1762374384.486561) can0 1D8#000000000000A079
(1762374384.489204) can0 132#107200003840080E
(1762374384.489459) can0 055#0001000000000B61
(1762374384.489742) can0 1D5#21000000000000F7
(1762374384.489989) can0 2E5#000000000000DD00
(1762374384.490696) can0 053#D43084C78F384615
(1762374384.491874) can0 266#00002C2C00000000
(1762374384.492131) can0 7D7#02F0320000000000
(1762374384.492373) can0 118#BE6C300000080100
(1762374384.496540) can0 1D8#000000000000C099
(1762374384.499227) can0 132#107200003840080E
(1762374384.499489) can0 055#0100000000000B61
(1762374384.499767) can0 1D5#2100000000002017
(1762374384.500009) can0 2E5#000000000000DD00
(1762374384.501626) can0 266#00002C2C00000000
(1762374384.501873) can0 7D7#02F0320000000000
(1762374384.502108) can0 118#BF6D300000080100
(1762374384.502352) can0 297#794F1F0002A00F01
(1762374384.506557) can0 1D8#000000000000E0B9
(1762374384.509236) can0 132#107200003840080E
(1762374384.509488) can0 055#0201000000000B63
(1762374384.509766) can0 1D5#2100000000004037
(1762374384.509991) can0 2E5#000000000000DD00
(1762374384.510699) can0 053#D43084C78F384615
(1762374384.511636) can0 39D#3C6A0A2800
(1762374384.511887) can0 266#00002C2C00000000
(1762374384.512137) can0 7D7#02F0320000000000
(1762374384.512376) can0 118#C06E300000080100
(1762374384.512615) can0 377#5030315F30370000
(1762374384.512846) can0 076#0711000F010F00B5
(1762374384.513679) can0 221#6055551554518168
(1762374384.513918) can0 3A1#884E0BC800008034
(1762374384.514146) can0 3C2#1055555500005D19
(1762374384.514379) can0 441#46652220DB0E20B0
(1762374384.516538) can0 1D8#00000000000000D9
(1762374384.519237) can0 132#107200003840080E
(1762374384.519478) can0 055#0300000000000B63
(1762374384.519779) can0 1D5#2100000000006057
(1762374384.520019) can0 2E5#000000000000DD00
(1762374384.521646) can0 266#00002C2C00000000
(1762374384.521908) can0 7D7#02F0320000000000
(1762374384.522141) can0 118#C16F300000080100
(1762374384.522349) can0 166#2509000000B603
(1762374384.522590) can0 297#6A401F0002A00F01
(1762374384.522830) can0 1D6#00080800282D7A10
(1762374384.523016) can0 279#0A830C0000
(1762374384.523245) can0 395#F1111741FF07047D
(1762374384.523487) can0 108#9103000400008001
(1762374384.523622) can0 2B6#021B
(1762374384.523868) can0 397#000000003B000000
(1762374384.524031) can0 128#83003802
(1762374384.524215) can0 268#2C2CFF01FF
(1762374384.526559) can0 1D8#00000000000020F9
(1762374384.529249) can0 132#107200003840080E
(1762374384.529503) can0 055#0001000000000C62
(1762374384.529773) can0 1D5#2100000000008077
(1762374384.530017) can0 2E5#000000000000DD00
(1762374384.530714) can0 053#D43084C78F384615
(1762374384.531885) can0 266#00002C2C00000000
(1762374384.532147) can0 7D7#02F0320000000000
(1762374384.532383) can0 118#B260300000080100
(1762374384.532640) can0 7D5#20FA000000000000
(1762374384.532881) can0 7D5#21FE00000000E015
(1762374384.533117) can0 7D5#2261000000000000
(1762374384.533367) can0 7D5#23FA000000001027
(1762374384.533625) can0 7D5#24FA000000000000
(1762374384.533856) can0 7D5#25AB00000000C501
(1762374384.534101) can0 7D5#2600252100000000
(1762374384.534343) can0 7D5#275E0000FAFA0000
(1762374384.534597) can0 7D5#280000000000FA00
(1762374384.534862) can0 7D5#290000006D100000
(1762374384.535091) can0 7D5#2A0000FA43000000
(1762374384.535346) can0 7D5#2B00000000000000
(1762374384.535587) can0 7D5#2ECDFF1F04000000
(1762374384.535830) can0 7D5#2F00000000004600
(1762374384.536077) can0 7D5#306E6E3566000000
(1762374384.536326) can0 7D5#3100000000000000
(1762374384.536571) can0 1D8#0000000000004019
(1762374384.536822) can0 7D5#3260000000000000
(1762374384.537067) can0 7D5#3400000000000000
(1762374384.537331) can0 7D5#3F00000000000000
(1762374384.537584) can0 7D7#200100FAFAFAFA01
(1762374384.537830) can0 7D7#21FF0F00FAFA0000
(1762374384.538074) can0 7D7#2290650000000000
(1762374384.538332) can0 7D7#2300000000000000
(1762374384.538573) can0 7D7#2400000000000000
(1762374384.538833) can0 7D7#2500000000000000
(1762374384.539072) can0 7D7#2600000000000000
(1762374384.539320) can0 132#107200003840080E
(1762374384.539562) can0 055#0100000000000C62
(1762374384.539808) can0 1D5#210000000000A097
(1762374384.540054) can0 2E5#000000000000DD00
(1762374384.540300) can0 7D7#2700400000000000
(1762374384.540556) can0 7D7#2D00000000040000
(1762374384.540815) can0 7D7#322C000000000000
(1762374384.541047) can0 7D7#3590650000000000
(1762374384.541693) can0 266#00002C2C00000000
(1762374384.541937) can0 7D7#02F0320000000000
(1762374384.542175) can0 118#B361300000080100
(1762374384.542429) can0 297#6B411F0002A00F01
(1762374384.544399) can0 351#AC0B0A00D2007008
(1762374384.544595) can0 356#6D0B0000AA00
(1762374384.544837) can0 355#5300640043030618
(1762374384.546559) can0 1D8#0000000000006039
(1762374384.548549) can0 056#0400000000000E68
(1762374384.549266) can0 132#107200003840080E
(1762374384.549511) can0 055#0201000000000C64
(1762374384.549805) can0 1D5#210000000000C0B7
(1762374384.550048) can0 2E5#000000000000DD00
(1762374384.550712) can0 053#D43084C78F384615
(1762374384.551665) can0 39D#3D6B0A2800
(1762374384.551924) can0 266#00002C2C00000000
(1762374384.552166) can0 7D7#02F0320000000000
(1762374384.552406) can0 118#B462300000080100
(1762374384.556534) can0 1D8#0000000000008059
(1762374384.559237) can0 132#107200003840080E
(1762374384.559480) can0 055#0300000000000C64
(1762374384.559838) can0 1D5#210000000000E0D7
(1762374384.560078) can0 2E5#000000000000DD00
(1762374384.561646) can0 266#00002C2C00000000
(1762374384.561909) can0 7D7#02F0320000000000
(1762374384.562144) can0 118#B563300000080100
(1762374384.562380) can0 297#6C421F0002A00F01
(1762374384.563717) can0 221#6105550500009073
(1762374384.563963) can0 3A1#0300986EBE009062
(1762374384.564189) can0 3C2#0155151500005509
(1762374384.564443) can0 441#00000000000025DF
(1762374384.564679) can0 052#6418138B64312000
(1762374384.564912) can0 339#4144FE0000038000
(1762374384.565155) can0 102#22B348040000A009
(1762374384.565389) can0 103#22B3884400002032
(1762374384.565632) can0 207#0000000000282800
(1762374384.565878) can0 224#0408004019011008
(1762374384.566086) can0 241#3C3C160F8F5500
(1762374384.566344) can0 247#100EFF0000000000
(1762374384.566582) can0 1D8#000000000000A079
(1762374384.566829) can0 2A8#040000000080406E
(1762374384.567071) can0 2E8#04000000008040AE
(1762374384.567310) can0 2E1#FC1FAFD998B51900
(1762374384.567412) can0 500#0101
(1762374384.567688) can0 7FF#050000002000C002
(1762374384.567923) can0 212#B904A32F01380001
(1762374384.568164) can0 252#0000CD0100000100
(1762374384.568402) can0 25D#3441012A08000000
(1762374384.568640) can0 2D2#302A343A0A008C00
(1762374384.568780) can0 229#430400
(1762374384.568915) can0 2D1#FF01
(1762374384.569104) can0 333#0030840702
(1762374384.569340) can0 125#0A00720B00000000
(1762374384.569582) can0 126#00C234F310000000
(1762374384.569814) can0 3D9#5A1CD27D9D103EFF
(1762374384.570063) can0 55A#0100000030000000
(1762374384.570196) can0 213#0015
(1762374384.570451) can0 284#10000000C0000000
(1762374384.570683) can0 293#9608000021100367
(1762374384.570919) can0 313#0200C807000000E7
(1762374384.571163) can0 334#3F7F1402F023001E
(1762374384.571384) can0 3B3#9080052280009825
(1762374384.571836) can0 266#00002C2C00000000
(1762374384.572077) can0 132#107200003840080E
(1762374384.572314) can0 055#0001000000000D63
(1762374384.572558) can0 118#BB643000000D0100
(1762374384.572798) can0 1D5#21000000000000F7
(1762374384.573046) can0 2E5#000000000000DD00
(1762374384.573292) can0 7D7#02F0320000000000
(1762374384.574000) can0 053#D43084C78F384615
(1762374384.576545) can0 1D8#000000000000C099
(1762374384.581224) can0 266#00002C2C00000000
(1762374384.581473) can0 132#107200003840080E
(1762374384.581703) can0 055#0100000000000D63
(1762374384.581952) can0 118#3C653000000D0180
(1762374384.582191) can0 7D7#02F0320000000000
(1762374384.582418) can0 297#71431F0002A00F05
(1762374384.583845) can0 1D5#2100000000002017
(1762374384.584104) can0 2E5#000000000000DD00
(1762374384.586551) can0 1D8#000000000000E0B9
(1762374384.591293) can0 132#107200003840080E
(1762374384.591537) can0 055#0201000000000D65
(1762374384.591783) can0 266#00002C2C00000000
(1762374384.592030) can0 1D5#2100000000004037
(1762374384.592266) can0 118#3C663000000D0080
(1762374384.592518) can0 2E5#000000000000DD00
(1762374384.592763) can0 7D7#02F0320000000000
(1762374384.593265) can0 39D#3E6C0A2800
(1762374384.594169) can0 053#D43084C78F384615
(1762374384.596530) can0 1D8#00000000000000D9
(1762374384.601222) can0 266#00002C2C00000000
(1762374384.601461) can0 132#107200003840080E
(1762374384.601712) can0 055#0300000000000D65
(1762374384.601950) can0 118#3D673000000D0080
(1762374384.602194) can0 1D5#2100000000006057
(1762374384.602425) can0 297#72441F0002A00F05
(1762374384.602673) can0 2E5#000000000000DD00
(1762374384.602923) can0 7D7#02F0320000000000
(1762374384.606554) can0 1D8#00000000000020F9
(1762374384.611266) can0 132#107200003840080E
(1762374384.611522) can0 055#0001000000000E64
(1762374384.611760) can0 266#00002C2C00000000
(1762374384.612001) can0 1D5#2100000000008077
(1762374384.612246) can0 118#3E683000000D0080
(1762374384.612497) can0 2E5#000000000000DD00
(1762374384.612738) can0 379#9C00000000000000
(1762374384.612972) can0 076#020F030F040F00B4
(1762374384.613229) can0 7D7#02F0320000000000
(1762374384.613785) can0 053#D43084C78F384615
(1762374384.614740) can0 221#605555155451A188
(1762374384.614982) can0 3A1#884E0BC80000A054
(1762374384.615205) can0 3C2#1055555500005D19
(1762374384.615422) can0 441#46652220DB0E28B8
(1762374384.616528) can0 1D8#0000000000004019
(1762374384.621222) can0 266#00002C2C00000000
(1762374384.621465) can0 132#107200003840080E
(1762374384.621714) can0 055#0100000000000E64
(1762374384.621946) can0 118#3F693000000D0080
(1762374384.622172) can0 166#2509000000B603
(1762374384.622414) can0 1D5#210000000000A097
(1762374384.622646) can0 297#73451F0002A00F05
(1762374384.622896) can0 1D6#00080800282D5910
(1762374384.623138) can0 2E5#000000000000DD00
(1762374384.623322) can0 279#0B840C0000
(1762374384.623567) can0 7D7#02F0320000000000
(1762374384.623801) can0 395#F1111741FF07047D
(1762374384.624046) can0 108#1404000200000005
(1762374384.624160) can0 2B6#DA19
(1762374384.624421) can0 397#000000003B000000
(1762374384.624605) can0 128#83003802
(1762374384.624788) can0 268#2C2CFF01FF
(1762374384.626548) can0 1D8#0800000000006041
(1762374384.631284) can0 132#107200003840080E
(1762374384.631533) can0 055#0201000000000E66
(1762374384.631839) can0 1D5#210000000000C0B7
(1762374384.632092) can0 266#00002C2C00000000
(1762374384.632340) can0 2E5#000000000000DD00
(1762374384.632586) can0 118#406A3000000D0080
(1762374384.632746) can0 39D#3F6D0A2800
(1762374384.632998) can0 527#A980000000000000
(1762374384.633244) can0 7D7#02F0320000000000
(1762374384.633494) can0 527#B580000000000000
(1762374384.633737) can0 7D5#20FF000000000000
(1762374384.633984) can0 36B#0000000000011080
(1762374384.634212) can0 053#D43084C78F384615
(1762374384.634448) can0 7D5#210100000000E015
(1762374384.634700) can0 7D5#2261000000000000
(1762374384.634948) can0 7D5#23FA000000001027
(1762374384.635200) can0 7D5#24FA000000000000
(1762374384.635429) can0 7D5#25AB000000006403
(1762374384.635673) can0 7D5#2660522100000000
(1762374384.635916) can0 7D5#27730000FAFA0000
(1762374384.636167) can0 7D5#280000000000FA00
(1762374384.636415) can0 7D5#2900000058100000
(1762374384.636662) can0 1D8#0800000000008061
(1762374384.636905) can0 7D5#2A0001FA43000000
(1762374384.637158) can0 7D5#2B00000000000000
(1762374384.637408) can0 7D5#2ECDFF1F04000000
(1762374384.637658) can0 7D5#2F00000000004600
(1762374384.637886) can0 7D5#306E6E3566010000
(1762374384.638144) can0 7D5#3100000000000000
(1762374384.638387) can0 7D5#3206000000000000
(1762374384.638640) can0 7D5#3400000000000000
(1762374384.638895) can0 7D5#3F00000000000000
(1762374384.639144) can0 7D7#200100FAFAFAFA01
(1762374384.639385) can0 7D7#21FF0F00FAFA0000
(1762374384.639631) can0 7D7#2290650000000000
(1762374384.639896) can0 7D7#2300000000000000
(1762374384.640149) can0 7D7#2400000000000000
(1762374384.640405) can0 7D7#2500000000000000
(1762374384.640644) can0 7D7#2600000000000000
(1762374384.640891) can0 7D7#2700400000000000
(1762374384.641139) can0 7D7#2D00000000010000
(1762374384.641379) can0 132#107200003840080E
(1762374384.641618) can0 055#0300000000000E66
(1762374384.641867) can0 1D5#210000000000E0D7
(1762374384.642111) can0 266#00002C2C00000000
(1762374384.642354) can0 2E5#000000000000DD00
(1762374384.642595) can0 118#416B3000000D0080
(1762374384.642839) can0 7D7#322C000000000000
(1762374384.643079) can0 297#74461F0002A00F05
(1762374384.643321) can0 7D7#3590650000000000
(1762374384.643574) can0 7D7#02F0320000000000
(1762374384.646554) can0 1D8#080000000000A081
(1762374384.647634) can0 056#0400000000000F69
(1762374384.648385) can0 351#AC0B0A00D2007008
(1762374384.648587) can0 356#6D0B0000AA00
(1762374384.648819) can0 355#5300640043030618
(1762374384.651314) can0 132#107200003840080E
(1762374384.651562) can0 055#0001000000000F65
(1762374384.651832) can0 266#00002C2C00000000
(1762374384.652069) can0 1D5#21000000000000F7
(1762374384.652311) can0 118#426C3000000D0080
(1762374384.652555) can0 2E5#000000000000DD00
(1762374384.652811) can0 7D7#02F0320000000000
(1762374384.653769) can0 053#D43084C78F384615
(1762374384.656524) can0 1D8#100000000000C0A9
(1762374384.661321) can0 132#107200003840080E
(1762374384.661566) can0 055#0100000000000F65
(1762374384.661817) can0 266#00002C2C00000000
(1762374384.662059) can0 1D5#2100000000002017
(1762374384.662302) can0 118#436D3000000D0080
(1762374384.662541) can0 2E5#000000000000DD00
(1762374384.662779) can0 297#75471F0002A00F05
(1762374384.663025) can0 7D7#02F0320000000000
(1762374384.663770) can0 052#6418138B64312000
(1762374384.664024) can0 339#4144FE0000038000
(1762374384.664261) can0 102#22B348040000A009
(1762374384.664495) can0 103#22B3884400002032
(1762374384.664737) can0 207#0000000000282800
(1762374384.664991) can0 224#0408004019011008
(1762374384.665198) can0 241#3C3C160F8F5500
(1762374384.665454) can0 247#100EFF0000000000
(1762374384.665687) can0 2A8#040000000080507E
(1762374384.665938) can0 2E8#04000000008050BE
(1762374384.666181) can0 2E1#0500000000000000
(1762374384.666308) can0 500#0101
(1762374384.666566) can0 1D8#100000000000E0C9
(1762374384.666813) can0 7FF#0600000000000000
(1762374384.667048) can0 212#B904A32F01380001
(1762374384.667286) can0 252#0000CD0100000100
(1762374384.667529) can0 25D#3441012A08000000
(1762374384.667762) can0 2D2#302A343A0A008C00
(1762374384.667916) can0 229#410500
(1762374384.668049) can0 2D1#FF01
(1762374384.668224) can0 333#0030840702
(1762374384.668475) can0 125#0A00720B00000000
(1762374384.668717) can0 126#00C2000010000000
(1762374384.668957) can0 3D9#5A1CD27D9D103EFF
(1762374384.669368) can0 221#610555050000B093
(1762374384.669597) can0 3A1#0300986EBE00B082
(1762374384.669828) can0 3C2#0155151500005509
(1762374384.670080) can0 441#0000000000002DE7
(1762374384.671328) can0 132#107200003840080E
(1762374384.671563) can0 055#0201000000000F67
(1762374384.671844) can0 266#00002C2C00000000
(1762374384.672089) can0 1D5#2100000000004037
(1762374384.672327) can0 118#446E3000000D0080
(1762374384.672570) can0 2E5#000000000000DD00
(1762374384.672816) can0 7D7#02F0320000000000
(1762374384.673000) can0 39D#406E0A2800
(1762374384.674190) can0 053#D43084C78F384615
(1762374384.676523) can0 1D8#08000000000000E1
(1762374384.681327) can0 266#00002C2C00000000
(1762374384.681576) can0 132#107200003840080E
(1762374384.681810) can0 055#0300000000000F67
(1762374384.682052) can0 118#456F3000000D0080
(1762374384.682296) can0 1D5#2100000000006057
(1762374384.682531) can0 297#76481F0002A00F05
(1762374384.682778) can0 2E5#000000000000DD00
(1762374384.683028) can0 7D7#02F0320000000000
(1762374384.686548) can0 1D8#0800000000002001
(1762374384.691339) can0 132#107200003840080E
(1762374384.691588) can0 055#0001000000000056
(1762374384.691828) can0 266#00002C2C00000000
(1762374384.692077) can0 1D5#2100000000008077
(1762374384.692313) can0 118#36603000000D0080
(1762374384.692563) can0 2E5#000000000000DD00
(1762374384.692807) can0 7D7#02F0320000000000
(1762374384.693848) can0 053#D43084C78F384615
(1762374384.696516) can0 1D8#1800000000004031
(1762374384.701320) can0 132#107200003840080E
(1762374384.701577) can0 055#0100000000000056
(1762374384.701818) can0 266#00002C2C00000000
(1762374384.702061) can0 1D5#210000000000A097
(1762374384.702303) can0 118#37613000000D0080
(1762374384.702553) can0 2E5#000000000000DD00
(1762374384.702778) can0 297#77491F0002A00F05
(1762374384.703023) can0 7D7#02F0320000000000
(1762374384.706539) can0 1D8#1800000000006051
(1762374384.711335) can0 132#107200003840080E
(1762374384.711580) can0 055#0201000000000058
(1762374384.711884) can0 1D5#210000000000C0B7
(1762374384.712136) can0 266#00002C2C00000000
(1762374384.712386) can0 2E5#000000000000DD00
(1762374384.712618) can0 118#38623000000D0080
(1762374384.712858) can0 380#4C35414136343033
(1762374384.713092) can0 076#050F0611071100C1
(1762374384.713271) can0 39D#416F0A2800
(1762374384.713519) can0 7D7#02F0320000000000
(1762374384.713920) can0 053#D43084C78F384615
(1762374384.716516) can0 1D8#1800000000008071
(1762374384.718813) can0 221#605555155451C1A8
(1762374384.719045) can0 3A1#884E0BC80000C074
(1762374384.719279) can0 3C2#1055555500005D19
(1762374384.719509) can0 441#46652220DB0E30C0
(1762374384.721340) can0 132#107200003840080E
(1762374384.721603) can0 055#0300000000000058
(1762374384.721843) can0 266#00002C2C00000000
(1762374384.722077) can0 1D5#210000000000E0D7
(1762374384.722319) can0 118#39633000000D0080
(1762374384.722540) can0 166#2409000000B603
(1762374384.722776) can0 297#784A1F0002A00F05
(1762374384.723009) can0 1D6#00080800282D7310
(1762374384.723264) can0 2E5#000000000000DD00
(1762374384.723441) can0 279#0C850C0000
(1762374384.723697) can0 7D7#02F0320000000000
(1762374384.723929) can0 395#F0110A41FF00007D
(1762374384.724170) can0 108#1505000200000005
(1762374384.724304) can0 2B6#DA01
(1762374384.724631) can0 397#000000003B000000
(1762374384.724795) can0 128#83003802
(1762374384.724983) can0 268#2C2CFF01FF
(1762374384.726537) can0 1D8#180000000000A091
(1762374384.731346) can0 132#107200003840080E
(1762374384.731594) can0 055#0001000000000157
(1762374384.731891) can0 1D5#21000000000000F7
(1762374384.732137) can0 266#00002C2C00000000
(1762374384.732379) can0 2E5#000000000000DD00
(1762374384.732619) can0 118#3A643000000D0080
(1762374384.732866) can0 7D7#02F0320000000000
(1762374384.733116) can0 7D5#20FF000000000000
(1762374384.733360) can0 7D5#210100000000E015
(1762374384.733648) can0 7D5#2261000000000000
(1762374384.733888) can0 7D5#23FA000000001027
(1762374384.734114) can0 053#D43084C78F384615
(1762374384.734363) can0 7D5#24FA000000000000
(1762374384.734603) can0 7D5#25AD00000000221D
(1762374384.734844) can0 7D5#2660522100000000
(1762374384.735083) can0 7D5#27730000FAFA0000
(1762374384.735336) can0 7D5#280000000000FA00
(1762374384.735625) can0 7D5#2900000056100000
(1762374384.735873) can0 7D5#2A0001FA43000000
(1762374384.736133) can0 7D5#2B00000000000000
(1762374384.736360) can0 7D5#2ECDFF1602000000
(1762374384.736614) can0 1D8#180000000000C0B1
(1762374384.736854) can0 7D5#2F00000000004600
(1762374384.737094) can0 7D5#306E6E3566010000
(1762374384.737349) can0 7D5#3100000000000000
(1762374384.737618) can0 7D5#320E000000000000
(1762374384.737862) can0 7D5#3400000000000000
(1762374384.738116) can0 7D5#3F00000000000000
(1762374384.738362) can0 7D7#200100FAFAFAFA01
(1762374384.738629) can0 7D7#21FF0F00FAFA0000
(1762374384.738868) can0 7D7#2290650000000000
(1762374384.739124) can0 7D7#2300000000000000
(1762374384.739373) can0 7D7#2400000000000000
(1762374384.739620) can0 7D7#2500000000000000
(1762374384.739880) can0 7D7#2600000000000000
(1762374384.740140) can0 7D7#2700400000000000
(1762374384.740380) can0 7D7#2D00000000010000
(1762374384.740626) can0 7D7#322C000000000000
(1762374384.740873) can0 7D7#3590650000000000
(1762374384.741382) can0 132#107200003840080E
(1762374384.741624) can0 055#0100000000000157
(1762374384.741876) can0 266#00002C2C00000000
(1762374384.742117) can0 1D5#2100000000002017
(1762374384.742354) can0 118#3B653000000D0080
(1762374384.742604) can0 2E5#000000000000DD00
(1762374384.742829) can0 297#794B1F0002A00F05
(1762374384.743099) can0 7D7#02F0320000000000
(1762374384.746535) can0 1D8#180000000000E0D1
(1762374384.746783) can0 056#040000000000005A
(1762374384.751379) can0 132#107200003840080E
(1762374384.751624) can0 055#0201000000000159
(1762374384.751911) can0 1D5#2100000000004037
(1762374384.752169) can0 266#06002C2C05000000
(1762374384.752403) can0 2E5#000000000000DD00
(1762374384.752638) can0 118#3C663000000D0080
(1762374384.752839) can0 356#6D0B0000AA00
(1762374384.753076) can0 355#5300640043030618
(1762374384.753315) can0 351#AC0B0A00D2007008
(1762374384.753491) can0 39D#32600A2800
(1762374384.753733) can0 7D7#02F0320000000000
(1762374384.753968) can0 053#D43084C78F384615
(1762374384.756528) can0 1D8#18000000000000F1
(1762374384.761391) can0 132#107200003840080E
(1762374384.761647) can0 055#0300000000000159
(1762374384.761876) can0 266#06002C2C03000000
(1762374384.762115) can0 1D5#2100000000006057
(1762374384.762362) can0 118#3D673000000D0080
(1762374384.762602) can0 2E5#000000000000DD00
(1762374384.762843) can0 297#7A4C1F0002A00F05
(1762374384.763087) can0 7D7#02F0320000000000
(1762374384.763883) can0 052#6418138B64312000
(1762374384.764137) can0 339#4144FE0000038000
(1762374384.764367) can0 102#22B348040000A009
(1762374384.764603) can0 103#22B3884400002032
(1762374384.764844) can0 207#0000000000282800
(1762374384.765094) can0 224#0408004019011008
(1762374384.765306) can0 241#3C3C160F8F5500
(1762374384.765549) can0 247#100EFF0000000000
(1762374384.765799) can0 2A8#040000000080608E
(1762374384.766040) can0 2E8#04000000008060CE
(1762374384.766274) can0 2E1#76800800E1C37363
(1762374384.766407) can0 500#0101
(1762374384.766658) can0 1D8#1800000000002011
(1762374384.766895) can0 7FF#0141535504041501
(1762374384.767122) can0 212#B904A32F01380001
(1762374384.767363) can0 252#0000CD0100000100
(1762374384.767617) can0 25D#3441012A08000000
(1762374384.767844) can0 2D2#302A343A0A008C00
(1762374384.767982) can0 229#DD0600
(1762374384.768133) can0 2D1#FF01
(1762374384.768312) can0 333#0030840702
(1762374384.768560) can0 125#0A00680B00000000
(1762374384.768802) can0 126#00C2000010000000
(1762374384.769032) can0 3D9#5A1CD27D9D103EFF
(1762374384.769405) can0 221#610555050000D0B3
(1762374384.769643) can0 3A1#0300986EBE00D0A2
(1762374384.769875) can0 3C2#0155151500005509
(1762374384.770128) can0 441#00000000000035EF
(1762374384.771372) can0 132#107200003840080E
(1762374384.771608) can0 055#0001000000000258
(1762374384.771858) can0 266#0200021900000000
(1762374384.772102) can0 1D5#2100000000008077
(1762374384.772340) can0 118#3E683000000D0080
(1762374384.772587) can0 2E5#000000000000DD00
(1762374384.772834) can0 7D7#02F0320000000000
(1762374384.773864) can0 053#D43084C78F384615
(1762374384.776535) can0 1D8#210040000000407A
(1762374384.781261) can0 266#0000021900000000
(1762374384.781501) can0 118#3F693000000D0080
(1762374384.781746) can0 132#107200003840080E
(1762374384.781987) can0 055#0100000000000258
(1762374384.782223) can0 297#7B4D1F0002A00F05
(1762374384.782467) can0 1D5#210000000000A097
(1762374384.782708) can0 2E5#000000000000DD00
(1762374384.782963) can0 7D7#02F0320000000000
(1762374384.786556) can0 1D8#210020000000607A
(1762374384.791423) can0 132#107200003840080E
(1762374384.791674) can0 055#020100000000025A
(1762374384.791915) can0 266#0000021900000000
(1762374384.792162) can0 1D5#210000000000C0B7
(1762374384.792397) can0 118#406A3000000D0080
(1762374384.792648) can0 2E5#000000000000DD00
(1762374384.792890) can0 7D7#02F0320000000000
(1762374384.793387) can0 39D#33610A2800
(1762374384.794286) can0 053#D43084C78F384615
(1762374384.796523) can0 1D8#210020000000809A
(1762374384.801284) can0 266#0000021900000000
(1762374384.801525) can0 118#416B3000000D0080
(1762374384.801767) can0 132#107200003840080E
(1762374384.802006) can0 055#030000000000025A
(1762374384.802242) can0 297#7C4E1F0002A00F05
(1762374384.802492) can0 1D5#210000000000E0D7
(1762374384.802735) can0 2E5#000000000000DD00
(1762374384.802983) can0 7D7#02F0320000000000
(1762374384.806555) can0 1D8#210020000000A0BA
(1762374384.811385) can0 132#107200003840080E
(1762374384.811635) can0 055#0001000000000359
(1762374384.811884) can0 266#0000021900000000
(1762374384.812120) can0 1D5#21000000000000F7
(1762374384.812361) can0 118#426C3000000D0080
(1762374384.812602) can0 2E5#000000000000DD00
(1762374384.812852) can0 381#FFFFFF0000000000
(1762374384.813092) can0 076#000F010F020F00AE
(1762374384.813338) can0 7D7#02F0320000000000
(1762374384.813923) can0 053#D43084C78F384615
(1762374384.816525) can0 1D8#210000000000C0BA
(1762374384.818856) can0 221#605555155451E1C8
(1762374384.819089) can0 3A1#884E0BC80000E094
(1762374384.819324) can0 3C2#1055555500005D19
(1762374384.819554) can0 441#46652220DB0E38C8
(1762374384.819796) can0 55A#0100000030000000
(1762374384.821283) can0 266#0000021900000000
(1762374384.821524) can0 118#436D3000000D0080
(1762374384.821757) can0 132#107200003840080E
(1762374384.822007) can0 055#0100000000000359
(1762374384.822250) can0 1D5#2100000000002017
(1762374384.822486) can0 297#7D4F1F0002A00F05
(1762374384.822710) can0 166#2539000000B603
(1762374384.822956) can0 2E5#000000000000DD00
(1762374384.823204) can0 1D6#00080800282D8010
(1762374384.823442) can0 7D7#02F0320000000000
(1762374384.823627) can0 279#0D860C0000
(1762374384.823858) can0 395#01110A410000007D
(1762374384.824105) can0 108#1706000200010005
(1762374384.824228) can0 2B6#DA19
(1762374384.824620) can0 397#000000003B000000
(1762374384.824785) can0 128#83003802
(1762374384.824972) can0 268#0202060065
(1762374384.826551) can0 1D8#210000000000E0DA
(1762374384.831421) can0 132#107200003840080E
(1762374384.831674) can0 055#020100000000035B
(1762374384.831905) can0 266#0000021900004F01
(1762374384.832157) can0 1D5#2100000000004037
(1762374384.832383) can0 118#456E3100000D0080
(1762374384.832630) can0 2E5#000000000000DD00
(1762374384.832877) can0 7D7#02F0320000000000
(1762374384.833127) can0 7D5#20FD4C0100004D01
(1762374384.833369) can0 7D5#21000000FFFFE015
(1762374384.833600) can0 7D5#22610000FCFF1002
(1762374384.833788) can0 39D#34620A2800
(1762374384.834022) can0 7D5#23FA00007E021027
(1762374384.834278) can0 7D5#24FA00000000FC04
(1762374384.834505) can0 053#D43084C78F384615
(1762374384.834747) can0 7D5#25AB00000000A81D
(1762374384.834991) can0 7D5#2610522100000000
(1762374384.835228) can0 7D5#27730000FAFA0000
(1762374384.835479) can0 7D5#280000000000FA00
(1762374384.835723) can0 7D5#2900000067100000
(1762374384.835966) can0 7D5#2A0002FA43000000
(1762374384.836237) can0 7D5#2B00000000000000
(1762374384.836474) can0 7D5#2E06041302000000
(1762374384.836723) can0 1D8#21000000000000FA
(1762374384.836969) can0 7D5#2F00000000004600
(1762374384.837201) can0 7D5#306E6E3566010000
(1762374384.837437) can0 7D5#311E0286019A0100
(1762374384.837687) can0 7D5#320E000000000000
(1762374384.837936) can0 7D5#3400000000000000
(1762374384.838190) can0 7D5#3F00000000000000
(1762374384.838437) can0 7D7#200100FAFAFAFA02
(1762374384.838672) can0 7D7#21FF0F00FAFA0000
(1762374384.838925) can0 7D7#2290650000000000
(1762374384.839181) can0 7D7#2300000000000000
(1762374384.839424) can0 7D7#2400000000000000
(1762374384.839684) can0 7D7#2500000000000000
(1762374384.839926) can0 7D7#2600000000000000
(1762374384.840171) can0 7D7#2700400000000000
(1762374384.840419) can0 7D7#2D00000000010000
(1762374384.840676) can0 7D7#3202000000000000
(1762374384.840921) can0 7D7#3590650000000000
(1762374384.841405) can0 132#107200003840080E
(1762374384.841649) can0 055#030000000000035B
(1762374384.841882) can0 266#0000021900004F01
(1762374384.842129) can0 1D5#2100000000006057
(1762374384.842362) can0 118#466F3100000D0080
(1762374384.842613) can0 2E5#000000000000DD00
(1762374384.842850) can0 297#6E401F0002A00F05
(1762374384.843106) can0 7D7#02F0320000000000
(1762374384.845809) can0 056#040000000000015B
(1762374384.846551) can0 1D8#210000000000201A
(1762374384.851415) can0 132#107200003840080E
(1762374384.851661) can0 055#000100000000045A
(1762374384.851899) can0 266#0000021900004F01
(1762374384.852163) can0 1D5#2100000000008077
(1762374384.852385) can0 118#37603100000D0080
(1762374384.852630) can0 2E5#000000000000DD00
(1762374384.852877) can0 7D7#02F0320000000000
(1762374384.853908) can0 053#D43084C78F384615
(1762374384.856389) can0 351#AC0B0A00D2007008
(1762374384.856636) can0 1D8#210000000000403A
(1762374384.856839) can0 356#6D0B0000AA00
(1762374384.857072) can0 355#5300640043030618
(1762374384.861285) can0 266#0000021900004F01
(1762374384.861521) can0 118#38613100000D0080
(1762374384.861768) can0 132#107200003840080E
(1762374384.862005) can0 055#010000000000045A
(1762374384.862247) can0 1D5#210000000000A097
(1762374384.862487) can0 297#6F411F0002A00F05
(1762374384.862738) can0 2E5#000000000000DD00
(1762374384.862978) can0 7D7#02F0320000000000
(1762374384.864871) can0 052#6418138B64312000
(1762374384.865121) can0 339#4144FE0000038000
(1762374384.865351) can0 102#22B348040000A009
(1762374384.865587) can0 103#22B3884400002032
(1762374384.865834) can0 207#0000000000282800
(1762374384.866079) can0 224#0408004019011008
(1762374384.866293) can0 241#3C3C160F8F5500
(1762374384.866543) can0 247#100EFF0000000000
(1762374384.866789) can0 1D8#210000000000605A
(1762374384.867025) can0 2A8#040000000080709E
(1762374384.867271) can0 2E8#04000000008070DE
(1762374384.867509) can0 2E1#10210B9EE4680004
(1762374384.867639) can0 500#0101
(1762374384.867873) can0 7FF#02263226441196A2
(1762374384.868103) can0 212#B904A32F01380001
(1762374384.868346) can0 252#0000CD0100000100
(1762374384.868588) can0 25D#3441012A08000000
(1762374384.868823) can0 2D2#302A343A0A008C00
(1762374384.868965) can0 229#F90700
(1762374384.869102) can0 2D1#FF01
(1762374384.869289) can0 333#0030840702
(1762374384.869530) can0 125#4600720B0000F80C
(1762374384.869771) can0 126#00C2000010000000
(1762374384.870004) can0 3D9#5A1CD27D9D103EFF
(1762374384.870355) can0 221#610555050000F0D3
(1762374384.870583) can0 3A1#0300986EBE00F0C2
(1762374384.870818) can0 3C2#0155151500005509
(1762374384.871063) can0 441#0000000000003DF7
(1762374384.871412) can0 132#107200003840080E
(1762374384.871661) can0 055#020100000000045C
(1762374384.871896) can0 266#0000021900004F01
(1762374384.872146) can0 1D5#210000000000C0B7
(1762374384.872385) can0 118#39623100000D0080
(1762374384.872636) can0 2E5#000000000000DD00
(1762374384.872878) can0 7D7#02F0320000000000
(1762374384.873052) can0 39D#35630A2800
(1762374384.873922) can0 053#D43084C78F384615
(1762374384.876522) can0 1D8#210000000000807A
(1762374384.876825) can0 036#059EB110129F7BCE
(1762374384.880306) can0 35B#6A090500
(1762374384.880481) can0 35A#00000000
(1762374384.881283) can0 266#0000021900004F01
(1762374384.881520) can0 132#107200003840080E
(1762374384.881771) can0 055#030000000000045C
(1762374384.882017) can0 118#3A633100000D0080
(1762374384.882255) can0 7D7#02F0320000000000
(1762374384.882494) can0 1D5#210000000000E0D7
(1762374384.882736) can0 297#70421F0002A00F05
(1762374384.882982) can0 2E5#000000000000DD00
(1762374384.886542) can0 1D8#210000000000A09A
(1762374384.891455) can0 132#107200003840080E
(1762374384.891697) can0 055#000100000000055B
(1762374384.891938) can0 266#0000021900004F01
(1762374384.892180) can0 1D5#21000000000000F7
(1762374384.892420) can0 118#3B643100000D0080
(1762374384.892667) can0 2E5#000000000000DD00
(1762374384.892913) can0 7D7#02F0320000000000
(1762374384.893926) can0 053#D43084C78F384615
(1762374384.896510) can0 1D8#210000000000C0BA
(1762374384.901276) can0 266#0000021900004F01
(1762374384.901521) can0 132#107200003840080E
(1762374384.901778) can0 055#010000000000055B
