date Wed Nov  5 21:37:40 2025
base hex  timestamps absolute
no internal events logged
   0.000000 1  1FFFFFF0x       Rx   d 8 01 19 00 07 08 00 00 43
   0.002014 1  1FFFFFF0x       Rx   d 8 01 00 00 05 0C 00 00 63
   0.030609 1  5F4             Rx   d 8 00 09 1E 5B 00 00 00 01
   0.052598 1  381             Rx   d 8 FF FF FF 00 00 00 00 00
   0.052849 1  76              Rx   d 8 00 0F 01 0F 02 0F 00 AE
   0.112515 1  351             Rx   d 8 AC 0B 00 00 00 00 70 08
   0.112729 1  356             Rx   d 6 6D 0B 00 00 B4 00
   0.112955 1  355             Rx   d 8 53 00 64 00 43 03 06 18
   0.115446 1  1D8             Rx   d 8 00 00 00 00 00 00 00 D9
   0.125473 1  1D8             Rx   d 8 00 00 00 00 00 00 20 F9
   0.129351 1  266             Rx   d 8 00 00 2C 2C 00 00 00 00
   0.129592 1  118             Rx   d 8 12 80 F0 00 00 08 01 80
   0.135466 1  1D8             Rx   d 8 00 00 00 00 00 00 40 19
   0.135714 1  5A6             Rx   d 8 38 80 03 00 00 00 03 00
   0.135959 1  386             Rx   d 8 00 00 00 00 00 00 80 00
   0.139337 1  266             Rx   d 8 00 00 2C 2C 00 00 00 00
   0.139636 1  118             Rx   d 8 13 81 F0 00 00 08 01 80
   0.139865 1  166             Rx   d 7 00 00 00 00 00 B6 03
   0.140116 1  1D6             Rx   d 8 00 08 08 00 28 2D CA 10
   0.140285 1  279             Rx   d 5 07 80 0C 00 00
   0.140540 1  395             Rx   d 8 F7 0D FF FF FF FF 00 7D
   0.140779 1  108             Rx   d 8 8E 00 00 04 00 00 80 01
   0.140918 1  2B6             Rx   d 2 8A 01
   0.141166 1  397             Rx   d 8 00 00 00 00 3B 00 00 00
   0.141320 1  128             Rx   d 4 8F 00 EC 0A
   0.141566 1  268             Rx   d 5 2C 2C FF 01 FF
   0.145472 1  1D8             Rx   d 8 00 00 00 00 00 00 60 39
   0.149344 1  266             Rx   d 8 00 00 2C 2C 00 00 00 00
   0.149595 1  118             Rx   d 8 14 82 F0 00 00 08 01 80
   0.149842 1  3D5             Rx   d 8 FF FF FF FF FF FF FF FF
   0.150102 1  527             Rx   d 8 C0 80 00 00 00 00 00 00
   0.150319 1  315             Rx   d 8 18 38 38 3B 50 38 9D 7D
   0.150554 1  5A5             Rx   d 8 43 80 00 00 03 00 00 00
   0.150806 1  315             Rx   d 8 01 38 38 00 38 28 00 00
   0.151046 1  3B5             Rx   d 8 04 00 00 00 00 00 00 00
   0.151295 1  315             Rx   d 8 02 FF FF FF FF 00 00 00
   0.151538 1  36B             Rx   d 8 00 00 00 00 00 00 00 80
   0.151788 1  315             Rx   d 8 FB FF FF FF FB FF FB 0F
   0.152044 1  7D5             Rx   d 8 2B 00 00 00 00 00 00 00
   0.152290 1  315             Rx   d 8 04 FF FF FF FF 00 00 00
   0.152526 1  7D5             Rx   d 8 32 60 00 00 00 00 00 00
   0.152773 1  374             Rx   d 8 50 30 31 5F 30 30 31 00
   0.153008 1  76              Rx   d 8 03 0F 04 0F 05 0F 00 B7
   0.153182 1  5D7             Rx   d 5 8C 8C 00 00 00
   0.153437 1  7D7             Rx   d 8 32 2C 00 00 00 00 00 00
   0.153609 1  3B6             Rx   d 4 FF FF FF FF
   0.153843 1  7D5             Rx   d 8 42 FD 00 FD 00 E6 20 00
   0.154082 1  335             Rx   d 8 0A 01 05 33 FC 00 05 00
   0.154325 1  7D5             Rx   d 8 43 FD 00 FD 00 3C 00 00
   0.154577 1  3A7             Rx   d 8 00 00 00 00 00 00 00 00
   0.154805 1  7D5             Rx   d 8 44 2A 42 1D 56 37 24 44
   0.155048 1  3C5             Rx   d 8 00 00 00 00 00 00 00 00
   0.155291 1  7D5             Rx   d 8 46 28 28 28 28 28 28 28
   0.155536 1  1D8             Rx   d 8 00 00 00 00 00 00 80 59
   0.155785 1  3E5             Rx   d 8 00 00 00 00 00 00 00 00
   0.156026 1  7D5             Rx   d 8 48 28 28 00 00 00 4A 00
   0.156277 1  367             Rx   d 8 00 00 00 00 00 00 00 00
   0.156525 1  368             Rx   d 8 00 00 00 00 00 00 00 00
   0.156792 1  36E             Rx   d 8 00 00 00 00 00 00 00 00
   0.159347 1  266             Rx   d 8 00 00 2C 2C 00 00 00 00
   0.159628 1  118             Rx   d 8 15 83 F0 00 00 08 01 80
   0.165467 1  1D8             Rx   d 8 00 00 00 00 00 00 A0 79
   0.169338 1  266             Rx   d 8 00 00 2C 2C 00 00 00 00
   0.169637 1  118             Rx   d 8 16 84 F0 00 00 08 01 80
   0.175460 1  1D8             Rx   d 8 00 00 00 00 00 00 C0 99
   0.179329 1  266             Rx   d 8 00 00 2C 2C 00 00 00 00
   0.179626 1  118             Rx   d 8 17 85 F0 00 00 08 01 80
   0.185460 1  1D8             Rx   d 8 00 00 00 00 00 00 E0 B9
   0.189339 1  266             Rx   d 8 00 00 2C 2C 00 00 00 00
   0.189631 1  118             Rx   d 8 18 86 F0 00 00 08 01 80
   0.195461 1  1D8             Rx   d 8 00 00 00 00 00 00 00 D9
   0.199327 1  266             Rx   d 8 00 00 2C 2C 00 00 00 00
   0.199623 1  118             Rx   d 8 19 87 F0 00 00 08 01 80
   0.205465 1  1D8             Rx   d 8 00 00 00 00 00 00 20 F9
   0.209337 1  266             Rx   d 8 00 00 2C 2C 00 00 00 00
   0.209619 1  118             Rx   d 8 1A 88 F0 00 00 08 01 80
   0.214384 1  554             Rx   d 7 00 21 04 17 23 C0 01
   0.214633 1  344             Rx   d 8 00 00 00 00 00 00 00 47
   0.214868 1  6D4             Rx   d 8 0A 01 05 33 FC 00 09 00
   0.215132 1  3A0             Rx   d 8 00 00 00 00 00 00 00 00
   0.215370 1  384             Rx   d 8 00 00 00 00 00 00 00 00
   0.215616 1  1D8             Rx   d 8 00 00 00 00 00 00 40 19
   0.215868 1  380             Rx   d 8 00 00 00 00 00 00 00 00
   0.216434 1  351             Rx   d 8 AC 0B 0A 00 D2 00 70 08
   0.216637 1  356             Rx   d 6 6D 0B 00 00 B4 00
   0.216878 1  355             Rx   d 8 53 00 64 00 43 03 06 18
   0.219333 1  266             Rx   d 8 00 00 2C 2C 00 00 00 00
   0.219582 1  118             Rx   d 8 1B 89 F0 00 00 08 01 80
   0.225464 1  1D8             Rx   d 8 00 00 00 00 00 00 60 39
   0.225702 1  5A4             Rx   d 8 42 80 01 00 00 00 00 00
   0.225947 1  5A4             Rx   d 8 15 80 02 00 00 00 00 00
   0.226195 1  3A0             Rx   d 8 00 00 00 00 00 00 00 00
   0.229333 1  266             Rx   d 8 00 00 2C 2C 00 00 00 00
   0.229621 1  118             Rx   d 8 1C 8A F0 00 00 08 01 80
   0.229858 1  5A5             Rx   d 8 5C 80 04 00 00 00 00 00
   0.230107 1  5A5             Rx   d 8 5A 80 08 00 00 00 00 00
   0.230343 1  3B5             Rx   d 8 04 00 00 0A 00 00 00 00
   0.235451 1  1D8             Rx   d 8 00 00 00 00 00 00 80 59
   0.239320 1  266             Rx   d 8 00 00 2C 2C 00 00 00 00
   0.239621 1  118             Rx   d 8 1D 8B F0 00 00 08 01 80
   0.239848 1  166             Rx   d 7 00 00 00 00 00 B6 03
   0.240085 1  1D6             Rx   d 8 40 08 08 08 28 2D 7B 10
   0.240251 1  279             Rx   d 5 58 D1 0C 00 00
   0.240517 1  395             Rx   d 8 F0 11 00 40 FF 00 00 7D
   0.240744 1  108             Rx   d 8 8F 01 00 04 00 00 80 01
   0.240873 1  2B6             Rx   d 2 8A 01
   0.241118 1  397             Rx   d 8 00 00 00 00 3B 00 00 00
   0.241292 1  128             Rx   d 4 87 08 EC 0A
   0.241547 1  268             Rx   d 5 2C 2C FF 01 FF
   0.245457 1  1D8             Rx   d 8 00 00 00 00 00 00 A0 79
   0.249326 1  266             Rx   d 8 00 00 2C 2C 00 00 00 00
   0.249579 1  118             Rx   d 8 1E 8C F0 00 00 08 01 80
   0.249825 1  7D5             Rx   d 8 2B 00 00 00 00 00 00 00
   0.250067 1  7D5             Rx   d 8 32 60 00 00 00 00 00 00
   0.250321 1  7D7             Rx   d 8 32 2C 00 00 00 00 00 00
   0.252574 1  375             Rx   d 8 50 30 31 5F 30 32 31 00
   0.252819 1  76              Rx   d 8 06 11 07 12 00 0F 00 BD
   0.255451 1  1D8             Rx   d 8 00 00 00 00 00 00 C0 99
   0.259325 1  266             Rx   d 8 00 00 2C 2C 00 00 00 00
   0.259636 1  118             Rx   d 8 1F 8D F0 00 00 08 01 80
   0.265451 1  1D8             Rx   d 8 00 00 00 00 00 00 E0 B9
   0.269325 1  266             Rx   d 8 00 00 2C 2C 00 00 00 00
   0.269575 1  118             Rx   d 8 20 8E F0 00 00 08 01 80
   0.275448 1  1D8             Rx   d 8 00 00 00 00 00 00 00 D9
   0.279322 1  266             Rx   d 8 00 00 2C 2C 00 00 00 00
   0.279613 1  118             Rx   d 8 21 8F F0 00 00 08 01 80
   0.285449 1  1D8             Rx   d 8 00 00 00 00 00 00 20 F9
   0.289320 1  266             Rx   d 8 00 00 2C 2C 00 00 00 00
   0.289575 1  118             Rx   d 8 12 80 F0 00 00 08 01 80
   0.295446 1  1D8             Rx   d 8 00 00 00 00 00 00 40 19
   0.299320 1  266             Rx   d 8 00 00 2C 2C 00 00 00 00
   0.299615 1  118             Rx   d 8 13 81 F0 00 00 08 01 80
   0.305444 1  1D8             Rx   d 8 00 00 00 00 00 00 60 39
   0.309319 1  266             Rx   d 8 00 00 2C 2C 00 00 00 00
   0.309564 1  118             Rx   d 8 14 82 F0 00 00 08 01 80
   0.315439 1  1D8             Rx   d 8 00 00 00 00 00 00 80 59
   0.319326 1  266             Rx   d 8 00 00 2C 2C 00 00 00 00
   0.319615 1  118             Rx   d 8 15 83 F0 00 00 08 01 80
   0.320429 1  351             Rx   d 8 AC 0B 0A 00 D2 00 70 08
   0.320637 1  356             Rx   d 6 6C 0B 00 00 B4 00
   0.320888 1  355             Rx   d 8 53 00 64 00 43 03 06 18
   0.325450 1  1D8             Rx   d 8 00 00 00 00 00 00 A0 79
   0.329331 1  266             Rx   d 8 00 00 2C 2C 00 00 00 00
   0.329570 1  118             Rx   d 8 16 84 F0 00 00 08 01 80
   0.335446 1  1D8             Rx   d 8 00 00 00 00 00 00 C0 99
   0.335699 1  5A6             Rx   d 8 0A 80 48 01 40 00 00 00
   0.335946 1  386             Rx   d 8 00 02 00 00 00 00 80 00
   0.339319 1  266             Rx   d 8 00 00 2C 2C 00 00 00 00
   0.339614 1  118             Rx   d 8 17 85 F0 00 00 08 01 80
   0.339836 1  166             Rx   d 7 8B 08 00 00 00 B6 03
   0.340088 1  1D6             Rx   d 8 40 08 08 00 28 2D 6E 10
   0.340256 1  279             Rx   d 5 19 92 0C 00 00
   0.340512 1  395             Rx   d 8 F0 11 00 40 FF 00 00 7D
   0.340750 1  108             Rx   d 8 90 02 00 04 00 00 80 01
   0.340887 1  2B6             Rx   d 2 8A 01
   0.341130 1  397             Rx   d 8 00 00 00 00 3B 00 00 00
   0.341300 1  128             Rx   d 4 8F 48 38 02
   0.341538 1  268             Rx   d 5 2C 2C FF 01 FF
   0.345448 1  1D8             Rx   d 8 00 00 00 00 00 00 E0 B9
   0.349316 1  266             Rx   d 8 00 00 2C 2C 00 00 00 00
   0.349558 1  118             Rx   d 8 18 86 F0 00 00 08 01 80
   0.349814 1  7D5             Rx   d 8 2B 00 00 00 00 00 00 00
   0.350062 1  7D5             Rx   d 8 32 60 00 00 00 00 00 00
   0.350310 1  7D7             Rx   d 8 32 2C 00 00 00 00 00 00
   0.352581 1  376             Rx   d 8 50 30 31 5F 30 31 00 00
   0.352821 1  76              Rx   d 8 01 0F 02 0F 03 0F 00 B1
   0.355444 1  1D8             Rx   d 8 00 00 00 00 00 00 00 D9
   0.359326 1  266             Rx   d 8 00 00 2C 2C 00 00 00 00
   0.359610 1  118             Rx   d 8 19 87 F0 00 00 08 01 80
   0.365443 1  1D8             Rx   d 8 00 00 00 00 00 00 20 F9
   0.369313 1  266             Rx   d 8 00 00 2C 2C 00 00 00 00
   0.369568 1  118             Rx   d 8 1A 88 F0 00 00 08 01 80
   0.375440 1  1D8             Rx   d 8 00 00 00 00 00 00 40 19
   0.379322 1  266             Rx   d 8 00 00 2C 2C 00 00 00 00
   0.379602 1  118             Rx   d 8 1B 89 F0 00 00 08 01 80
   0.385439 1  1D8             Rx   d 8 00 00 00 00 00 00 60 39
   0.389320 1  266             Rx   d 8 00 00 2C 2C 00 00 00 00
   0.389565 1  118             Rx   d 8 1C 8A F0 00 00 08 01 80
   0.395437 1  1D8             Rx   d 8 00 00 00 00 00 00 80 59
   0.399318 1  266             Rx   d 8 00 00 2C 2C 00 00 00 00
   0.399598 1  118             Rx   d 8 1D 8B F0 00 00 08 01 80
   0.405437 1  1D8             Rx   d 8 00 00 00 00 00 00 A0 79
   0.409316 1  266             Rx   d 8 00 00 2C 2C 00 00 00 00
   0.409565 1  118             Rx   d 8 1E 8C F0 00 00 08 01 80
   0.415435 1  1D8             Rx   d 8 00 00 00 00 00 00 C0 99
   0.419315 1  266             Rx   d 8 00 00 2C 2C 00 00 00 00
   0.419609 1  118             Rx   d 8 1F 8D F0 00 00 08 01 80
   0.424430 1  351             Rx   d 8 AC 0B 0A 00 D2 00 70 08
   0.424637 1  356             Rx   d 6 6C 0B 00 00 B4 00
   0.424873 1  355             Rx   d 8 53 00 64 00 43 03 06 18
   0.425445 1  1D8             Rx   d 8 00 00 00 00 00 00 E0 B9
   0.429323 1  266             Rx   d 8 00 00 2C 2C 00 00 00 00
   0.429557 1  118             Rx   d 8 20 8E F0 00 00 08 01 80
   0.435440 1  1D8             Rx   d 8 00 00 00 00 00 00 00 D9
   0.439317 1  266             Rx   d 8 00 00 2C 2C 00 00 00 00
   0.439601 1  118             Rx   d 8 21 8F F0 00 00 08 01 80
   0.439815 1  166             Rx   d 7 23 09 00 00 00 B6 03
   0.440054 1  1D6             Rx   d 8 40 08 08 00 28 2D 59 10
   0.440247 1  279             Rx   d 5 0A 83 0C 00 00
   0.440497 1  395             Rx   d 8 F0 11 00 40 FF 00 00 7D
   0.440718 1  108             Rx   d 8 91 03 00 04 00 00 80 01
   0.440864 1  2B6             Rx   d 2 8A 01
   0.441098 1  397             Rx   d 8 00 00 00 00 3B 00 00 00
   0.441266 1  128             Rx   d 4 8B 48 38 02
   0.441529 1  268             Rx   d 5 2C 2C FF 01 FF
   0.445445 1  1D8             Rx   d 8 00 00 00 00 00 00 20 F9
   0.449318 1  266             Rx   d 8 00 00 2C 2C 00 00 00 00
   0.449575 1  118             Rx   d 8 12 80 F0 00 00 08 01 80
   0.449812 1  7D5             Rx   d 8 2B 00 00 00 00 00 00 00
   0.450057 1  7D5             Rx   d 8 32 60 00 00 00 00 00 00
   0.450311 1  7D7             Rx   d 8 32 2C 00 00 00 00 00 00
   0.452582 1  377             Rx   d 8 50 30 31 5F 30 38 00 00
   0.452828 1  76              Rx   d 8 04 0F 05 0F 06 11 00 BC
   0.455430 1  1D8             Rx   d 8 00 00 00 00 00 00 40 19
   0.459315 1  266             Rx   d 8 00 00 2C 2C 00 00 00 00
   0.459605 1  118             Rx   d 8 13 81 F0 00 00 08 01 80
   0.465432 1  1D8             Rx   d 8 00 00 00 00 00 00 60 39
   0.469319 1  266             Rx   d 8 00 00 2C 2C 00 00 00 00
   0.469570 1  118             Rx   d 8 14 82 F0 00 00 08 01 80
   0.475432 1  1D8             Rx   d 8 00 00 00 00 00 00 80 59
   0.479314 1  266             Rx   d 8 00 00 2C 2C 00 00 00 00
   0.479605 1  118             Rx   d 8 15 83 F0 00 00 08 01 80
   0.485429 1  1D8             Rx   d 8 00 00 00 00 00 00 A0 79
   0.489309 1  266             Rx   d 8 00 00 2C 2C 00 00 00 00
   0.489566 1  118             Rx   d 8 16 84 F0 00 00 08 01 80
   0.495425 1  1D8             Rx   d 8 00 00 00 00 00 00 C0 99
   0.499308 1  266             Rx   d 8 00 00 2C 2C 00 00 00 00
   0.499605 1  118             Rx   d 8 17 85 F0 00 00 08 01 80
   0.505427 1  1D8             Rx   d 8 00 00 00 00 00 00 E0 B9
   0.509307 1  266             Rx   d 8 00 00 2C 2C 00 00 00 00
   0.509553 1  118             Rx   d 8 18 86 F0 00 00 08 01 80
   0.512424 1  35B             Rx   d 4 70 10 05 00
   0.512605 1  35A             Rx   d 4 00 00 00 00
   0.515428 1  1D8             Rx   d 8 00 00 00 00 00 00 00 D9
   0.519310 1  266             Rx   d 8 00 00 2C 2C 00 00 00 00
   0.519592 1  118             Rx   d 8 19 87 F0 00 00 08 01 80
   0.525424 1  1D8             Rx   d 8 00 00 00 00 00 00 20 F9
   0.528434 1  351             Rx   d 8 AC 0B 0A 00 D2 00 70 08
   0.528643 1  356             Rx   d 6 6D 0B 00 00 B4 00
   0.528876 1  355             Rx   d 8 53 00 64 00 43 03 06 18
   0.529318 1  266             Rx   d 8 00 00 2C 2C 00 00 00 00
   0.529571 1  118             Rx   d 8 1A 88 F0 00 00 08 01 80
   0.535433 1  1D8             Rx   d 8 00 00 00 00 00 00 40 19
   0.539311 1  266             Rx   d 8 00 00 2C 2C 00 00 00 00
   0.539559 1  118             Rx   d 8 1B 89 F0 00 00 08 01 80
   0.539802 1  166             Rx   d 7 25 09 00 00 00 B6 03
   0.540039 1  1D6             Rx   d 8 40 08 08 00 28 2D 63 10
   0.540222 1  279             Rx   d 5 0B 84 0C 00 00
   0.540461 1  395             Rx   d 8 F0 11 00 40 FF 00 00 7D
   0.540710 1  108             Rx   d 8 14 04 00 02 00 00 00 05
   0.540843 1  2B6             Rx   d 2 8A 01
   0.541091 1  397             Rx   d 8 00 00 00 00 3B 00 00 00
   0.541258 1  128             Rx   d 4 8B 48 38 02
   0.541496 1  36              Rx   d 8 01 9E B3 10 12 9E B7 07
   0.541666 1  268             Rx   d 5 2C 2C FF 01 FF
   0.545434 1  1D8             Rx   d 8 00 00 00 00 00 00 60 39
   0.549327 1  266             Rx   d 8 00 00 2C 2C 00 00 00 00
   0.549587 1  118             Rx   d 8 1C 8A F0 00 00 08 01 80
   0.549835 1  7D5             Rx   d 8 2B 00 00 00 00 00 00 00
   0.550089 1  7D5             Rx   d 8 32 60 00 00 00 00 00 00
   0.550337 1  7D7             Rx   d 8 32 2C 00 00 00 00 00 00
   0.552586 1  379             Rx   d 8 9C 00 00 00 00 00 00 00
   0.552825 1  76              Rx   d 8 07 12 00 0F 01 0F 00 B6
   0.555421 1  1D8             Rx   d 8 00 00 00 00 00 00 80 59
   0.559320 1  266             Rx   d 8 00 00 2C 2C 00 00 00 00
   0.559592 1  118             Rx   d 8 1D 8B F0 00 00 08 01 80
   0.565419 1  1D8             Rx   d 8 00 00 00 00 00 00 A0 79
   0.569323 1  266             Rx   d 8 00 00 2C 2C 00 00 00 00
   0.569578 1  118             Rx   d 8 1E 8C F0 00 00 08 01 80
   0.575419 1  1D8             Rx   d 8 00 00 00 00 00 00 C0 99
   0.579320 1  266             Rx   d 8 00 00 2C 2C 00 00 00 00
   0.579599 1  118             Rx   d 8 1F 8D F0 00 00 08 01 80
   0.585416 1  1D8             Rx   d 8 00 00 00 00 00 00 E0 B9
   0.589324 1  266             Rx   d 8 00 00 2C 2C 00 00 00 00
   0.589585 1  118             Rx   d 8 20 8E F0 00 00 08 01 80
   0.595418 1  1D8             Rx   d 8 00 00 00 00 00 00 00 D9
   0.599313 1  266             Rx   d 8 00 00 2C 2C 00 00 00 00
   0.599574 1  118             Rx   d 8 21 8F F0 00 00 08 01 80
   0.605415 1  1D8             Rx   d 8 00 00 00 00 00 00 20 F9
   0.609326 1  266             Rx   d 8 00 00 2C 2C 00 00 00 00
   0.609590 1  118             Rx   d 8 12 80 F0 00 00 08 01 80
   0.615412 1  1D8             Rx   d 8 00 00 00 00 00 00 40 19
   0.619315 1  266             Rx   d 8 00 00 2C 2C 00 00 00 00
   0.619577 1  118             Rx   d 8 13 81 F0 00 00 08 01 80
   0.625411 1  1D8             Rx   d 8 00 00 00 00 00 00 60 39
   0.629330 1  266             Rx   d 8 00 00 2C 2C 00 00 00 00
   0.629591 1  118             Rx   d 8 14 82 F0 00 00 08 01 80
   0.632434 1  351             Rx   d 8 AC 0B 0A 00 D2 00 70 08
   0.632646 1  356             Rx   d 6 6D 0B 00 00 B4 00
   0.632877 1  355             Rx   d 8 53 00 64 00 43 03 06 18
   0.635417 1  1D8             Rx   d 8 00 00 00 00 00 00 80 59
   0.639319 1  266             Rx   d 8 00 00 2C 2C 00 00 00 00
   0.639590 1  118             Rx   d 8 15 83 F0 00 00 08 01 80
   0.639866 1  166             Rx   d 7 25 09 00 00 00 B6 03
   0.640101 1  1D6             Rx   d 8 40 08 08 00 28 2D 71 10
   0.640289 1  279             Rx   d 5 0C 85 0C 00 00
   0.640580 1  395             Rx   d 8 F0 11 00 40 FF 00 00 7D
   0.640822 1  108             Rx   d 8 15 05 00 02 00 00 00 05
   0.640965 1  2B6             Rx   d 2 8A 01
   0.641214 1  397             Rx   d 8 00 00 00 00 3B 00 00 00
   0.641356 1  128             Rx   d 4 8B 48 38 02
   0.641557 1  268             Rx   d 5 2C 2C FF 01 FF
   0.645415 1  1D8             Rx   d 8 00 00 00 00 00 00 A0 79
   0.649327 1  266             Rx   d 8 00 00 2C 2C 00 00 00 00
   0.649580 1  118             Rx   d 8 16 84 F0 00 00 08 01 80
   0.649843 1  7D5             Rx   d 8 2B 00 00 00 00 00 00 00
   0.650075 1  7D5             Rx   d 8 32 60 00 00 00 00 00 00
   0.650323 1  7D7             Rx   d 8 32 2C 00 00 00 00 00 00
   0.652578 1  380             Rx   d 8 4C 35 41 41 36 34 30 33
   0.652815 1  76              Rx   d 8 02 0F 03 0F 04 0F 00 B4
   0.655406 1  1D8             Rx   d 8 00 00 00 00 00 00 C0 99
   0.659314 1  266             Rx   d 8 00 00 2C 2C 00 00 00 00
   0.659580 1  118             Rx   d 8 17 85 F0 00 00 08 01 80
   0.665406 1  1D8             Rx   d 8 00 00 00 00 00 00 E0 B9
   0.665667 1  5A6             Rx   d 8 35 80 01 00 00 00 00 00
   0.665898 1  386             Rx   d 8 00 02 00 00 00 00 90 00
   0.669560 1  266             Rx   d 8 00 00 2C 2C 00 00 00 00
   0.669816 1  118             Rx   d 8 18 86 F0 00 00 08 01 80
   0.670058 1  5A5             Rx   d 8 9B 80 04 00 00 00 00 00
   0.670308 1  3C5             Rx   d 8 00 00 00 04 00 00 00 00
   0.675405 1  1D8             Rx   d 8 00 00 00 00 00 00 00 D9
   0.679314 1  266             Rx   d 8 00 00 2C 2C 00 00 00 00
   0.679590 1  118             Rx   d 8 19 87 F0 00 00 08 01 80
   0.685405 1  1D8             Rx   d 8 00 00 00 00 00 00 20 F9
   0.689319 1  266             Rx   d 8 00 00 2C 2C 00 00 00 00
   0.689575 1  118             Rx   d 8 1A 88 F0 00 00 08 01 80
   0.695400 1  1D8             Rx   d 8 00 00 00 00 00 00 40 19
   0.699311 1  266             Rx   d 8 00 00 2C 2C 00 00 00 00
   0.699571 1  118             Rx   d 8 1B 89 F0 00 00 08 01 80
   0.705399 1  1D8             Rx   d 8 00 00 00 00 00 00 60 39
   0.709555 1  266             Rx   d 8 00 00 2C 2C 00 00 00 00
   0.709811 1  118             Rx   d 8 1C 8A F0 00 00 08 01 80
   0.715396 1  1D8             Rx   d 8 00 00 00 00 00 00 80 59
   0.719306 1  266             Rx   d 8 00 00 2C 2C 00 00 00 00
   0.719565 1  118             Rx   d 8 1D 8B F0 00 00 08 01 80
   0.725399 1  1D8             Rx   d 8 80 00 00 00 00 00 A0 F9
   0.725650 1  5A4             Rx   d 8 16 80 04 00 00 00 00 00
   0.725912 1  3A0             Rx   d 8 00 00 00 00 00 00 00 00
   0.729553 1  266             Rx   d 8 00 00 2C 2C 00 00 00 00
   0.729804 1  118             Rx   d 8 1E 8C F0 00 00 08 01 80
   0.735392 1  1D8             Rx   d 8 80 00 00 00 00 00 C0 19
   0.736434 1  351             Rx   d 8 AC 0B 0A 00 D2 00 70 08
   0.736640 1  356             Rx   d 6 6D 0B 00 00 B4 00
   0.736873 1  355             Rx   d 8 53 00 64 00 43 03 06 18
   0.739308 1  266             Rx   d 8 00 00 2C 2C 00 00 00 00
   0.739575 1  118             Rx   d 8 1F 8D F0 00 00 08 01 80
   0.739849 1  166             Rx   d 7 25 09 00 00 00 B6 03
   0.740088 1  1D6             Rx   d 8 40 08 08 00 28 2D 6D 10
   0.740260 1  279             Rx   d 5 0D 86 0C 00 00
   0.740563 1  395             Rx   d 8 01 11 00 40 00 00 00 7D
   0.740806 1  108             Rx   d 8 16 06 00 02 00 00 00 05
   0.740940 1  2B6             Rx   d 2 8A 01
   0.741197 1  397             Rx   d 8 00 00 00 00 3B 00 00 00
   0.741355 1  128             Rx   d 4 8B 48 38 02
   0.741553 1  268             Rx   d 5 2C 2C FF 01 FF
   0.745398 1  1D8             Rx   d 8 80 00 00 00 00 00 E0 39
   0.749552 1  266             Rx   d 8 00 00 2C 2C 00 00 00 00
   0.749805 1  7D5             Rx   d 8 2B 00 00 00 00 00 00 00
   0.750057 1  118             Rx   d 8 20 8E F0 00 00 08 01 80
   0.750305 1  7D5             Rx   d 8 32 60 00 00 00 00 00 00
   0.750545 1  7D7             Rx   d 8 32 2C 00 00 00 00 00 00
   0.752599 1  381             Rx   d 8 FF FF FF 00 00 00 00 00
   0.752831 1  76              Rx   d 8 05 0F 06 11 07 12 00 C2
   0.755393 1  1D8             Rx   d 8 80 00 00 00 00 00 00 59
   0.759301 1  266             Rx   d 8 00 00 2C 2C 00 00 00 00
   0.759577 1  118             Rx   d 8 21 8F F0 00 00 08 01 80
   0.764402 1  78              Rx   d 8 10 00 00 00 00 00 00 00
   0.765141 1  78              Rx   d 8 10 00 00 00 00 00 00 00
   0.765406 1  1D8             Rx   d 8 80 00 00 00 00 00 20 79
   0.766156 1  78              Rx   d 8 10 00 00 00 00 00 00 00
   0.767157 1  78              Rx   d 8 10 00 00 00 00 00 00 00
   0.769593 1  266             Rx   d 8 00 00 2C 2C 00 00 00 00
   0.769865 1  118             Rx   d 8 12 80 F0 00 00 08 01 80
   0.775404 1  1D8             Rx   d 8 80 00 00 00 00 00 40 99
   0.779302 1  266             Rx   d 8 00 00 2C 2C 00 00 00 00
   0.779590 1  118             Rx   d 8 13 81 F0 00 00 08 01 80
   0.785388 1  1D8             Rx   d 8 80 00 00 00 00 00 60 B9
   0.789544 1  266             Rx   d 8 00 00 2C 2C 00 00 00 00
   0.789803 1  118             Rx   d 8 14 82 F0 00 00 08 01 80
   0.795385 1  1D8             Rx   d 8 80 00 00 00 00 00 80 D9
   0.799298 1  266             Rx   d 8 00 00 2C 2C 00 00 00 00
   0.799568 1  118             Rx   d 8 15 83 F0 00 00 08 01 80
   0.805392 1  1D8             Rx   d 8 80 00 00 00 00 00 A0 F9
   0.809312 1  266             Rx   d 8 00 00 2C 2C 00 00 00 00
   0.809566 1  118             Rx   d 8 16 84 F0 00 00 08 01 80
   0.815382 1  1D8             Rx   d 8 80 00 00 00 00 00 C0 19
   0.817816 1  79              Rx   d 8 0B 00 00 00 00 00 00 00
   0.819293 1  266             Rx   d 8 00 00 2C 2C 00 00 00 00
   0.819591 1  118             Rx   d 8 17 85 F0 00 00 08 01 80
   0.825382 1  1D8             Rx   d 8 80 00 00 00 00 00 E0 39
   0.827663 1  79              Rx   d 8 0B 00 00 00 00 00 00 00
   0.829542 1  266             Rx   d 8 00 00 2C 2C 00 00 00 00
   0.829788 1  118             Rx   d 8 18 86 F0 00 00 08 01 80
   0.835380 1  1D8             Rx   d 8 80 00 00 00 00 00 00 59
   0.837319 1  79              Rx   d 8 0B 00 00 00 00 00 00 00
   0.839292 1  266             Rx   d 8 00 00 2C 2C 00 00 00 00
   0.839585 1  118             Rx   d 8 19 87 F0 00 00 08 01 80
   0.839874 1  166             Rx   d 7 25 09 00 00 00 B6 03
   0.840110 1  1D6             Rx   d 8 40 08 08 00 28 2D 64 10
   0.840302 1  279             Rx   d 5 0E 87 0C 00 00
   0.840507 1  356             Rx   d 6 6D 0B 00 00 B4 00
   0.840740 1  355             Rx   d 8 53 00 64 00 43 03 06 18
   0.840973 1  351             Rx   d 8 AC 0B 0A 00 D2 00 70 08
   0.841210 1  395             Rx   d 8 01 11 00 40 00 00 00 7D
   0.841482 1  108             Rx   d 8 17 07 00 02 00 00 00 05
   0.841575 1  2B6             Rx   d 2 88 01
   0.841854 1  397             Rx   d 8 00 00 00 00 3B 00 00 00
   0.842014 1  128             Rx   d 4 8B 48 38 02
   0.842200 1  268             Rx   d 5 2C 2C FF 01 FF
   0.845393 1  1D8             Rx   d 8 80 00 00 00 00 00 20 79
   0.847166 1  79              Rx   d 8 0B 00 00 00 00 00 00 00
   0.849311 1  266             Rx   d 8 00 00 2C 2C 00 00 00 00
   0.849552 1  118             Rx   d 8 1A 88 F0 00 00 08 01 80
   0.849801 1  7D5             Rx   d 8 2B 00 00 00 00 00 00 00
   0.850053 1  7D5             Rx   d 8 32 60 00 00 00 00 00 00
   0.850320 1  7D7             Rx   d 8 32 2C 00 00 00 00 00 00
   0.852582 1  374             Rx   d 8 50 30 31 5F 30 37 30 00
   0.852825 1  76              Rx   d 8 00 0F 01 0F 02 0F 00 AE
   0.855380 1  1D8             Rx   d 8 80 00 00 00 00 00 40 99
   0.857236 1  79              Rx   d 8 0B 00 00 00 00 00 00 00
   0.859305 1  266             Rx   d 8 00 00 2C 2C 00 00 00 00
   0.859588 1  118             Rx   d 8 1B 89 F0 00 00 08 01 80
   0.865378 1  1D8             Rx   d 8 80 00 00 00 00 00 60 B9
   0.867198 1  79              Rx   d 8 0B 00 00 00 00 00 00 00
   0.869306 1  266             Rx   d 8 00 00 2C 2C 00 00 00 00
   0.869556 1  118             Rx   d 8 1C 8A F0 00 00 08 01 80
   0.875005 1  80              Rx   d 8 FD 47 2F 80 D8 1E 2E 54
   0.875385 1  1D8             Rx   d 8 80 00 00 00 00 00 80 D9
   0.877235 1  79              Rx   d 8 0B 00 00 00 00 00 00 00
   0.879301 1  266             Rx   d 8 00 00 2C 2C 00 00 00 00
   0.879561 1  118             Rx   d 8 1D 8B F0 00 00 08 01 80
   0.885379 1  1D8             Rx   d 8 80 00 00 00 00 00 A0 F9
   0.889304 1  266             Rx   d 8 00 00 2C 2C 00 00 00 00
   0.889560 1  118             Rx   d 8 1E 8C F0 00 00 08 01 80
   0.894572 1  81              Rx   d 8 14 3E 4E FD 0A EA 83 A6
   0.895374 1  1D8             Rx   d 8 80 00 00 00 00 00 C0 19
   0.899287 1  266             Rx   d 8 00 00 2C 2C 00 00 00 00
   0.899571 1  118             Rx   d 8 1F 8D F0 00 00 08 01 80
   0.905374 1  1D8             Rx   d 8 80 00 00 00 00 00 E0 39
   0.905686 1  56              Rx   d 8 04 00 00 00 00 00 01 5B
   0.909302 1  266             Rx   d 8 00 00 2C 2C 00 00 00 00
   0.909558 1  118             Rx   d 8 20 8E F0 00 00 08 01 80
   0.915374 1  1D8             Rx   d 8 80 00 00 00 00 00 00 59
   0.919283 1  266             Rx   d 8 00 00 2C 2C 00 00 00 00
   0.919564 1  118             Rx   d 8 21 8F F0 00 00 08 01 80
   0.924433 1  80              Rx   d 8 06 E9 0A 20 0E 1B 1C A8
   0.925373 1  1D8             Rx   d 8 80 00 00 00 00 00 20 79
   0.929529 1  266             Rx   d 8 00 00 2C 2C 00 00 00 00
   0.929770 1  118             Rx   d 8 12 80 F0 00 00 08 01 80
   0.934954 1  81              Rx   d 8 23 42 54 3F 87 4F C5 EF
   0.935371 1  1D8             Rx   d 8 80 00 00 00 00 00 40 99
   0.939281 1  266             Rx   d 8 00 00 2C 2C 00 00 00 00
   0.939572 1  118             Rx   d 8 13 81 F0 00 00 08 01 80
   0.939862 1  166             Rx   d 7 25 09 00 00 00 B6 03
   0.940102 1  1D6             Rx   d 8 40 08 08 00 28 2D 6A 10
   0.940290 1  279             Rx   d 5 1F 98 0C 00 00
   0.940560 1  395             Rx   d 8 01 11 00 40 00 00 00 7D
   0.940795 1  108             Rx   d 8 19 08 00 02 00 01 00 05
   0.940931 1  2B6             Rx   d 2 88 01
   0.941178 1  397             Rx   d 8 00 00 00 00 3B 00 00 00
   0.941336 1  128             Rx   d 4 8B 48 38 02
   0.941524 1  268             Rx   d 5 2C 2C FF 01 FF
   0.944443 1  351             Rx   d 8 AC 0B 0A 00 D2 00 70 08
   0.944642 1  356             Rx   d 6 6D 0B 00 00 B4 00
   0.944876 1  355             Rx   d 8 53 00 64 00 43 03 06 18
   0.945376 1  1D8             Rx   d 8 80 00 00 00 00 00 60 B9
   0.949304 1  266             Rx   d 8 00 00 2C 2C 00 00 00 00
   0.949542 1  118             Rx   d 8 14 82 F0 00 00 08 01 80
   0.949796 1  7D5             Rx   d 8 2B 00 00 00 00 00 00 00
   0.950052 1  7D5             Rx   d 8 32 60 00 00 00 00 00 00
   0.950302 1  7D7             Rx   d 8 32 2C 00 00 00 00 00 00
   0.952575 1  375             Rx   d 8 50 30 31 5F 30 32 31 00
   0.952827 1  76              Rx   d 8 03 0F 04 0F 05 0F 00 B7
   0.955373 1  1D8             Rx   d 8 80 00 00 00 00 00 80 D9
   0.959280 1  266             Rx   d 8 00 00 2C 2C 00 00 00 00
   0.959576 1  118             Rx   d 8 15 83 F0 00 00 08 01 80
   0.965371 1  1D8             Rx   d 8 80 00 00 00 00 00 A0 F9
   0.969296 1  266             Rx   d 8 00 00 2C 2C 00 00 00 00
   0.969551 1  118             Rx   d 8 16 84 F0 00 00 08 01 80
   0.975170 1  80              Rx   d 8 3F 1C 68 44 DD 5A 45 7F
   0.975420 1  1D8             Rx   d 8 80 00 00 00 00 00 C0 19
   0.979277 1  266             Rx   d 8 00 00 2C 2C 00 00 00 00
   0.979565 1  118             Rx   d 8 17 85 F0 00 00 08 01 80
   0.985364 1  1D8             Rx   d 8 80 00 00 00 00 00 E0 39
   0.989291 1  266             Rx   d 8 00 00 2C 2C 00 00 00 00
   0.989555 1  118             Rx   d 8 18 86 F0 00 00 08 01 80
   0.995043 1  81              Rx   d 8 4A 1B BE 76 8F 3E A5 9C
   0.995370 1  1D8             Rx   d 8 80 00 00 00 00 00 00 59
   0.999272 1  266             Rx   d 8 00 00 2C 2C 00 00 00 00
   0.999556 1  118             Rx   d 8 19 87 F0 00 00 08 01 80
   1.004760 1  56              Rx   d 8 04 00 00 00 00 00 02 5C
   1.005368 1  1D8             Rx   d 8 80 00 00 00 00 00 20 79
   1.008403 1  6B0             Rx   d 8 00 A7 00 48 72 43 00 5C
   1.008659 1  6B4             Rx   d 8 01 63 00 01 00 15 00 00
   1.008893 1  6B3             Rx   d 8 00 11 00 00 00 0F 00 00
   1.009129 1  6B2             Rx   d 8 00 46 00 81 9E 60 00 C5
   1.009375 1  266             Rx   d 8 00 00 2C 2C 00 00 00 00
   1.009610 1  6B1             Rx   d 8 00 15 00 00 9E C3 00 2F
   1.009860 1  118             Rx   d 8 1A 88 F0 00 00 08 01 80
   1.015370 1  1D8             Rx   d 8 80 00 00 00 00 00 40 99
   1.016377 1  35B             Rx   d 4 70 10 05 00
   1.016549 1  35A             Rx   d 4 00 00 00 00
   1.019278 1  266             Rx   d 8 00 00 2C 2C 00 00 00 00
   1.019564 1  118             Rx   d 8 1B 89 F0 00 00 08 01 80
   1.024596 1  80              Rx   d 8 41 70 89 E5 51 54 17 42
   1.025360 1  1D8             Rx   d 8 80 00 00 00 00 00 60 B9
   1.029288 1  266             Rx   d 8 00 00 2C 2C 00 00 00 00
   1.029559 1  118             Rx   d 8 1C 8A F0 00 00 08 01 80
   1.035093 1  81              Rx   d 8 32 2A 6D 13 25 81 DC 4B
   1.035367 1  1D8             Rx   d 8 80 00 00 00 00 00 80 D9
   1.039266 1  266             Rx   d 8 00 00 2C 2C 00 00 00 00
   1.039540 1  118             Rx   d 8 1D 8B F0 00 00 08 01 80
   1.039854 1  166             Rx   d 7 25 09 00 00 00 B6 03
   1.040087 1  1D6             Rx   d 8 40 08 08 00 28 2D 55 10
   1.040286 1  279             Rx   d 5 10 89 0C 00 00
   1.040559 1  395             Rx   d 8 01 11 0C 40 01 00 00 7D
   1.040793 1  108             Rx   d 8 19 09 00 02 00 00 00 05
   1.040893 1  2B6             Rx   d 2 88 01
   1.041174 1  397             Rx   d 8 00 00 00 00 3B 00 00 00
   1.041337 1  128             Rx   d 4 8B 48 38 02
   1.041571 1  36              Rx   d 8 02 9E B3 10 12 9E B4 05
   1.041750 1  268             Rx   d 5 2C 2C FF 01 FF
   1.045369 1  1D8             Rx   d 8 80 00 00 00 00 00 A0 F9
   1.048532 1  351             Rx   d 8 AC 0B 0A 00 D2 00 70 08
   1.048739 1  356             Rx   d 6 6D 0B 00 00 AA 00
   1.048972 1  355             Rx   d 8 53 00 64 00 43 03 06 18
   1.049291 1  266             Rx   d 8 00 00 2C 2C 00 00 00 00
   1.049541 1  118             Rx   d 8 1E 8C F0 00 00 08 01 80
   1.049786 1  7D5             Rx   d 8 2B 00 00 00 00 00 00 00
   1.050039 1  7D5             Rx   d 8 32 60 00 00 00 00 00 00
   1.050293 1  7D7             Rx   d 8 32 2C 00 00 00 00 00 00
   1.052585 1  376             Rx   d 8 50 30 31 5F 30 31 00 00
   1.052811 1  76              Rx   d 8 06 11 07 11 00 0F 00 BC
   1.055360 1  1D8             Rx   d 8 80 00 00 00 00 00 C0 19
   1.059265 1  266             Rx   d 8 00 00 2C 2C 00 00 00 00
   1.059559 1  118             Rx   d 8 1F 8D F0 00 00 08 01 80
   1.065357 1  1D8             Rx   d 8 80 00 00 00 00 00 E0 39
   1.069279 1  266             Rx   d 8 00 00 2C 2C 00 00 00 00
   1.069565 1  118             Rx   d 8 20 8E F0 00 00 08 01 80
   1.075316 1  80              Rx   d 8 7A A3 E7 0A 20 93 41 19
   1.075566 1  1D8             Rx   d 8 80 00 00 00 00 00 00 59
   1.079261 1  266             Rx   d 8 00 00 2C 2C 00 00 00 00
   1.079559 1  118             Rx   d 8 21 8F F0 00 00 08 01 80
   1.085108 1  81              Rx   d 8 52 ED 36 50 53 51 9B E6
   1.085363 1  1D8             Rx   d 8 80 00 00 00 00 00 20 79
   1.089280 1  266             Rx   d 8 00 00 2C 2C 00 00 00 00
   1.089531 1  118             Rx   d 8 12 80 F0 00 00 08 01 80
   1.095354 1  1D8             Rx   d 8 80 00 00 00 00 00 40 99
   1.099259 1  266             Rx   d 8 00 00 2C 2C 00 00 00 00
   1.099553 1  118             Rx   d 8 13 81 F0 00 00 08 01 80
   1.103845 1  56              Rx   d 8 04 00 00 00 00 00 03 5D
   1.105351 1  1D8             Rx   d 8 80 00 00 00 00 00 60 B9
   1.109275 1  266             Rx   d 8 00 00 2C 2C 00 00 00 00
   1.109534 1  118             Rx   d 8 14 82 F0 00 00 08 01 80
   1.115353 1  1D8             Rx   d 8 80 00 00 00 00 00 80 D9
   1.119255 1  266             Rx   d 8 00 00 2C 2C 00 00 00 00
   1.119545 1  118             Rx   d 8 15 83 F0 00 00 08 01 80
   1.124750 1  80              Rx   d 8 EB 60 14 81 03 13 2A E5
   1.125352 1  1D8             Rx   d 8 80 00 00 00 00 00 A0 F9
   1.129280 1  266             Rx   d 8 00 00 2C 2C 00 00 00 00
   1.129551 1  118             Rx   d 8 16 84 F0 00 00 08 01 80
   1.134948 1  81              Rx   d 8 71 11 AB DE 57 B6 C9 BE
   1.135353 1  1D8             Rx   d 8 80 00 00 00 00 00 C0 19
   1.139255 1  266             Rx   d 8 00 00 2C 2C 00 00 00 00
   1.139548 1  118             Rx   d 8 17 85 F0 00 00 08 01 80
   1.139847 1  166             Rx   d 7 25 09 00 00 00 B6 03
   1.140086 1  1D6             Rx   d 8 40 08 08 00 28 2D 63 10
   1.140257 1  279             Rx   d 5 11 8A 0C 00 00
   1.140536 1  395             Rx   d 8 01 11 1E 40 09 00 07 7D
   1.140785 1  108             Rx   d 8 18 0A 00 02 00 FF FF 05
   1.140884 1  2B6             Rx   d 2 88 01
   1.141172 1  397             Rx   d 8 00 00 00 00 3B 00 00 00
   1.141332 1  128             Rx   d 4 8B 48 38 02
   1.141521 1  268             Rx   d 5 2C 2C FF 01 FF
   1.145354 1  1D8             Rx   d 8 80 00 00 00 00 00 E0 39
   1.149281 1  266             Rx   d 8 00 00 2C 2C 00 00 00 00
   1.149539 1  118             Rx   d 8 18 86 F0 00 00 08 01 80
   1.149762 1  3D5             Rx   d 8 3C 3C 3B 3B 3A 2D 03 43
   1.150013 1  7D5             Rx   d 8 2B 00 00 00 00 00 00 00
   1.150248 1  315             Rx   d 8 18 39 38 3B 50 38 9E 7D
   1.150493 1  7D5             Rx   d 8 32 60 00 00 00 00 00 00
   1.150737 1  315             Rx   d 8 01 38 38 00 38 28 00 00
   1.150981 1  7D7             Rx   d 8 32 2C 00 00 00 00 00 00
   1.151231 1  315             Rx   d 8 02 FF FF FF FF 00 00 00
   1.151471 1  7D5             Rx   d 8 42 00 00 E4 00 E4 20 00
   1.151713 1  315             Rx   d 8 FB FF FF FF FB FF FB 0F
   1.151946 1  7D5             Rx   d 8 43 BD C1 B4 6B 3C 00 00
   1.152193 1  315             Rx   d 8 04 FF FF FF FF 00 00 00
   1.152415 1  7D5             Rx   d 8 44 2E 46 27 56 37 24 44
   1.152621 1  356             Rx   d 6 6D 0B 00 00 AA 00
   1.152862 1  355             Rx   d 8 53 00 64 00 43 03 06 18
   1.153084 1  351             Rx   d 8 AC 0B 0A 00 D2 00 70 08
   1.153328 1  377             Rx   d 8 50 30 31 5F 30 37 00 00
   1.153565 1  76              Rx   d 8 01 0F 02 0F 03 0F 00 B1
   1.153752 1  5D7             Rx   d 5 50 6E 00 00 00
   1.153982 1  7D5             Rx   d 8 46 28 28 28 28 28 28 28
   1.154151 1  3B6             Rx   d 4 FF FF FF FF
   1.154400 1  7D5             Rx   d 8 48 28 28 00 00 00 8A 93
   1.154634 1  335             Rx   d 8 0B 00 1E 5B 00 00 00 00
   1.154889 1  3A7             Rx   d 8 00 00 00 00 00 00 00 00
   1.155147 1  3E5             Rx   d 8 00 00 00 00 00 00 00 00
   1.155379 1  1D8             Rx   d 8 80 00 00 00 00 00 00 59
   1.155627 1  367             Rx   d 8 00 00 00 00 00 00 00 00
   1.155882 1  368             Rx   d 8 00 00 00 00 00 00 00 00
   1.156123 1  36B             Rx   d 8 00 00 00 00 00 00 00 80
   1.156376 1  36E             Rx   d 8 00 00 00 00 00 00 00 00
   1.159259 1  266             Rx   d 8 00 00 2C 2C 00 00 00 00
   1.159519 1  118             Rx   d 8 19 87 F0 00 00 08 01 80
   1.165352 1  1D8             Rx   d 8 80 00 00 00 00 00 20 79
   1.169277 1  266             Rx   d 8 00 00 2C 2C 00 00 00 00
   1.169517 1  118             Rx   d 8 1A 88 F0 00 00 08 01 80
   1.175346 1  1D8             Rx   d 8 80 00 00 00 00 00 40 99
   1.175578 1  80              Rx   d 8 B5 2B 67 CF 63 CC 3C B3
   1.179246 1  266             Rx   d 8 00 00 2C 2C 00 00 00 00
   1.179533 1  118             Rx   d 8 1B 89 F0 00 00 08 01 80
   1.185173 1  81              Rx   d 8 62 A0 05 67 22 A1 BE EE
   1.185421 1  1D8             Rx   d 8 80 00 00 00 00 00 60 B9
   1.189263 1  266             Rx   d 8 00 00 2C 2C 00 00 00 00
   1.189521 1  118             Rx   d 8 1C 8A F0 00 00 08 01 80
   1.195343 1  1D8             Rx   d 8 80 00 00 00 00 00 80 D9
   1.199244 1  266             Rx   d 8 00 00 2C 2C 00 00 00 00
   1.199535 1  118             Rx   d 8 1D 8B F0 00 00 08 01 80
   1.202935 1  56              Rx   d 8 04 00 00 00 00 00 04 5E
   1.205349 1  1D8             Rx   d 8 80 00 00 00 00 00 A0 F9
   1.209263 1  266             Rx   d 8 00 00 2C 2C 00 00 00 00
   1.209513 1  118             Rx   d 8 1E 8C F0 00 00 08 01 80
   1.214291 1  554             Rx   d 7 00 21 04 17 23 C0 01
   1.214544 1  344             Rx   d 8 00 00 00 00 00 00 20 67
   1.214783 1  6D4             Rx   d 8 0B 00 1E 5B 00 00 00 00
   1.215041 1  384             Rx   d 8 00 00 30 00 00 00 00 04
   1.215281 1  380             Rx   d 8 02 00 00 00 63 00 00 00
   1.215531 1  1D8             Rx   d 8 80 00 00 00 00 00 C0 19
   1.215768 1  5A6             Rx   d 8 11 80 01 00 00 00 00 00
   1.216025 1  5A4             Rx   d 8 3B 80 01 00 00 00 00 00
   1.216264 1  386             Rx   d 8 00 02 01 00 00 00 90 00
   1.216510 1  3A0             Rx   d 8 00 00 00 00 00 00 00 00
   1.219242 1  266             Rx   d 8 00 00 2C 2C 00 00 00 00
   1.219520 1  118             Rx   d 8 1F 8D F0 00 00 08 01 80
   1.219756 1  527             Rx   d 8 69 80 01 00 00 00 00 00
   1.220001 1  5A5             Rx   d 8 6E 80 01 00 00 00 00 00
   1.220245 1  5A5             Rx   d 8 EA 80 01 00 00 00 00 00
   1.220540 1  527             Rx   d 8 E7 80 01 00 00 00 00 00
   1.220788 1  3B5             Rx   d 8 04 00 00 08 00 20 00 00
   1.221054 1  3E5             Rx   d 8 00 00 00 00 00 02 00 00
   1.221298 1  368             Rx   d 8 00 00 00 00 00 01 00 00
   1.221554 1  36E             Rx   d 8 00 00 00 00 40 00 00 00
   1.225344 1  1D8             Rx   d 8 80 00 00 00 00 00 E0 39
   1.226214 1  80              Rx   d 8 7F F6 B9 1C C3 84 4E 81
   1.229250 1  266             Rx   d 8 00 00 2C 2C 00 00 00 00
   1.229533 1  118             Rx   d 8 20 8E F0 00 00 08 01 80
   1.235159 1  81              Rx   d 8 BD F3 31 85 90 E2 46 87
   1.235416 1  1D8             Rx   d 8 80 00 00 00 00 00 00 59
   1.239232 1  266             Rx   d 8 00 00 2C 2C 00 00 00 00
   1.239503 1  118             Rx   d 8 21 8F F0 00 00 08 01 80
   1.239821 1  166             Rx   d 7 25 09 00 00 00 B6 03
   1.240048 1  1D6             Rx   d 8 40 08 08 00 28 2D 61 10
   1.240243 1  279             Rx   d 5 12 8B 0C 00 00
   1.240512 1  395             Rx   d 8 01 11 1C 40 12 00 06 7D
   1.240751 1  108             Rx   d 8 1B 0B 00 02 00 00 00 05
   1.240887 1  2B6             Rx   d 2 88 01
   1.241133 1  397             Rx   d 8 00 00 00 00 3B 00 00 00
   1.241292 1  128             Rx   d 4 8B 48 38 02
   1.241490 1  268             Rx   d 5 2C 2C FF 01 FF
   1.245345 1  1D8             Rx   d 8 80 00 00 00 00 00 20 79
   1.249246 1  266             Rx   d 8 00 00 2C 2C 00 00 00 00
   1.249531 1  118             Rx   d 8 12 80 F0 00 00 08 01 80
   1.249783 1  7D5             Rx   d 8 2B 00 00 00 00 00 00 00
   1.250018 1  7D5             Rx   d 8 32 60 00 00 00 00 00 00
   1.250273 1  7D7             Rx   d 8 32 2C 00 00 00 00 00 00
   1.252586 1  379             Rx   d 8 9C 00 00 00 00 00 00 00
   1.252823 1  76              Rx   d 8 04 0F 05 0F 06 11 00 BC
   1.255335 1  1D8             Rx   d 8 80 00 00 00 00 00 40 99
   1.256532 1  351             Rx   d 8 AC 0B 0A 00 D2 00 70 08
   1.256740 1  356             Rx   d 6 6D 0B 00 00 AA 00
   1.256976 1  355             Rx   d 8 53 00 64 00 43 03 06 18
   1.259235 1  266             Rx   d 8 00 00 2C 2C 00 00 00 00
   1.259525 1  118             Rx   d 8 13 81 F0 00 00 08 01 80
   1.265339 1  1D8             Rx   d 8 80 00 00 00 00 00 60 B9
   1.269230 1  266             Rx   d 8 00 00 2C 2C 00 00 00 00
   1.269515 1  118             Rx   d 8 14 82 F0 00 00 08 01 80
   1.275332 1  1D8             Rx   d 8 80 00 00 00 00 00 80 D9
   1.275636 1  80              Rx   d 8 F0 B2 E6 94 A6 05 38 4E
   1.279225 1  266             Rx   d 8 00 00 2C 2C 00 00 00 00
   1.279504 1  118             Rx   d 8 15 83 F0 00 00 08 01 80
   1.285171 1  81              Rx   d 8 03 84 33 40 F2 4E 78 6E
   1.285423 1  1D8             Rx   d 8 80 00 00 00 00 00 A0 F9
   1.289227 1  266             Rx   d 8 00 00 2C 2C 00 00 00 00
   1.289505 1  118             Rx   d 8 16 84 F0 00 00 08 01 80
   1.295327 1  1D8             Rx   d 8 80 00 00 00 00 00 C0 19
   1.299218 1  266             Rx   d 8 00 00 2C 2C 00 00 00 00
   1.299495 1  118             Rx   d 8 17 85 F0 00 00 08 01 80
   1.302019 1  56              Rx   d 8 04 00 00 00 00 00 05 5F
   1.305326 1  1D8             Rx   d 8 80 00 00 00 00 00 E0 39
   1.309224 1  266             Rx   d 8 00 00 2C 2C 00 00 00 00
   1.309506 1  118             Rx   d 8 18 86 F0 00 00 08 01 80
   1.315331 1  1D8             Rx   d 8 80 00 00 00 00 00 00 59
   1.319218 1  266             Rx   d 8 00 00 2C 2C 00 00 00 00
   1.319506 1  118             Rx   d 8 19 87 F0 00 00 08 01 80
   1.325335 1  1D8             Rx   d 8 80 00 00 00 00 00 20 79
   1.326358 1  80              Rx   d 8 BA 7D 39 E2 06 BD 4A 1B
   1.329226 1  266             Rx   d 8 00 00 2C 2C 00 00 00 00
   1.329494 1  118             Rx   d 8 1A 88 F0 00 00 08 01 80
   1.335328 1  1D8             Rx   d 8 80 00 00 00 00 00 40 99
   1.339217 1  266             Rx   d 8 00 00 2C 2C 00 00 00 00
   1.339505 1  118             Rx   d 8 1B 89 F0 00 00 08 01 80
   1.339819 1  166             Rx   d 7 25 09 00 00 00 B6 03
   1.340062 1  1D6             Rx   d 8 40 08 08 00 28 2D 75 10
   1.340233 1  279             Rx   d 5 13 8C 0C 00 00
   1.340507 1  395             Rx   d 8 01 11 1C 40 15 00 06 7D
   1.340754 1  108             Rx   d 8 1C 0C 00 02 00 00 00 05
   1.340890 1  2B6             Rx   d 2 88 01
   1.341133 1  397             Rx   d 8 00 00 00 00 3B 00 00 00
   1.341299 1  128             Rx   d 4 8B 48 38 02
   1.341493 1  268             Rx   d 5 2C 2C FF 01 FF
   1.345330 1  1D8             Rx   d 8 80 00 00 00 00 00 60 B9
   1.345847 1  81              Rx   d 8 41 14 83 96 10 AB 84 6D
   1.349224 1  266             Rx   d 8 00 00 2C 2C 00 00 00 00
   1.349512 1  118             Rx   d 8 1C 8A F0 00 00 08 01 80
   1.349747 1  7D5             Rx   d 8 2B 00 00 00 00 00 00 00
   1.349997 1  7D5             Rx   d 8 32 60 00 00 00 00 00 00
   1.350244 1  7D7             Rx   d 8 32 2C 00 00 00 00 00 00
   1.352587 1  380             Rx   d 8 4C 35 41 41 36 34 30 33
   1.352830 1  76              Rx   d 8 07 11 00 0F 01 0F 00 B5
   1.355325 1  1D8             Rx   d 8 80 00 00 00 00 00 80 D9
   1.359217 1  266             Rx   d 8 00 00 2C 2C 00 00 00 00
   1.359500 1  118             Rx   d 8 1D 8B F0 00 00 08 01 80
   1.360466 1  351             Rx   d 8 AC 0B 0A 00 D2 00 70 08
   1.360672 1  356             Rx   d 6 6D 0B 00 00 AA 00
   1.360909 1  355             Rx   d 8 53 00 64 00 43 03 06 18
   1.365336 1  1D8             Rx   d 8 80 00 00 00 00 00 A0 F9
   1.369224 1  266             Rx   d 8 00 00 2C 2C 00 00 00 00
   1.369507 1  118             Rx   d 8 1E 8C F0 00 00 08 01 80
   1.375326 1  1D8             Rx   d 8 80 00 00 00 00 00 C0 19
   1.375796 1  80              Rx   d 8 63 C2 33 AD FD 7F F4 DD
   1.379215 1  266             Rx   d 8 00 00 2C 2C 00 00 00 00
   1.379510 1  118             Rx   d 8 1F 8D F0 00 00 08 01 80
   1.385322 1  1D8             Rx   d 8 80 00 00 00 00 00 E0 39
   1.385561 1  81              Rx   d 8 08 02 2B 7C D0 95 EC D9
   1.389218 1  266             Rx   d 8 00 00 2C 2C 00 00 00 00
   1.389499 1  118             Rx   d 8 20 8E F0 00 00 08 01 80
   1.395326 1  1D8             Rx   d 8 80 00 00 00 00 00 00 59
   1.399212 1  266             Rx   d 8 00 00 2C 2C 00 00 00 00
   1.399491 1  118             Rx   d 8 21 8F F0 00 00 08 01 80
   1.401104 1  56              Rx   d 8 04 00 00 00 00 00 06 60
   1.405327 1  1D8             Rx   d 8 80 00 00 00 00 00 20 79
   1.409217 1  266             Rx   d 8 00 00 2C 2C 00 00 00 00
   1.409507 1  118             Rx   d 8 12 80 F0 00 00 08 01 80
   1.415321 1  1D8             Rx   d 8 80 00 00 00 00 00 40 99
   1.419213 1  266             Rx   d 8 00 00 2C 2C 00 00 00 00
   1.419510 1  118             Rx   d 8 13 81 F0 00 00 08 01 80
   1.425318 1  1D8             Rx   d 8 80 00 00 00 00 00 60 B9
   1.426521 1  80              Rx   d 8 F5 04 B8 A7 49 F6 45 B6
   1.429225 1  266             Rx   d 8 00 00 2C 2C 00 00 00 00
   1.429503 1  118             Rx   d 8 14 82 F0 00 00 08 01 80
   1.435319 1  1D8             Rx   d 8 80 00 00 00 00 00 80 D9
   1.439210 1  266             Rx   d 8 00 00 2C 2C 00 00 00 00
   1.439502 1  118             Rx   d 8 15 83 F0 00 00 08 01 80
   1.439800 1  166             Rx   d 7 25 09 00 00 00 B6 03
   1.440029 1  1D6             Rx   d 8 40 08 08 00 28 2D 5D 10
   1.440211 1  279             Rx   d 5 24 9D 0C 00 00
   1.440485 1  395             Rx   d 8 01 11 1A 40 17 00 05 7D
   1.440741 1  108             Rx   d 8 1E 0D 00 02 00 01 00 05
   1.440848 1  2B6             Rx   d 2 88 01
   1.441109 1  397             Rx   d 8 00 00 00 00 3B 00 00 00
   1.441265 1  128             Rx   d 4 8B 48 38 02
   1.441463 1  268             Rx   d 5 2C 2C FF 01 FF
   1.445333 1  1D8             Rx   d 8 80 00 00 00 00 00 A0 F9
   1.445964 1  81              Rx   d 8 D9 8B CC 1F 09 7E AC 01
   1.449223 1  266             Rx   d 8 00 00 2C 2C 00 00 00 00
   1.449501 1  118             Rx   d 8 16 84 F0 00 00 08 01 80
   1.449747 1  7D5             Rx   d 8 2B 00 00 00 00 00 00 00
   1.449993 1  7D5             Rx   d 8 32 60 00 00 00 00 00 00
   1.450247 1  7D7             Rx   d 8 32 2C 00 00 00 00 00 00
   1.452594 1  381             Rx   d 8 FF FF FF 00 00 00 00 00
   1.452833 1  76              Rx   d 8 02 0F 03 0F 04 0F 00 B4
   1.455324 1  1D8             Rx   d 8 80 00 00 00 00 00 C0 19
   1.459208 1  266             Rx   d 8 00 00 2C 2C 00 00 00 00
   1.459495 1  118             Rx   d 8 17 85 F0 00 00 08 01 80
   1.464524 1  351             Rx   d 8 AC 0B 0A 00 D2 00 70 08
   1.464733 1  356             Rx   d 6 6D 0B 00 00 AA 00
   1.464956 1  355             Rx   d 8 53 00 64 00 43 03 06 18
   1.465327 1  1D8             Rx   d 8 80 00 00 00 00 00 E0 39
   1.469223 1  266             Rx   d 8 00 00 2C 2C 00 00 00 00
   1.469490 1  118             Rx   d 8 18 86 F0 00 00 08 01 80
   1.475325 1  1D8             Rx   d 8 80 00 00 00 00 00 00 59
   1.475946 1  80              Rx   d 8 F7 58 D8 48 BE F0 17 79
   1.479206 1  266             Rx   d 8 00 00 2C 2C 00 00 00 00
   1.479498 1  118             Rx   d 8 19 87 F0 00 00 08 01 80
   1.485322 1  1D8             Rx   d 8 80 00 00 00 00 00 20 79
   1.485555 1  81              Rx   d 8 22 1E F7 E3 3A 17 7F D1
   1.489217 1  266             Rx   d 8 00 00 2C 2C 00 00 00 00
   1.489461 1  118             Rx   d 8 1A 88 F0 00 00 08 01 80
   1.495318 1  1D8             Rx   d 8 80 00 00 00 00 00 40 99
   1.499202 1  266             Rx   d 8 00 00 2C 2C 00 00 00 00
   1.499494 1  118             Rx   d 8 1B 89 F0 00 00 08 01 80
   1.500189 1  56              Rx   d 8 04 00 00 00 00 00 07 61
   1.505319 1  1D8             Rx   d 8 80 00 00 00 00 00 60 B9
   1.509215 1  266             Rx   d 8 00 00 2C 2C 00 00 00 00
   1.509463 1  118             Rx   d 8 1C 8A F0 00 00 08 01 80
   1.515319 1  1D8             Rx   d 8 80 00 00 00 00 00 80 D9
   1.519200 1  266             Rx   d 8 00 00 2C 2C 00 00 00 00
   1.519483 1  118             Rx   d 8 1D 8B F0 00 00 08 01 80
   1.520376 1  35B             Rx   d 4 C6 0A 05 00
   1.520545 1  35A             Rx   d 4 00 00 00 00
   1.525323 1  1D8             Rx   d 8 80 00 00 00 00 00 A0 F9
   1.526681 1  80              Rx   d 8 30 8B 37 6C 8C 2F 41 50
   1.529210 1  266             Rx   d 8 00 00 2C 2C 00 00 00 00
   1.529459 1  118             Rx   d 8 1E 8C F0 00 00 08 01 80
   1.535313 1  1D8             Rx   d 8 80 00 00 00 00 00 C0 19
   1.539198 1  266             Rx   d 8 00 00 2C 2C 00 00 00 00
   1.539492 1  118             Rx   d 8 1F 8D F0 00 00 08 01 80
   1.539785 1  166             Rx   d 7 25 09 00 00 00 B6 03
   1.540015 1  1D6             Rx   d 8 40 08 08 00 28 2D 79 10
   1.540207 1  279             Rx   d 5 15 8E 0C 00 00
   1.540478 1  395             Rx   d 8 01 11 19 40 18 00 05 7D
   1.540721 1  108             Rx   d 8 1E 0E 00 02 00 00 00 05
   1.540853 1  2B6             Rx   d 2 88 01
   1.541110 1  397             Rx   d 8 00 00 00 00 3B 00 00 00
   1.541271 1  128             Rx   d 4 8B 48 38 02
   1.541505 1  36              Rx   d 8 03 9E B3 10 12 9E BF 11
   1.541682 1  268             Rx   d 5 2C 2C FF 01 FF
   1.545319 1  1D8             Rx   d 8 80 00 00 00 00 00 E0 39
   1.546297 1  81              Rx   d 8 18 97 8F 23 D5 82 4E 18
   1.549209 1  266             Rx   d 8 00 00 2C 2C 00 00 00 00
   1.549460 1  118             Rx   d 8 20 8E F0 00 00 08 01 80
   1.549708 1  7D5             Rx   d 8 2B 00 00 00 00 00 00 00
   1.549952 1  7D5             Rx   d 8 32 60 00 00 00 00 00 00
   1.550203 1  7D7             Rx   d 8 32 2C 00 00 00 00 00 00
   1.552584 1  374             Rx   d 8 50 30 31 5F 30 37 30 00
   1.552814 1  76              Rx   d 8 05 0F 06 11 07 11 00 C1
   1.555315 1  1D8             Rx   d 8 80 00 00 00 00 00 00 59
   1.559194 1  266             Rx   d 8 00 00 2C 2C 00 00 00 00
   1.559481 1  118             Rx   d 8 21 8F F0 00 00 08 01 80
   1.565314 1  1D8             Rx   d 8 80 00 00 00 00 00 20 79
   1.568452 1  351             Rx   d 8 AC 0B 0A 00 D2 00 70 08
   1.568664 1  356             Rx   d 6 6D 0B 00 00 AA 00
   1.568893 1  355             Rx   d 8 53 00 64 00 43 03 06 18
   1.569229 1  266             Rx   d 8 00 00 2C 2C 00 00 00 00
   1.569479 1  118             Rx   d 8 12 80 F0 00 00 08 01 80
   1.575314 1  1D8             Rx   d 8 80 00 00 00 00 00 40 99
   1.577412 1  80              Rx   d 8 32 DF 58 0D 01 29 13 13
   1.579194 1  266             Rx   d 8 00 00 2C 2C 00 00 00 00
   1.579490 1  118             Rx   d 8 13 81 F0 00 00 08 01 80
   1.585310 1  1D8             Rx   d 8 80 00 00 00 00 00 60 B9
   1.589217 1  266             Rx   d 8 00 00 2C 2C 00 00 00 00
   1.589474 1  118             Rx   d 8 14 82 F0 00 00 08 01 80
   1.595312 1  1D8             Rx   d 8 80 00 00 00 00 00 80 D9
   1.595554 1  81              Rx   d 8 6F 8D 0B 04 08 75 3F 20
   1.599190 1  266             Rx   d 8 00 00 2C 2C 00 00 00 00
   1.599440 1  56              Rx   d 8 04 00 00 00 00 00 08 62
   1.599680 1  118             Rx   d 8 15 83 F0 00 00 08 01 80
   1.605311 1  1D8             Rx   d 8 80 00 00 00 00 00 A0 F9
   1.609215 1  266             Rx   d 8 00 00 2C 2C 00 00 00 00
   1.609484 1  118             Rx   d 8 16 84 F0 00 00 08 01 80
   1.615305 1  1D8             Rx   d 8 80 00 00 00 00 00 C0 19
   1.619196 1  266             Rx   d 8 00 00 2C 2C 00 00 00 00
   1.619485 1  118             Rx   d 8 17 85 F0 00 00 08 01 80
   1.625307 1  1D8             Rx   d 8 80 00 00 00 00 00 E0 39
   1.628135 1  80              Rx   d 8 A3 9B 84 85 E3 A9 FD E0
   1.629215 1  266             Rx   d 8 00 00 2C 2C 00 00 00 00
   1.629480 1  118             Rx   d 8 18 86 F0 00 00 08 01 80
   1.635308 1  1D8             Rx   d 8 80 00 00 00 00 00 00 59
   1.639193 1  266             Rx   d 8 00 00 2C 2C 00 00 00 00
   1.639446 1  118             Rx   d 8 19 87 F0 00 00 08 01 80
   1.639756 1  166             Rx   d 7 25 09 00 00 00 B6 03
   1.639989 1  1D6             Rx   d 8 40 08 08 00 28 2D 69 10
   1.640180 1  279             Rx   d 5 16 8F 0C 00 00
   1.640461 1  395             Rx   d 8 01 11 18 40 19 00 05 7D
   1.640721 1  108             Rx   d 8 1F 0F 00 02 00 00 00 05
   1.640824 1  2B6             Rx   d 2 88 01
   1.641094 1  397             Rx   d 8 00 00 00 00 3B 00 00 00
   1.641263 1  128             Rx   d 4 8B 48 38 02
   1.641449 1  268             Rx   d 5 2C 2C FF 01 FF
   1.645313 1  1D8             Rx   d 8 80 00 00 00 00 00 20 79
   1.646377 1  81              Rx   d 8 F5 B9 82 4F 96 78 B1 72
   1.649210 1  266             Rx   d 8 00 00 2C 2C 00 00 00 00
   1.649473 1  118             Rx   d 8 1A 88 F0 00 00 08 01 80
   1.649722 1  7D5             Rx   d 8 2B 00 00 00 00 00 00 00
   1.649972 1  7D5             Rx   d 8 32 60 00 00 00 00 00 00
   1.650209 1  7D7             Rx   d 8 32 2C 00 00 00 00 00 00
   1.652577 1  375             Rx   d 8 50 30 31 5F 30 32 31 00
   1.652820 1  76              Rx   d 8 00 0F 01 0F 02 0F 00 AE
   1.655301 1  1D8             Rx   d 8 80 00 00 00 00 00 40 99
   1.659200 1  266             Rx   d 8 00 00 2C 2C 00 00 00 00
   1.659479 1  118             Rx   d 8 1B 89 F0 00 00 08 01 80
   1.665301 1  1D8             Rx   d 8 80 00 00 00 00 00 60 B9
   1.666186 1  606             Rx   d 8 03 22 F0 13 00 00 00 00
   1.666672 1  616             Rx   d 8 10 11 62 F0 13 50 47 54
   1.669210 1  266             Rx   d 8 00 00 2C 2C 00 00 00 00
   1.669462 1  118             Rx   d 8 1C 8A F0 00 00 08 01 80
   1.672452 1  351             Rx   d 8 AC 0B 0A 00 D2 00 70 08
   1.672651 1  356             Rx   d 6 6D 0B 00 00 AA 00
   1.672890 1  355             Rx   d 8 53 00 64 00 43 03 06 18
   1.675306 1  1D8             Rx   d 8 80 00 00 00 00 00 80 D9
   1.676714 1  606             Rx   d 8 30 00 0A 00 00 00 00 00
   1.676989 1  616             Rx   d 8 21 32 31 32 35 38 30 35
   1.679199 1  266             Rx   d 8 00 00 2C 2C 00 00 00 00
   1.679463 1  118             Rx   d 8 1D 8B F0 00 00 08 01 80
   1.685301 1  1D8             Rx   d 8 80 00 00 00 00 00 A0 F9
   1.686940 1  616             Rx   d 8 22 32 39 36 38 AA AA AA
   1.689211 1  266             Rx   d 8 00 00 2C 2C 00 00 00 00
   1.689460 1  118             Rx   d 8 1E 8C F0 00 00 08 01 80
   1.695297 1  1D8             Rx   d 8 80 00 00 00 00 00 C0 19
   1.698364 1  56              Rx   d 8 04 00 00 00 00 00 09 63
   1.698609 1  604             Rx   d 8 02 11 01 00 00 00 00 00
   1.698851 1  644             Rx   d 8 02 11 01 00 00 00 00 00
   1.699090 1  614             Rx   d 8 02 51 01 AA AA AA AA AA
   1.699348 1  266             Rx   d 8 00 00 2C 2C 00 00 00 00
   1.699586 1  118             Rx   d 8 1F 8D F0 00 00 08 01 80
   1.703722 1  1D5             Rx   d 8 21 00 00 00 00 00 00 F7
   1.703981 1  2E5             Rx   d 8 00 00 00 00 00 00 DD 00
   1.705296 1  1D8             Rx   d 8 80 00 00 00 00 00 E0 39
   1.708195 1  132             Rx   d 8 10 72 00 00 38 40 08 0E
   1.710161 1  55              Rx   d 8 00 00 00 00 00 00 01 56
   1.715605 1  1D5             Rx   d 8 21 00 00 00 00 00 20 17
   1.715858 1  2E5             Rx   d 8 00 00 00 00 00 00 DD 00
   1.719453 1  53              Rx   d 8 D4 30 84 C7 8F 38 46 15
   1.736991 1  132             Rx   d 8 10 72 00 00 38 40 08 0E
   1.737256 1  55              Rx   d 8 01 00 00 00 00 00 01 57
   1.737484 1  1D5             Rx   d 8 21 00 00 00 00 00 40 37
   1.737730 1  2E5             Rx   d 8 00 00 00 00 00 00 DD 00
   1.737901 1  39D             Rx   d 5 32 60 0A 28 00
   1.738799 1  132             Rx   d 8 10 72 00 00 38 40 08 0E
   1.739043 1  55              Rx   d 8 02 01 00 00 00 00 01 59
   1.739265 1  53              Rx   d 8 D4 30 84 C7 8F 38 46 15
   1.745813 1  5F4             Rx   d 8 00 09 1E 5B 00 00 00 01
   1.746722 1  1D5             Rx   d 8 21 00 00 00 00 00 60 57
   1.746979 1  2E5             Rx   d 8 00 00 00 00 00 00 DD 00
   1.747694 1  221             Rx   d 8 60 55 55 15 54 51 01 E8
   1.747932 1  3A1             Rx   d 8 88 4E 0B C8 00 00 00 B4
   1.748164 1  3C2             Rx   d 8 10 55 55 55 00 00 5D 19
   1.748401 1  441             Rx   d 8 46 65 22 20 DB 0E 00 90
   1.748844 1  132             Rx   d 8 10 72 00 00 38 40 08 0E
   1.749075 1  55              Rx   d 8 03 00 00 00 00 00 01 59
   1.752583 1  376             Rx   d 8 50 30 31 5F 30 31 00 00
   1.752822 1  76              Rx   d 8 03 0F 04 0F 05 0F 00 B7
   1.756729 1  1D5             Rx   d 8 21 00 00 00 00 00 80 77
   1.756992 1  2E5             Rx   d 8 00 00 00 00 00 00 DD 00
   1.758786 1  132             Rx   d 8 10 72 00 00 38 40 08 0E
   1.759034 1  55              Rx   d 8 00 00 00 00 00 00 02 57
   1.759260 1  53              Rx   d 8 D4 30 84 C7 8F 38 46 15
   1.766755 1  1D5             Rx   d 8 21 00 00 00 00 00 A0 97
   1.767010 1  2E5             Rx   d 8 00 00 00 00 00 00 DD 00
   1.768793 1  132             Rx   d 8 10 72 00 00 38 40 08 0E
   1.769051 1  55              Rx   d 8 01 00 00 00 00 00 02 58
   1.776462 1  351             Rx   d 8 AC 0B 0A 00 D2 00 70 08
   1.776664 1  356             Rx   d 6 6D 0B 00 00 AA 00
   1.776909 1  1D5             Rx   d 8 21 00 00 00 00 00 C0 B7
   1.777164 1  2E5             Rx   d 8 00 00 00 00 00 00 DD 00
   1.777394 1  355             Rx   d 8 53 00 64 00 43 03 06 18
   1.777699 1  39D             Rx   d 5 33 61 0A 28 00
   1.778936 1  132             Rx   d 8 10 72 00 00 38 40 08 0E
   1.779186 1  55              Rx   d 8 02 01 00 00 00 00 02 5A
   1.779402 1  53              Rx   d 8 D4 30 84 C7 8F 38 46 15
   1.779680 1  107D0x          Rx   d 8 21 64 64 8B 13 18 00 02
   1.786804 1  1D5             Rx   d 8 21 00 00 00 00 00 E0 D7
   1.787052 1  2E5             Rx   d 8 00 00 00 00 00 00 DD 00
   1.788786 1  132             Rx   d 8 10 72 00 00 38 40 08 0E
   1.789030 1  55              Rx   d 8 03 00 00 00 00 00 02 5A
   1.796763 1  1D5             Rx   d 8 21 00 00 00 00 00 00 F7
   1.797007 1  2E5             Rx   d 8 00 00 00 00 00 00 DD 00
   1.797467 1  56              Rx   d 8 04 00 00 00 00 00 0A 64
   1.797771 1  221             Rx   d 8 61 05 55 05 00 00 10 F3
   1.797999 1  3A1             Rx   d 8 03 00 98 6E BE 00 10 E2
   1.798238 1  3C2             Rx   d 8 01 55 15 15 00 00 55 09
   1.798480 1  441             Rx   d 8 00 00 00 00 00 00 05 BF
   1.798717 1  52              Rx   d 8 64 18 13 8B 64 31 20 00
   1.798957 1  339             Rx   d 8 41 44 FE 00 00 03 80 00
   1.799191 1  102             Rx   d 8 22 B3 48 04 00 00 A0 09
   1.799433 1  103             Rx   d 8 22 B3 88 44 00 00 20 32
   1.799683 1  207             Rx   d 8 00 00 00 00 00 28 28 00
   1.799915 1  224             Rx   d 8 04 08 00 40 19 01 10 08
   1.800134 1  241             Rx   d 7 3C 3C 16 0F 8F 55 00
   1.800381 1  247             Rx   d 8 10 0E FF 00 00 00 00 00
   1.800631 1  2A8             Rx   d 8 02 00 00 00 00 80 00 2C
   1.800869 1  2E8             Rx   d 8 02 00 00 00 00 80 00 6C
   1.801106 1  2E1             Rx   d 8 10 21 0B 9E E4 68 00 04
   1.801231 1  500             Rx   d 2 01 01
   1.801482 1  7FF             Rx   d 8 01 41 53 55 04 04 15 01
   1.801716 1  212             Rx   d 8 B9 04 A3 2F 01 38 00 01
   1.801955 1  252             Rx   d 8 00 00 CD 01 00 00 01 00
   1.802197 1  25D             Rx   d 8 34 41 01 2A 08 00 00 00
   1.802433 1  2D2             Rx   d 8 30 2A 34 3A 0A 00 8C 00
   1.802576 1  229             Rx   d 3 46 00 00
   1.802707 1  2D1             Rx   d 2 FF 01
   1.802907 1  333             Rx   d 5 00 30 84 07 02
   1.803142 1  125             Rx   d 8 0A 00 72 0B 00 00 00 00
   1.803390 1  126             Rx   d 8 00 C0 00 00 10 00 00 00
   1.803633 1  132             Rx   d 8 10 72 00 00 38 40 08 0E
   1.803879 1  55              Rx   d 8 00 00 00 00 00 00 03 58
   1.804107 1  53              Rx   d 8 D4 30 84 C3 8F 38 46 15
   1.806797 1  1D5             Rx   d 8 21 00 00 00 00 00 20 17
   1.807034 1  2E5             Rx   d 8 00 00 00 00 00 00 DD 00
   1.812846 1  132             Rx   d 8 10 72 00 00 38 40 08 0E
   1.813095 1  55              Rx   d 8 01 00 00 00 00 00 03 59
   1.816779 1  1D5             Rx   d 8 21 00 00 00 00 00 40 37
   1.817030 1  2E5             Rx   d 8 00 00 00 00 00 00 DD 00
   1.817699 1  39D             Rx   d 5 34 62 0A 28 00
   1.822804 1  132             Rx   d 8 10 72 00 00 38 40 08 0E
   1.823053 1  55              Rx   d 8 02 01 00 00 00 00 03 5B
   1.823277 1  53              Rx   d 8 D4 30 84 C3 8F 38 46 15
   1.826774 1  1D5             Rx   d 8 21 00 00 00 00 00 60 57
   1.827023 1  2E5             Rx   d 8 00 00 00 00 00 00 DD 00
   1.830645 1  1D8             Rx   d 8 00 00 00 00 00 00 00 D9
   1.832825 1  132             Rx   d 8 10 72 00 00 38 40 08 0E
   1.833068 1  55              Rx   d 8 03 00 00 00 00 00 03 5B
   1.836824 1  1D5             Rx   d 8 21 00 00 00 00 00 80 77
   1.837079 1  2E5             Rx   d 8 00 00 00 00 00 00 DD 00
   1.840692 1  1D8             Rx   d 8 00 00 00 00 00 00 20 F9
   1.840948 1  5A6             Rx   d 8 60 80 01 03 00 40 02 00
   1.841181 1  5A6             Rx   d 8 38 80 03 00 00 00 03 00
   1.841436 1  386             Rx   d 8 00 00 00 00 00 00 80 00
   1.842812 1  132             Rx   d 8 10 72 00 00 38 40 08 0E
   1.843060 1  55              Rx   d 8 00 00 00 00 00 00 04 59
   1.843286 1  53              Rx   d 8 D4 30 84 C3 8F 38 46 15
   1.844563 1  266             Rx   d 8 00 00 2C 2C 00 00 00 00
   1.844813 1  118             Rx   d 8 12 80 F0 00 00 08 01 80
   1.846808 1  1D5             Rx   d 8 21 00 00 00 00 00 A0 97
   1.847061 1  2E5             Rx   d 8 00 00 00 00 00 00 DD 00
   1.847752 1  221             Rx   d 8 00 55 55 15 54 51 21 A8
   1.847983 1  3A1             Rx   d 8 88 4E 0B C8 00 00 20 D4
   1.848218 1  3C2             Rx   d 8 10 55 55 55 00 00 5D 19
   1.848449 1  441             Rx   d 8 46 65 22 20 DB 0E 08 98
   1.850672 1  1D8             Rx   d 8 00 00 00 00 00 00 40 19
   1.852583 1  377             Rx   d 8 50 30 31 5F 30 37 00 00
   1.852820 1  76              Rx   d 8 06 11 07 11 00 0F 00 BC
   1.853964 1  132             Rx   d 8 10 72 00 00 38 40 08 0E
   1.854210 1  55              Rx   d 8 01 00 00 00 00 00 04 5A
   1.854570 1  266             Rx   d 8 00 00 2C 2C 00 00 00 00
   1.854851 1  118             Rx   d 8 13 81 F0 00 00 08 01 80
   1.855140 1  166             Rx   d 7 A5 00 00 00 00 B6 03
   1.855374 1  1D6             Rx   d 8 00 08 08 00 28 2D 83 10
   1.855552 1  279             Rx   d 5 17 90 0C 00 00
   1.855834 1  395             Rx   d 8 F7 0D FF FF FF FF 00 7D
   1.856076 1  108             Rx   d 8 8E 00 00 04 00 00 80 01
   1.856211 1  2B6             Rx   d 2 88 01
   1.856460 1  397             Rx   d 8 00 00 00 00 3B 00 00 00
   1.856619 1  128             Rx   d 4 8B 00 EC 0A
   1.856812 1  268             Rx   d 5 2C 2C FF 01 FF
   1.857061 1  1D5             Rx   d 8 21 00 00 00 00 00 C0 B7
   1.857313 1  2E5             Rx   d 8 00 00 00 00 00 00 DD 00
   1.857702 1  39D             Rx   d 5 35 63 0A 28 00
   1.860668 1  1D8             Rx   d 8 00 00 00 00 00 00 60 39
   1.863271 1  132             Rx   d 8 10 72 00 00 38 40 08 0E
   1.863509 1  55              Rx   d 8 02 01 00 00 00 00 04 5C
   1.863737 1  53              Rx   d 8 D4 30 84 C7 8F 38 46 15
   1.864573 1  266             Rx   d 8 00 00 2C 2C 00 00 00 00
   1.864839 1  118             Rx   d 8 14 82 F0 00 00 08 01 80
   1.865097 1  3D5             Rx   d 8 FF FF FF FF FF FF FF FF
   1.865345 1  527             Rx   d 8 C0 80 00 00 00 00 00 00
   1.865572 1  315             Rx   d 8 18 38 38 3B 50 38 9E 7D
   1.865824 1  36B             Rx   d 8 00 00 00 00 00 00 00 80
   1.866062 1  315             Rx   d 8 01 38 38 00 38 28 00 00
   1.866320 1  7D5             Rx   d 8 2B 00 00 00 00 00 00 00
   1.866565 1  315             Rx   d 8 02 FF FF FF FF 00 00 00
   1.866808 1  7D5             Rx   d 8 32 60 00 00 00 00 00 00
   1.867057 1  1D5             Rx   d 8 21 00 00 00 00 00 E0 D7
   1.867303 1  2E5             Rx   d 8 00 00 00 00 00 00 DD 00
   1.867551 1  315             Rx   d 8 FB FF FF FF FB FF FB 0F
   1.867787 1  7D7             Rx   d 8 32 2C 00 00 00 00 00 00
   1.868033 1  315             Rx   d 8 04 FF FF FF FF 00 00 00
   1.868277 1  7D5             Rx   d 8 42 FD 00 FD 00 E4 1A 00
   1.868465 1  5D7             Rx   d 5 8C 8C 00 00 00
   1.868704 1  7D5             Rx   d 8 43 FD 00 FD 00 3C 00 00
   1.868872 1  3B6             Rx   d 4 FF FF FF FF
   1.869100 1  7D5             Rx   d 8 44 2A 42 21 54 46 24 46
   1.869339 1  335             Rx   d 8 0A 01 05 33 FC 00 05 00
   1.869582 1  7D5             Rx   d 8 46 28 28 28 28 28 28 28
   1.869832 1  3A7             Rx   d 8 00 00 00 00 00 00 00 00
   1.870066 1  7D5             Rx   d 8 48 28 28 00 00 00 CA 93
   1.870317 1  3B5             Rx   d 8 00 00 00 00 00 00 00 00
   1.870568 1  3C5             Rx   d 8 00 00 00 00 00 00 00 00
   1.870812 1  1D8             Rx   d 8 00 00 00 00 00 00 80 59
   1.871071 1  3E5             Rx   d 8 00 00 00 00 00 00 00 00
   1.871309 1  367             Rx   d 8 00 00 00 00 00 00 00 00
   1.871572 1  368             Rx   d 8 00 00 00 00 00 00 00 00
   1.871823 1  36E             Rx   d 8 00 00 00 00 00 00 00 00
   1.873289 1  132             Rx   d 8 10 72 00 00 38 40 08 0E
   1.873531 1  55              Rx   d 8 03 00 00 00 00 00 04 5C
   1.874548 1  266             Rx   d 8 00 00 2C 2C 00 00 00 00
   1.874826 1  118             Rx   d 8 15 83 F0 00 00 08 01 80
   1.876928 1  1D5             Rx   d 8 21 00 00 00 00 00 00 F7
   1.877181 1  2E5             Rx   d 8 00 00 00 00 00 00 DD 00
   1.880452 1  351             Rx   d 8 AC 0B 0A 00 D2 00 70 08
   1.880694 1  1D8             Rx   d 8 00 00 00 00 00 00 A0 79
   1.880898 1  356             Rx   d 6 6D 0B 00 00 AA 00
   1.881139 1  355             Rx   d 8 53 00 64 00 43 03 06 18
   1.883298 1  132             Rx   d 8 10 72 00 00 38 40 08 0E
   1.883551 1  55              Rx   d 8 00 00 00 00 00 00 05 5A
   1.883768 1  53              Rx   d 8 D4 30 84 C7 8F 38 46 15
   1.884577 1  266             Rx   d 8 00 00 2C 2C 00 00 00 00
   1.884856 1  118             Rx   d 8 16 84 F0 00 00 08 01 80
   1.886877 1  1D5             Rx   d 8 21 00 00 00 00 00 20 17
   1.887125 1  2E5             Rx   d 8 00 00 00 00 00 00 DD 00
   1.890665 1  1D8             Rx   d 8 00 00 00 00 00 00 C0 99
   1.893306 1  132             Rx   d 8 10 72 00 00 38 40 08 0E
   1.893558 1  55              Rx   d 8 01 00 00 00 00 00 05 5B
   1.894546 1  266             Rx   d 8 00 00 2C 2C 00 00 00 00
   1.894818 1  118             Rx   d 8 17 85 F0 00 00 08 01 80
   1.896534 1  56              Rx   d 8 04 00 00 00 00 00 0B 65
   1.896971 1  1D5             Rx   d 8 21 00 00 00 00 00 40 37
   1.897225 1  2E5             Rx   d 8 00 00 00 00 00 00 DD 00
   1.897719 1  39D             Rx   d 5 36 64 0A 28 00
   1.897962 1  221             Rx   d 8 61 05 55 05 00 00 30 13
   1.898190 1  3A1             Rx   d 8 03 00 98 6E BE 00 30 02
   1.898430 1  3C2             Rx   d 8 01 55 15 15 00 00 55 09
   1.898671 1  441             Rx   d 8 00 00 00 00 00 00 0D C7
   1.898912 1  52              Rx   d 8 64 18 13 8B 64 31 20 00
   1.899148 1  339             Rx   d 8 41 44 FE 00 00 03 80 00
   1.899386 1  102             Rx   d 8 22 B3 48 04 00 00 A0 09
   1.899621 1  103             Rx   d 8 22 B3 88 44 00 00 20 32
   1.899871 1  207             Rx   d 8 00 00 00 00 00 28 28 00
   1.900108 1  224             Rx   d 8 04 08 00 40 19 01 10 08
   1.900327 1  241             Rx   d 7 3C 3C 16 0F 8F 55 00
   1.900578 1  247             Rx   d 8 10 0E FF 00 00 00 00 00
   1.900818 1  1D8             Rx   d 8 00 00 00 00 00 00 E0 B9
   1.901065 1  2A8             Rx   d 8 02 00 00 00 00 80 10 3C
   1.901312 1  2E8             Rx   d 8 02 00 00 00 00 80 10 7C
   1.901541 1  2E1             Rx   d 8 39 0D 00 70 0C 00 00 00
   1.901668 1  500             Rx   d 2 01 01
   1.901919 1  7FF             Rx   d 8 02 26 32 26 44 11 96 A2
   1.902144 1  212             Rx   d 8 B9 04 A3 2F 01 38 00 01
   1.902386 1  252             Rx   d 8 00 00 CD 01 00 00 01 00
   1.902630 1  25D             Rx   d 8 34 41 01 2A 08 00 00 00
   1.902861 1  2D2             Rx   d 8 30 2A 34 3A 0A 00 8C 00
   1.903001 1  229             Rx   d 3 44 01 00
   1.903136 1  2D1             Rx   d 2 FF 01
   1.903336 1  333             Rx   d 5 00 30 84 07 02
   1.903574 1  125             Rx   d 8 00 00 72 06 00 00 00 00
   1.903814 1  126             Rx   d 8 00 C0 34 F3 10 00 00 00
   1.904095 1  132             Rx   d 8 10 72 00 00 38 40 08 0E
   1.904336 1  55              Rx   d 8 02 01 00 00 00 00 05 5D
   1.904571 1  53              Rx   d 8 D4 30 84 C7 8F 38 46 15
   1.905335 1  266             Rx   d 8 00 00 2C 2C 00 00 00 00
   1.905587 1  7D7             Rx   d 8 02 F0 32 00 00 00 00 00
   1.905820 1  118             Rx   d 8 68 86 30 00 00 18 01 80
   1.906868 1  1D5             Rx   d 8 21 00 00 00 00 00 60 57
   1.907102 1  2E5             Rx   d 8 00 00 00 00 00 00 DD 00
   1.910766 1  1D8             Rx   d 8 00 00 00 00 00 00 00 D9
   1.913313 1  132             Rx   d 8 10 72 00 00 38 40 08 0E
   1.913552 1  55              Rx   d 8 03 00 00 00 00 00 05 5D
   1.915382 1  266             Rx   d 8 00 00 2C 2C 00 00 00 00
   1.915628 1  7D7             Rx   d 8 02 F0 32 00 00 00 00 00
   1.915872 1  118             Rx   d 8 59 87 30 00 00 08 01 80
   1.916109 1  297             Rx   d 8 72 44 1F 00 02 A0 0F 05
   1.916889 1  1D5             Rx   d 8 21 00 00 00 00 00 80 77
   1.917141 1  2E5             Rx   d 8 00 00 00 00 00 00 DD 00
   1.920782 1  1D8             Rx   d 8 00 00 00 00 00 00 20 F9
   1.923310 1  132             Rx   d 8 10 72 00 00 38 40 08 0E
   1.923563 1  55              Rx   d 8 00 01 00 00 00 00 06 5C
   1.923813 1  53              Rx   d 8 D4 30 84 C7 8F 38 46 15
   1.925999 1  266             Rx   d 8 00 00 2C 2C 00 00 00 00
   1.926244 1  7D7             Rx   d 8 02 F0 32 00 00 00 00 00
   1.926488 1  118             Rx   d 8 DA 88 30 00 00 08 01 00
   1.926913 1  1D5             Rx   d 8 21 00 00 00 00 00 A0 97
   1.927165 1  2E5             Rx   d 8 00 00 00 00 00 00 DD 00
   1.929587 1  554             Rx   d 7 00 21 04 17 23 C0 01
   1.929844 1  344             Rx   d 8 00 00 00 00 00 00 00 47
   1.930084 1  6D4             Rx   d 8 0A 01 05 33 FC 00 09 00
   1.930326 1  3A0             Rx   d 8 00 00 00 80 00 00 00 00
   1.930574 1  384             Rx   d 8 00 00 00 00 00 00 00 00
   1.930825 1  1D8             Rx   d 8 00 00 00 00 00 00 40 19
   1.931077 1  380             Rx   d 8 00 00 00 00 00 00 00 00
   1.933334 1  132             Rx   d 8 10 72 00 00 38 40 08 0E
   1.933586 1  55              Rx   d 8 01 00 00 00 00 00 06 5C
   1.935534 1  266             Rx   d 8 00 00 2C 2C 00 00 00 00
   1.935777 1  118             Rx   d 8 DB 89 30 00 00 08 01 00
   1.936019 1  7D7             Rx   d 8 02 F0 32 00 00 00 00 00
   1.936259 1  297             Rx   d 8 6F 45 1F 00 02 A0 0F 01
   1.936882 1  1D5             Rx   d 8 21 00 00 00 00 00 C0 B7
   1.937134 1  2E5             Rx   d 8 00 00 00 00 00 00 DD 00
   1.937759 1  39D             Rx   d 5 37 65 0A 28 00
   1.940772 1  1D8             Rx   d 8 00 00 00 00 00 00 60 39
   1.943342 1  132             Rx   d 8 10 72 00 00 38 40 08 0E
   1.943587 1  55              Rx   d 8 02 01 00 00 00 00 06 5E
   1.943826 1  53              Rx   d 8 D4 30 84 C7 8F 38 46 15
   1.945993 1  266             Rx   d 8 00 00 2C 2C 00 00 00 00
   1.946253 1  7D7             Rx   d 8 02 F0 32 00 00 00 00 00
   1.946476 1  118             Rx   d 8 DC 8A 30 00 00 08 01 00
   1.946893 1  1D5             Rx   d 8 21 00 00 00 00 00 E0 D7
   1.947142 1  2E5             Rx   d 8 00 00 00 00 00 00 DD 00
   1.947814 1  221             Rx   d 8 60 55 55 15 54 51 41 28
   1.948049 1  3A1             Rx   d 8 88 4E 0B C8 00 00 40 F4
   1.948283 1  3C2             Rx   d 8 10 55 55 55 00 00 5D 19
   1.948509 1  441             Rx   d 8 46 65 22 20 DB 0E 10 A0
   1.948754 1  55A             Rx   d 8 01 00 00 00 30 00 00 00
   1.950754 1  1D8             Rx   d 8 00 00 00 00 00 00 80 59
   1.952584 1  379             Rx   d 8 9C 00 00 00 00 00 00 00
   1.952822 1  76              Rx   d 8 01 0F 02 0F 03 0F 00 B1
   1.953380 1  132             Rx   d 8 10 72 00 00 38 40 08 0E
   1.953626 1  55              Rx   d 8 03 00 00 00 00 00 06 5E
   1.955550 1  266             Rx   d 8 00 00 2C 2C 00 00 00 00
   1.955811 1  118             Rx   d 8 DD 8B 30 00 00 08 01 00
   1.956061 1  7D7             Rx   d 8 02 F0 32 00 00 00 00 00
   1.956293 1  297             Rx   d 8 70 46 1F 00 02 A0 0F 01
   1.956512 1  166             Rx   d 7 24 01 00 00 00 B6 03
   1.956756 1  1D6             Rx   d 8 00 08 08 08 28 2D 64 10
   1.956990 1  1D5             Rx   d 8 21 00 00 00 00 00 00 F7
   1.957174 1  279             Rx   d 5 08 81 0C 00 00
   1.957418 1  2E5             Rx   d 8 00 00 00 00 00 00 DD 00
   1.957657 1  395             Rx   d 8 F1 11 1A 40 FF 03 05 7D
   1.957909 1  108             Rx   d 8 8F 01 00 04 00 00 80 01
   1.958037 1  2B6             Rx   d 2 02 1B
   1.958286 1  397             Rx   d 8 00 00 00 00 3B 00 00 00
   1.958450 1  128             Rx   d 4 8B 00 EC 0A
   1.958636 1  268             Rx   d 5 2C 2C FF 01 FF
   1.960777 1  1D8             Rx   d 8 00 00 00 00 00 00 A0 79
   1.963383 1  132             Rx   d 8 10 72 00 00 38 40 08 0E
   1.963628 1  55              Rx   d 8 00 01 00 00 00 00 07 5D
   1.963854 1  53              Rx   d 8 D4 30 84 C7 8F 38 46 15
   1.966052 1  266             Rx   d 8 00 00 2C 2C 00 00 00 00
   1.966300 1  7D7             Rx   d 8 02 F0 32 00 00 00 00 00
   1.966535 1  276             Rx   d 8 00 2E 00 5F 01 A5 0B 89
   1.966778 1  7D5             Rx   d 8 20 FE 00 00 00 00 03 00
   1.967033 1  118             Rx   d 8 7E 2C 30 00 00 08 01 00
   1.967268 1  1D5             Rx   d 8 21 00 00 00 00 00 20 17
   1.967519 1  2E5             Rx   d 8 00 00 00 00 00 00 DD 00
   1.967770 1  7D5             Rx   d 8 21 FF 00 00 00 00 E0 15
   1.968008 1  7D5             Rx   d 8 22 61 00 00 00 00 00 00
   1.968252 1  7D5             Rx   d 8 23 FA 00 00 00 00 10 27
   1.968508 1  7D5             Rx   d 8 24 FA 00 00 00 00 00 00
   1.968756 1  7D5             Rx   d 8 25 AA 00 00 00 00 F0 46
   1.969003 1  7D5             Rx   d 8 26 00 25 21 00 00 00 00
   1.969251 1  7D5             Rx   d 8 27 00 00 00 FA FA 00 00
   1.969497 1  7D5             Rx   d 8 28 00 00 00 00 00 FA 00
   1.969742 1  7D5             Rx   d 8 29 00 00 00 6C 10 00 00
   1.969996 1  7D5             Rx   d 8 2A 00 00 FA 43 00 00 00
   1.970235 1  7D5             Rx   d 8 2B 00 00 00 00 00 00 00
   1.970486 1  7D5             Rx   d 8 2E CD FF 1C 05 00 00 00
   1.970733 1  7D5             Rx   d 8 2F 00 00 00 00 00 46 00
   1.970977 1  1D8             Rx   d 8 00 00 00 00 00 00 C0 99
   1.971217 1  7D5             Rx   d 8 30 6E 6E 35 66 00 00 00
   1.971477 1  7D5             Rx   d 8 31 00 00 00 00 00 00 00
   1.971712 1  7D5             Rx   d 8 32 60 00 00 00 00 00 00
   1.971970 1  7D5             Rx   d 8 34 00 00 00 00 00 00 00
   1.972225 1  7D5             Rx   d 8 3F 00 00 00 00 00 00 00
   1.972471 1  7D7             Rx   d 8 20 01 00 FA FA FA FA 01
   1.972705 1  7D7             Rx   d 8 21 FF 0F 00 FA FA 00 00
   1.972955 1  7D7             Rx   d 8 22 90 65 00 00 00 00 00
   1.973212 1  7D7             Rx   d 8 23 00 00 00 00 00 00 00
   1.973448 1  132             Rx   d 8 10 72 00 00 38 40 08 0E
   1.973690 1  55              Rx   d 8 01 00 00 00 00 00 07 5D
   1.973945 1  7D7             Rx   d 8 24 00 00 00 00 00 00 00
   1.974193 1  7D7             Rx   d 8 25 00 00 00 00 00 00 00
   1.974448 1  7D7             Rx   d 8 26 00 00 00 00 00 00 00
   1.974697 1  7D7             Rx   d 8 27 00 40 00 00 00 00 00
   1.974946 1  7D7             Rx   d 8 2D 00 00 00 00 0D 00 00
   1.975196 1  7D7             Rx   d 8 32 2C 00 00 00 00 00 00
   1.975436 1  7D7             Rx   d 8 35 90 65 00 00 00 00 00
   1.975865 1  266             Rx   d 8 00 00 2C 2C 00 00 00 00
   1.976108 1  7D7             Rx   d 8 02 F0 32 00 00 00 00 00
   1.976343 1  276             Rx   d 8 00 2E 00 5F 01 A5 0B 89
   1.976593 1  118             Rx   d 8 7F 2D 30 00 00 08 01 00
   1.976828 1  297             Rx   d 8 71 47 1F 00 02 A0 0F 01
   1.979258 1  1D5             Rx   d 8 21 00 00 00 00 00 40 37
   1.979507 1  2E5             Rx   d 8 00 00 00 00 00 00 DD 00
   1.979682 1  39D             Rx   d 5 38 66 0A 28 00
   1.980771 1  1D8             Rx   d 8 00 00 00 00 00 00 E0 B9
   1.983343 1  132             Rx   d 8 10 72 00 00 38 40 08 0E
   1.983588 1  55              Rx   d 8 02 01 00 00 00 00 07 5F
   1.983830 1  53              Rx   d 8 D4 30 84 C7 8F 38 46 15
   1.984449 1  351             Rx   d 8 AC 0B 0A 00 D2 00 70 08
   1.984647 1  356             Rx   d 6 6D 0B 00 00 AA 00
   1.984885 1  355             Rx   d 8 53 00 64 00 43 03 06 18
   1.986058 1  266             Rx   d 8 00 00 2C 2C 00 00 00 00
   1.986298 1  7D7             Rx   d 8 02 F0 32 00 00 00 00 00
   1.986532 1  276             Rx   d 8 00 2E 00 5F 01 A5 0B 89
   1.986780 1  118             Rx   d 8 80 2E 30 00 00 08 01 00
   1.988906 1  1D5             Rx   d 8 21 00 00 00 00 00 60 57
   1.989151 1  2E5             Rx   d 8 00 00 00 00 00 00 DD 00
   1.990754 1  1D8             Rx   d 8 00 00 00 00 00 00 00 D9
   1.993364 1  132             Rx   d 8 10 72 00 00 38 40 08 0E
   1.993611 1  55              Rx   d 8 03 00 00 00 00 00 07 5F
   1.995552 1  266             Rx   d 8 00 00 2C 2C 00 00 00 00
   1.995805 1  56              Rx   d 8 04 00 00 00 00 00 0C 66
   1.996035 1  276             Rx   d 8 00 2E 00 5F 01 A5 0B 89
   1.996281 1  7D7             Rx   d 8 02 F0 32 00 00 00 00 00
   1.996516 1  118             Rx   d 8 81 2F 30 00 00 08 01 00
   1.996755 1  297             Rx   d 8 72 48 1F 00 02 A0 0F 01
   1.997843 1  221             Rx   d 8 61 05 55 05 00 00 50 33
   1.998087 1  3A1             Rx   d 8 03 00 98 6E BE 00 50 22
   1.998311 1  3C2             Rx   d 8 01 55 15 15 00 00 55 09
   1.998552 1  441             Rx   d 8 00 00 00 00 00 00 15 CF
   1.998796 1  52              Rx   d 8 64 18 13 8B 64 31 20 00
   1.999030 1  339             Rx   d 8 41 44 FE 00 00 03 80 00
   1.999265 1  102             Rx   d 8 22 B3 48 04 00 00 A0 09
   1.999510 1  103             Rx   d 8 22 B3 88 44 00 00 20 32
   1.999751 1  207             Rx   d 8 00 00 00 00 00 28 28 00
   2.000000 1  224             Rx   d 8 04 08 00 40 19 01 10 08
   2.000207 1  241             Rx   d 7 3C 3C 16 0F 8F 55 00
   2.000456 1  247             Rx   d 8 10 0E FF 00 00 00 00 00
   2.000701 1  2A8             Rx   d 8 04 00 00 00 00 80 20 4E
   2.000957 1  1D8             Rx   d 8 00 00 00 00 00 00 20 F9
   2.001187 1  2E8             Rx   d 8 04 00 00 00 00 80 20 8E
   2.001433 1  2E1             Rx   d 8 02 00 00 00 FF 00 02 00
   2.001566 1  500             Rx   d 2 01 01
   2.001803 1  7FF             Rx   d 8 03 30 08 68 E1 41 00 82
   2.002037 1  212             Rx   d 8 B9 04 A3 2F 01 38 00 01
   2.002276 1  252             Rx   d 8 00 00 CD 01 00 00 01 00
   2.002518 1  25D             Rx   d 8 34 41 01 2A 08 00 00 00
   2.002751 1  2D2             Rx   d 8 30 2A 34 3A 0A 00 8C 00
   2.002910 1  229             Rx   d 3 52 02 00
   2.003034 1  2D1             Rx   d 2 FF 01
   2.003220 1  333             Rx   d 5 00 30 84 07 02
   2.003460 1  125             Rx   d 8 00 00 68 0B 00 00 00 00
   2.003702 1  126             Rx   d 8 00 C2 34 F3 10 00 00 00
   2.003928 1  3D9             Rx   d 8 E3 35 BC EA 13 48 63 F2
   2.004163 1  132             Rx   d 8 10 72 00 00 38 40 08 0E
   2.004408 1  55              Rx   d 8 00 01 00 00 00 00 08 5E
   2.004645 1  1D5             Rx   d 8 21 00 00 00 00 00 80 77
   2.004902 1  2E5             Rx   d 8 00 00 00 00 00 00 DD 00
   2.005126 1  53              Rx   d 8 D4 30 84 C7 8F 38 46 15
   2.006148 1  266             Rx   d 8 00 00 2C 2C 00 00 00 00
   2.006389 1  7D7             Rx   d 8 02 F0 32 00 00 00 00 00
   2.006621 1  118             Rx   d 8 92 40 30 00 00 08 01 00
   2.008468 1  6B0             Rx   d 8 00 A7 00 48 72 43 00 5C
   2.008715 1  6B4             Rx   d 8 01 63 00 01 00 15 00 00
   2.008960 1  6B3             Rx   d 8 00 12 00 00 00 0F 00 00
   2.009192 1  6B2             Rx   d 8 00 46 00 80 9E 61 00 C5
   2.009428 1  6B1             Rx   d 8 00 15 00 00 9E C2 00 2E
   2.010750 1  1D8             Rx   d 8 00 00 00 00 00 00 40 19
   2.013355 1  132             Rx   d 8 10 72 00 00 38 40 08 0E
   2.013599 1  55              Rx   d 8 01 00 00 00 00 00 08 5E
   2.013921 1  1D5             Rx   d 8 21 00 00 00 00 00 A0 97
   2.014166 1  2E5             Rx   d 8 00 00 00 00 00 00 DD 00
   2.015840 1  266             Rx   d 8 00 00 2C 2C 00 00 00 00
   2.016091 1  7D7             Rx   d 8 02 F0 32 00 00 00 00 00
   2.016337 1  118             Rx   d 8 93 41 30 00 00 08 01 00
   2.016562 1  297             Rx   d 8 73 49 1F 00 02 A0 0F 01
   2.018791 1  39D             Rx   d 5 39 67 0A 28 00
   2.020766 1  1D8             Rx   d 8 00 00 00 00 00 00 60 39
   2.023357 1  132             Rx   d 8 10 72 00 00 38 40 08 0E
   2.023605 1  55              Rx   d 8 02 01 00 00 00 00 08 60
   2.023919 1  1D5             Rx   d 8 21 00 00 00 00 00 C0 B7
   2.024171 1  2E5             Rx   d 8 00 00 00 00 00 00 DD 00
   2.024370 1  35B             Rx   d 4 6A 09 05 00
   2.024544 1  35A             Rx   d 4 00 00 00 00
   2.024892 1  53              Rx   d 8 D4 30 84 C7 8F 38 46 15
   2.026088 1  266             Rx   d 8 00 00 2C 2C 00 00 00 00
   2.026348 1  7D7             Rx   d 8 02 F0 32 00 00 00 00 00
   2.026575 1  118             Rx   d 8 B4 62 30 00 00 08 01 00
   2.030746 1  1D8             Rx   d 8 00 00 00 00 00 00 80 59
   2.033385 1  132             Rx   d 8 10 72 00 00 38 40 08 0E
   2.033630 1  55              Rx   d 8 03 00 00 00 00 00 08 60
   2.033913 1  1D5             Rx   d 8 21 00 00 00 00 00 E0 D7
   2.034173 1  2E5             Rx   d 8 00 00 00 00 00 00 DD 00
   2.035839 1  266             Rx   d 8 00 00 2C 2C 00 00 00 00
   2.036087 1  7D7             Rx   d 8 02 F0 32 00 00 00 00 00
   2.036327 1  118             Rx   d 8 B5 63 30 00 00 08 01 00
   2.036561 1  297             Rx   d 8 74 4A 1F 00 02 A0 0F 01
   2.040766 1  1D8             Rx   d 8 00 00 00 00 00 00 A0 79
   2.041476 1  36              Rx   d 8 04 9E B1 10 12 9E B8 09
   2.043397 1  132             Rx   d 8 10 72 00 00 38 40 08 0E
   2.043649 1  55              Rx   d 8 00 01 00 00 00 00 09 5F
   2.043945 1  1D5             Rx   d 8 21 00 00 00 00 00 00 F7
   2.044183 1  2E5             Rx   d 8 00 00 00 00 00 00 DD 00
   2.044878 1  53              Rx   d 8 D4 30 84 C7 8F 38 46 15
   2.046079 1  266             Rx   d 8 00 00 2C 2C 00 00 00 00
   2.046324 1  7D7             Rx   d 8 02 F0 32 00 00 00 00 00
   2.046564 1  118             Rx   d 8 B6 64 30 00 00 08 01 00
   2.047888 1  221             Rx   d 8 60 55 55 15 54 51 61 48
   2.048129 1  3A1             Rx   d 8 88 4E 0B C8 00 00 60 14
   2.048356 1  3C2             Rx   d 8 10 55 55 55 00 00 5D 19
   2.048590 1  441             Rx   d 8 46 65 22 20 DB 0E 18 A8
   2.050746 1  1D8             Rx   d 8 00 00 00 00 00 00 C0 99
   2.052571 1  380             Rx   d 8 4C 35 41 41 36 34 30 33
   2.052810 1  76              Rx   d 8 04 0F 05 0F 06 11 00 BC
   2.053444 1  132             Rx   d 8 10 72 00 00 38 40 08 0E
   2.053692 1  55              Rx   d 8 01 00 00 00 00 00 09 5F
   2.053943 1  1D5             Rx   d 8 21 00 00 00 00 00 20 17
   2.054181 1  2E5             Rx   d 8 00 00 00 00 00 00 DD 00
   2.055845 1  266             Rx   d 8 00 00 2C 2C 00 00 00 00
   2.056097 1  7D7             Rx   d 8 02 F0 32 00 00 00 00 00
   2.056337 1  118             Rx   d 8 B7 65 30 00 00 08 01 00
   2.056561 1  166             Rx   d 7 25 09 00 00 00 B6 03
   2.056795 1  297             Rx   d 8 75 4B 1F 00 02 A0 0F 01
   2.057034 1  1D6             Rx   d 8 00 08 08 00 28 2D 73 10
   2.057226 1  279             Rx   d 5 09 82 0C 00 00
   2.057469 1  395             Rx   d 8 F1 11 1A 40 FF 03 05 7D
   2.057715 1  108             Rx   d 8 90 02 00 04 00 00 80 01
   2.057842 1  2B6             Rx   d 2 02 1B
   2.058096 1  397             Rx   d 8 00 00 00 00 3B 00 00 00
   2.058254 1  128             Rx   d 4 83 00 38 02
   2.058449 1  268             Rx   d 5 2C 2C FF 01 FF
   2.058842 1  39D             Rx   d 5 3A 68 0A 28 00
   2.060771 1  1D8             Rx   d 8 00 00 00 00 00 00 E0 B9
   2.063401 1  132             Rx   d 8 10 72 00 00 38 40 08 0E
   2.063646 1  55              Rx   d 8 02 01 00 00 00 00 09 61
   2.063952 1  1D5             Rx   d 8 21 00 00 00 00 00 40 37
   2.064198 1  2E5             Rx   d 8 00 00 00 00 00 00 DD 00
   2.064884 1  53              Rx   d 8 D4 30 84 C7 8F 38 46 15
   2.066078 1  266             Rx   d 8 00 00 2C 2C 00 00 00 00
   2.066323 1  7D7             Rx   d 8 02 F0 32 00 00 00 00 00
   2.066569 1  118             Rx   d 8 B8 66 30 00 00 08 01 00
   2.066820 1  7D5             Rx   d 8 20 FD 00 00 00 00 00 00
   2.067051 1  7D5             Rx   d 8 21 FD 00 00 00 00 E0 15
   2.067302 1  7D5             Rx   d 8 22 61 00 00 00 00 00 00
   2.067550 1  7D5             Rx   d 8 23 FA 00 00 00 00 10 27
   2.067800 1  7D5             Rx   d 8 24 FA 00 00 00 00 00 00
   2.068035 1  7D5             Rx   d 8 25 AB 00 00 00 00 B9 1E
   2.068277 1  7D5             Rx   d 8 26 00 25 21 00 00 00 00
   2.068525 1  7D5             Rx   d 8 27 25 00 00 FA FA 00 00
   2.068793 1  7D5             Rx   d 8 28 00 00 00 00 00 FA 00
   2.069025 1  7D5             Rx   d 8 29 00 00 00 72 10 00 00
   2.069276 1  7D5             Rx   d 8 2A 00 00 FA 43 00 00 00
   2.069524 1  7D5             Rx   d 8 2B 00 00 00 00 00 00 00
   2.069761 1  7D5             Rx   d 8 2E CD FF 1C 05 00 00 00
   2.070012 1  7D5             Rx   d 8 2F 00 00 00 00 00 46 00
   2.070247 1  7D5             Rx   d 8 30 6E 6E 35 66 00 00 00
   2.070493 1  7D5             Rx   d 8 31 00 00 00 00 00 00 00
   2.070743 1  7D5             Rx   d 8 32 60 00 00 00 00 00 00
   2.070995 1  1D8             Rx   d 8 00 00 00 00 00 00 00 D9
   2.071246 1  7D5             Rx   d 8 34 00 00 00 00 00 00 00
   2.071495 1  7D5             Rx   d 8 3F 00 00 00 00 00 00 00
   2.071750 1  7D7             Rx   d 8 20 01 00 FA FA FA FA 01
   2.071985 1  7D7             Rx   d 8 21 FF 0F 00 FA FA 00 00
   2.072227 1  7D7             Rx   d 8 22 90 65 00 00 00 00 00
   2.072483 1  7D7             Rx   d 8 23 00 00 00 00 00 00 00
   2.072734 1  7D7             Rx   d 8 24 00 00 00 00 00 00 00
   2.072981 1  7D7             Rx   d 8 25 00 00 00 00 00 00 00
   2.073234 1  7D7             Rx   d 8 26 00 00 00 00 00 00 00
   2.073471 1  132             Rx   d 8 10 72 00 00 38 40 08 0E
   2.073714 1  55              Rx   d 8 03 00 00 00 00 00 09 61
   2.073963 1  1D5             Rx   d 8 21 00 00 00 00 00 60 57
   2.074215 1  2E5             Rx   d 8 00 00 00 00 00 00 DD 00
   2.074455 1  7D7             Rx   d 8 27 00 40 00 00 00 00 00
   2.074702 1  7D7             Rx   d 8 2D 00 00 00 00 04 00 00
   2.074960 1  7D7             Rx   d 8 32 2C 00 00 00 00 00 00
   2.075207 1  7D7             Rx   d 8 35 90 65 00 00 00 00 00
   2.075888 1  266             Rx   d 8 00 00 2C 2C 00 00 00 00
   2.076134 1  7D7             Rx   d 8 02 F0 32 00 00 00 00 00
   2.076377 1  118             Rx   d 8 B9 67 30 00 00 08 01 00
   2.076607 1  297             Rx   d 8 76 4C 1F 00 02 A0 0F 01
   2.080771 1  1D8             Rx   d 8 00 00 00 00 00 00 20 F9
   2.083401 1  132             Rx   d 8 10 72 00 00 38 40 08 0E
   2.083652 1  55              Rx   d 8 00 01 00 00 00 00 0A 60
   2.083991 1  1D5             Rx   d 8 21 00 00 00 00 00 80 77
   2.084248 1  2E5             Rx   d 8 00 00 00 00 00 00 DD 00
   2.084896 1  53              Rx   d 8 D4 30 84 C7 8F 38 46 15
   2.086075 1  266             Rx   d 8 00 00 2C 2C 00 00 00 00
   2.086324 1  7D7             Rx   d 8 02 F0 32 00 00 00 00 00
   2.086568 1  118             Rx   d 8 BA 68 30 00 00 08 01 00
   2.088520 1  351             Rx   d 8 AC 0B 0A 00 D2 00 70 08
   2.088724 1  356             Rx   d 6 6D 0B 00 00 B4 00
   2.088958 1  355             Rx   d 8 53 00 64 00 43 03 06 18
   2.090747 1  1D8             Rx   d 8 00 00 00 00 00 00 40 19
   2.093413 1  132             Rx   d 8 10 72 00 00 38 40 08 0E
   2.093663 1  55              Rx   d 8 01 00 00 00 00 00 0A 60
   2.093943 1  1D5             Rx   d 8 21 00 00 00 00 00 A0 97
   2.094188 1  2E5             Rx   d 8 00 00 00 00 00 00 DD 00
   2.094706 1  56              Rx   d 8 04 00 00 00 00 00 0D 67
   2.095841 1  266             Rx   d 8 00 00 2C 2C 00 00 00 00
   2.096090 1  7D7             Rx   d 8 02 F0 32 00 00 00 00 00
   2.096323 1  118             Rx   d 8 BB 69 30 00 00 08 01 00
   2.096569 1  297             Rx   d 8 77 4D 1F 00 02 A0 0F 01
   2.097906 1  221             Rx   d 8 61 05 55 05 00 00 70 53
   2.098143 1  3A1             Rx   d 8 03 00 98 6E BE 00 70 42
   2.098369 1  3C2             Rx   d 8 01 55 15 15 00 00 55 09
   2.098629 1  441             Rx   d 8 00 00 00 00 00 00 1D D7
   2.098851 1  52              Rx   d 8 64 18 13 8B 64 31 20 00
   2.099105 1  339             Rx   d 8 41 44 FE 00 00 03 80 00
   2.099340 1  102             Rx   d 8 22 B3 48 04 00 00 A0 09
   2.099578 1  103             Rx   d 8 22 B3 88 44 00 00 20 32
   2.099817 1  207             Rx   d 8 00 00 00 00 00 28 28 00
   2.100055 1  224             Rx   d 8 04 08 00 40 19 01 10 08
   2.100273 1  241             Rx   d 7 3C 3C 16 0F 8F 55 00
   2.100522 1  247             Rx   d 8 10 0E FF 00 00 00 00 00
   2.100765 1  2A8             Rx   d 8 04 00 00 00 00 80 30 5E
   2.101007 1  1D8             Rx   d 8 00 00 00 00 00 00 60 39
   2.101257 1  2E8             Rx   d 8 04 00 00 00 00 80 30 9E
   2.101477 1  2E1             Rx   d 8 03 6D 99 02 19 4F 00 00
   2.101618 1  500             Rx   d 2 01 01
   2.101873 1  7FF             Rx   d 8 04 77 00 00 00 00 00 00
   2.102112 1  212             Rx   d 8 B9 04 A3 2F 01 38 00 01
   2.102332 1  252             Rx   d 8 00 00 CD 01 00 00 01 00
   2.102583 1  25D             Rx   d 8 34 41 01 2A 08 00 00 00
   2.102827 1  2D2             Rx   d 8 30 2A 34 3A 0A 00 8C 00
   2.102932 1  229             Rx   d 3 6D 03 00
   2.103086 1  2D1             Rx   d 2 FF 01
   2.103291 1  333             Rx   d 5 00 30 84 07 02
   2.103525 1  125             Rx   d 8 0A 00 72 0B 00 00 00 00
   2.103765 1  126             Rx   d 8 00 C2 34 F3 10 00 00 00
   2.103986 1  3D9             Rx   d 8 E3 35 BC EA 13 48 63 F2
   2.104230 1  132             Rx   d 8 10 72 00 00 38 40 08 0E
   2.104463 1  55              Rx   d 8 02 01 00 00 00 00 0A 62
   2.104716 1  1D5             Rx   d 8 21 00 00 00 00 00 C0 B7
   2.104963 1  2E5             Rx   d 8 00 00 00 00 00 00 DD 00
   2.105182 1  53              Rx   d 8 D4 30 84 C7 8F 38 46 15
   2.106148 1  266             Rx   d 8 00 00 2C 2C 00 00 00 00
   2.106310 1  39D             Rx   d 5 3B 69 0A 28 00
   2.106553 1  118             Rx   d 8 BC 6A 30 00 00 08 01 00
   2.106796 1  7D7             Rx   d 8 02 F0 32 00 00 00 00 00
   2.110750 1  1D8             Rx   d 8 00 00 00 00 00 00 80 59
   2.113425 1  132             Rx   d 8 10 72 00 00 38 40 08 0E
   2.113681 1  55              Rx   d 8 03 00 00 00 00 00 0A 62
   2.113961 1  1D5             Rx   d 8 21 00 00 00 00 00 E0 D7
   2.114201 1  2E5             Rx   d 8 00 00 00 00 00 00 DD 00
   2.115828 1  266             Rx   d 8 00 00 2C 2C 00 00 00 00
   2.116080 1  7D7             Rx   d 8 02 F0 32 00 00 00 00 00
   2.116314 1  118             Rx   d 8 BD 6B 30 00 00 08 01 00
   2.116565 1  297             Rx   d 8 78 4E 1F 00 02 A0 0F 01
   2.120759 1  1D8             Rx   d 8 00 00 00 00 00 00 A0 79
   2.123427 1  132             Rx   d 8 10 72 00 00 38 40 08 0E
   2.123681 1  55              Rx   d 8 00 01 00 00 00 00 0B 61
   2.123997 1  1D5             Rx   d 8 21 00 00 00 00 00 00 F7
   2.124236 1  2E5             Rx   d 8 00 00 00 00 00 00 DD 00
   2.124924 1  53              Rx   d 8 D4 30 84 C7 8F 38 46 15
   2.126070 1  266             Rx   d 8 00 00 2C 2C 00 00 00 00
   2.126324 1  7D7             Rx   d 8 02 F0 32 00 00 00 00 00
   2.126566 1  118             Rx   d 8 BE 6C 30 00 00 08 01 00
   2.130737 1  1D8             Rx   d 8 00 00 00 00 00 00 C0 99
   2.133452 1  132             Rx   d 8 10 72 00 00 38 40 08 0E
   2.133700 1  55              Rx   d 8 01 00 00 00 00 00 0B 61
   2.133991 1  1D5             Rx   d 8 21 00 00 00 00 00 20 17
   2.134237 1  2E5             Rx   d 8 00 00 00 00 00 00 DD 00
   2.135849 1  266             Rx   d 8 00 00 2C 2C 00 00 00 00
   2.136097 1  7D7             Rx   d 8 02 F0 32 00 00 00 00 00
   2.136348 1  118             Rx   d 8 BF 6D 30 00 00 08 01 00
   2.136573 1  297             Rx   d 8 79 4F 1F 00 02 A0 0F 01
   2.140756 1  1D8             Rx   d 8 00 00 00 00 00 00 E0 B9
   2.143450 1  132             Rx   d 8 10 72 00 00 38 40 08 0E
   2.143715 1  55              Rx   d 8 02 01 00 00 00 00 0B 63
   2.143995 1  1D5             Rx   d 8 21 00 00 00 00 00 40 37
   2.144253 1  2E5             Rx   d 8 00 00 00 00 00 00 DD 00
   2.144912 1  53              Rx   d 8 D4 30 84 C7 8F 38 46 15
   2.145876 1  39D             Rx   d 5 3C 6A 0A 28 00
   2.146121 1  266             Rx   d 8 00 00 2C 2C 00 00 00 00
   2.146370 1  7D7             Rx   d 8 02 F0 32 00 00 00 00 00
   2.146621 1  118             Rx   d 8 C0 6E 30 00 00 08 01 00
   2.147934 1  221             Rx   d 8 60 55 55 15 54 51 81 68
   2.148177 1  3A1             Rx   d 8 88 4E 0B C8 00 00 80 34
   2.148403 1  3C2             Rx   d 8 10 55 55 55 00 00 5D 19
   2.148641 1  441             Rx   d 8 46 65 22 20 DB 0E 20 B0
   2.150747 1  1D8             Rx   d 8 00 00 00 00 00 00 00 D9
   2.152593 1  381             Rx   d 8 FF FF FF 00 00 00 00 00
   2.152826 1  76              Rx   d 8 07 12 00 0F 01 0F 00 B6
   2.153469 1  132             Rx   d 8 10 72 00 00 38 40 08 0E
   2.153714 1  55              Rx   d 8 03 00 00 00 00 00 0B 63
   2.154014 1  1D5             Rx   d 8 21 00 00 00 00 00 60 57
   2.154259 1  2E5             Rx   d 8 00 00 00 00 00 00 DD 00
   2.155846 1  266             Rx   d 8 00 00 2C 2C 00 00 00 00
   2.156093 1  7D7             Rx   d 8 02 F0 32 00 00 00 00 00
   2.156344 1  118             Rx   d 8 C1 6F 30 00 00 08 01 00
   2.156555 1  166             Rx   d 7 25 09 00 00 00 B6 03
   2.156797 1  297             Rx   d 8 6A 40 1F 00 02 A0 0F 01
   2.157030 1  1D6             Rx   d 8 00 08 08 00 28 2D 85 10
   2.157223 1  279             Rx   d 5 0A 83 0C 00 00
   2.157466 1  395             Rx   d 8 F1 11 1A 40 FF 03 05 7D
   2.157702 1  108             Rx   d 8 91 03 00 04 00 00 80 01
   2.157803 1  2B6             Rx   d 2 02 1B
   2.158081 1  397             Rx   d 8 00 00 00 00 3B 00 00 00
   2.158253 1  128             Rx   d 4 83 00 38 02
   2.158425 1  268             Rx   d 5 2C 2C FF 01 FF
   2.160758 1  1D8             Rx   d 8 00 00 00 00 00 00 20 F9
   2.163466 1  132             Rx   d 8 10 72 00 00 38 40 08 0E
   2.163721 1  55              Rx   d 8 00 01 00 00 00 00 0C 62
   2.163997 1  1D5             Rx   d 8 21 00 00 00 00 00 80 77
   2.164248 1  2E5             Rx   d 8 00 00 00 00 00 00 DD 00
   2.164949 1  53              Rx   d 8 D4 30 84 C7 8F 38 46 15
   2.166094 1  266             Rx   d 8 00 00 2C 2C 00 00 00 00
   2.166367 1  7D7             Rx   d 8 02 F0 32 00 00 00 00 00
   2.166584 1  118             Rx   d 8 B2 60 30 00 00 08 01 00
   2.166831 1  7D5             Rx   d 8 20 FA 00 00 00 00 00 00
   2.167079 1  7D5             Rx   d 8 21 FF 00 00 00 00 E0 15
   2.167324 1  7D5             Rx   d 8 22 61 00 00 00 00 00 00
   2.167570 1  7D5             Rx   d 8 23 FA 00 00 00 00 10 27
   2.167820 1  7D5             Rx   d 8 24 FA 00 00 00 00 00 00
   2.168064 1  7D5             Rx   d 8 25 AB 00 00 00 00 A3 51
   2.168310 1  7D5             Rx   d 8 26 00 25 21 00 00 00 00
   2.168548 1  7D5             Rx   d 8 27 5E 00 00 FA FA 00 00
   2.168800 1  7D5             Rx   d 8 28 00 00 00 00 00 FA 00
   2.169043 1  7D5             Rx   d 8 29 00 00 00 54 10 00 00
   2.169284 1  7D5             Rx   d 8 2A 00 00 FA 43 00 00 00
   2.169534 1  7D5             Rx   d 8 2B 00 00 00 00 00 00 00
   2.169778 1  7D5             Rx   d 8 2E CD FF 1C 05 00 00 00
   2.170024 1  7D5             Rx   d 8 2F 00 00 00 00 00 46 00
   2.170263 1  7D5             Rx   d 8 30 6E 6E 35 66 00 00 00
   2.170527 1  7D5             Rx   d 8 31 00 00 00 00 00 00 00
   2.170768 1  1D8             Rx   d 8 00 00 00 00 00 00 40 19
   2.171012 1  7D5             Rx   d 8 32 60 00 00 00 00 00 00
   2.171265 1  7D5             Rx   d 8 34 00 00 00 00 00 00 00
   2.171523 1  7D5             Rx   d 8 3F 00 00 00 00 00 00 00
   2.171781 1  7D7             Rx   d 8 20 01 00 FA FA FA FA 01
   2.172013 1  7D7             Rx   d 8 21 FF 0F 00 FA FA 00 00
   2.172261 1  7D7             Rx   d 8 22 90 65 00 00 00 00 00
   2.172521 1  7D7             Rx   d 8 23 00 00 00 00 00 00 00
   2.172776 1  7D7             Rx   d 8 24 00 00 00 00 00 00 00
