(1763824854.721518) can0 1FFFFFF0#0119000708000043
(1763824854.723634) can0 1FFFFFF0#010000050C000063
(1763824854.752185) can0 5F4#00091E5B00000001
(1763824854.798849) can0 375#5030315F30323100
(1763824854.830892) can0 6B1#00000000100C00D5
(1763824854.831118) can0 356#6E0B0000A000
(1763824854.831380) can0 355#5F006400B6030618
(1763824854.831623) can0 351#AC0B000000000009
(1763824854.837016) can0 1D8#00000000000000D9
(1763824854.847042) can0 1D8#00000000000020F9
(1763824854.850919) can0 266#00002C2C00000000
(1763824854.851159) can0 118#1280F00000080180
(1763824854.857038) can0 1D8#0000000000004019
(1763824854.857276) can0 5A6#3880030000000300
(1763824854.857534) can0 386#0000000000008000
(1763824854.860909) can0 266#00002C2C00000000
(1763824854.861218) can0 118#1381F00000080180
(1763824854.861433) can0 166#0000000000B603
(1763824854.861672) can0 1D6#00080800282DA610
(1763824854.861854) can0 279#07800C0000
(1763824854.862101) can0 395#F70DFFFFFFFF007D
(1763824854.862362) can0 108#8E00000400008001
(1763824854.862459) can0 2B6#8A01
(1763824854.862732) can0 397#000000003B000000
(1763824854.862890) can0 128#8F00EC0A
(1763824854.863128) can0 268#2C2CFF01FF
(1763824854.867041) can0 1D8#0000000000006039
(1763824854.870911) can0 266#00002C2C00000000
(1763824854.871155) can0 118#1482F00000080180
(1763824854.871400) can0 3D5#FFFFFFFFFFFFFFFF
(1763824854.871659) can0 527#C080000000000000
(1763824854.871885) can0 315#1836363B5036987D
(1763824854.872117) can0 5A5#4380000003000000
(1763824854.872363) can0 315#0136360036280000
(1763824854.872616) can0 3B5#0400000000000000
(1763824854.872871) can0 315#02FFFFFFFF000000
(1763824854.873109) can0 36B#0000000000000080
(1763824854.873348) can0 315#FBFFFFFFFBFFFB0F
(1763824854.873598) can0 7D5#2B00000000000000
(1763824854.873846) can0 315#04FFFFFFFF000000
(1763824854.874091) can0 7D5#3260000000000000
(1763824854.874277) can0 5D7#8C8C000000
(1763824854.874529) can0 7D7#322C000000000000
(1763824854.874684) can0 3B6#FFFFFFFF
(1763824854.874930) can0 7D5#42FD00FD00E62200
(1763824854.875180) can0 335#0A010533FC000500
(1763824854.875417) can0 7D5#43FD00FD003C0000
(1763824854.875672) can0 3A7#0000000000000000
(1763824854.875889) can0 7D5#442A421D56372444
(1763824854.876136) can0 3C5#0000000000000000
(1763824854.876377) can0 7D5#4628282828282828
(1763824854.876622) can0 3E5#0000000000000000
(1763824854.876863) can0 7D5#4828280000004A00
(1763824854.877117) can0 1D8#0000000000008059
(1763824854.877363) can0 367#0000000000000000
(1763824854.877620) can0 368#0000000000000000
(1763824854.877866) can0 36E#0000000000000000
(1763824854.880914) can0 266#00002C2C00000000
(1763824854.881220) can0 118#1583F00000080180
(1763824854.887039) can0 1D8#000000000000A079
(1763824854.890911) can0 266#00002C2C00000000
(1763824854.891157) can0 118#1684F00000080180
(1763824854.897036) can0 1D8#000000000000C099
(1763824854.898643) can0 376#5030315F30310000
(1763824854.900900) can0 266#00002C2C00000000
(1763824854.901203) can0 118#1785F00000080180
(1763824854.907031) can0 1D8#000000000000E0B9
(1763824854.910911) can0 266#00002C2C00000000
(1763824854.911194) can0 118#1886F00000080180
(1763824854.917034) can0 1D8#00000000000000D9
(1763824854.920897) can0 266#00002C2C00000000
(1763824854.921194) can0 118#1987F00000080180
(1763824854.927034) can0 1D8#00000000000020F9
(1763824854.930902) can0 266#00002C2C00000000
(1763824854.931195) can0 118#1A88F00000080180
(1763824854.934814) can0 6B1#0068000A100C0047
(1763824854.935054) can0 356#6E0B0000A000
(1763824854.935295) can0 355#5F006400B6030618
(1763824854.935531) can0 351#AC0B640010040009
(1763824854.935961) can0 554#0021041723C001
(1763824854.936205) can0 344#0000000000000047
(1763824854.936445) can0 6D4#0A010533FC000900
(1763824854.936695) can0 3A0#0000000000000000
(1763824854.936941) can0 384#0000000000000000
(1763824854.937181) can0 1D8#0000000000004019
(1763824854.937453) can0 380#0000000000000000
(1763824854.940896) can0 266#00002C2C00000000
(1763824854.941145) can0 118#1B89F00000080180
(1763824854.947027) can0 1D8#0000000000006039
(1763824854.947266) can0 5A4#4280010000000000
(1763824854.947512) can0 5A4#1580020000000000
(1763824854.947770) can0 3A0#0000000000000000
(1763824854.950901) can0 266#00002C2C00000000
(1763824854.951187) can0 118#1C8AF00000080180
(1763824854.951427) can0 5A5#5C80040000000000
(1763824854.951874) can0 5A5#5A80080000000000
(1763824854.952128) can0 3B5#0400000A00000000
(1763824854.957022) can0 1D8#0000000000008059
(1763824854.960896) can0 266#00002C2C00000000
(1763824854.961192) can0 118#1D8BF00000080180
(1763824854.961415) can0 166#0000000000B603
(1763824854.961648) can0 1D6#40080808282D5B10
(1763824854.961834) can0 279#48C10C0000
(1763824854.962077) can0 395#F0110040FF00007D
(1763824854.962326) can0 108#8F01000400008001
(1763824854.962419) can0 2B6#8A01
(1763824854.962699) can0 397#000000003B000000
(1763824854.962856) can0 128#8708EC0A
(1763824854.963125) can0 268#2C2CFF01FF
(1763824854.967023) can0 1D8#000000000000A079
(1763824854.970891) can0 266#00002C2C00000000
(1763824854.971133) can0 118#1E8CF00000080180
(1763824854.971392) can0 7D5#2B00000000000000
(1763824854.971635) can0 7D5#3260000000000000
(1763824854.971880) can0 7D7#322C000000000000
(1763824854.977023) can0 1D8#000000000000C099
(1763824854.980900) can0 266#00002C2C00000000
(1763824854.981195) can0 118#1F8DF00000080180
(1763824854.987020) can0 1D8#000000000000E0B9
(1763824854.990892) can0 266#00002C2C00000000
(1763824854.991140) can0 118#208EF00000080180
(1763824854.997017) can0 1D8#00000000000000D9
(1763824854.998941) can0 377#5030315F30370000
(1763824855.000895) can0 266#00002C2C00000000
(1763824855.001186) can0 118#218FF00000080180
(1763824855.007020) can0 1D8#00000000000020F9
(1763824855.010889) can0 266#00002C2C00000000
(1763824855.011144) can0 118#1280F00000080180
(1763824855.017011) can0 1D8#0000000000004019
(1763824855.020893) can0 266#00002C2C00000000
(1763824855.021192) can0 118#1381F00000080180
(1763824855.027015) can0 1D8#0000000000006039
(1763824855.030886) can0 266#00002C2C00000000
(1763824855.031141) can0 118#1482F00000080180
(1763824855.037011) can0 1D8#0000000000008059
(1763824855.038804) can0 6B1#0068000A100C0047
(1763824855.039019) can0 356#6D0B0200A000
(1763824855.039249) can0 355#5F006400B6030618
(1763824855.039487) can0 351#AC0B640010040009
(1763824855.040906) can0 266#00002C2C00000000
(1763824855.041188) can0 118#1583F00000080180
(1763824855.047017) can0 1D8#000000000000A079
(1763824855.050893) can0 266#00002C2C00000000
(1763824855.051134) can0 118#1684F00000080180
(1763824855.057014) can0 1D8#000000000000C099
(1763824855.057274) can0 5A6#0A80480140000000
(1763824855.057518) can0 386#0002000000008000
(1763824855.060890) can0 266#00002C2C00000000
(1763824855.061190) can0 118#1785F00000080180
(1763824855.061408) can0 166#6B08000000B603
(1763824855.061630) can0 1D6#40080800282D6610
(1763824855.061823) can0 279#09820C0000
(1763824855.062060) can0 395#F0110040FF00007D
(1763824855.062313) can0 108#9002000400008001
(1763824855.062434) can0 2B6#8A01
(1763824855.062692) can0 397#000000003B000000
(1763824855.062855) can0 128#8F483802
(1763824855.063111) can0 268#2C2CFF01FF
(1763824855.067020) can0 1D8#000000000000E0B9
(1763824855.070888) can0 266#00002C2C00000000
(1763824855.071129) can0 118#1886F00000080180
(1763824855.071380) can0 7D5#2B00000000000000
(1763824855.071634) can0 7D5#3260000000000000
(1763824855.071882) can0 7D7#322C000000000000
(1763824855.077018) can0 1D8#00000000000000D9
(1763824855.080884) can0 266#00002C2C00000000
(1763824855.081124) can0 118#1987F00000080180
(1763824855.087017) can0 1D8#00000000000020F9
(1763824855.090889) can0 266#00002C2C00000000
(1763824855.091122) can0 118#1A88F00000080180
(1763824855.097013) can0 1D8#0000000000004019
(1763824855.098645) can0 379#9C00000000000000
(1763824855.100895) can0 266#00002C2C00000000
(1763824855.101181) can0 118#1B89F00000080180
(1763824855.107019) can0 1D8#0000000000006039
(1763824855.110898) can0 266#00002C2C00000000
(1763824855.111138) can0 118#1C8AF00000080180
(1763824855.117010) can0 1D8#0000000000008059
(1763824855.120893) can0 266#00002C2C00000000
(1763824855.121176) can0 118#1D8BF00000080180
(1763824855.127007) can0 1D8#000000000000A079
(1763824855.130886) can0 266#00002C2C00000000
(1763824855.131130) can0 118#1E8CF00000080180
(1763824855.137013) can0 1D8#000000000000C099
(1763824855.140892) can0 266#00002C2C00000000
(1763824855.141183) can0 118#1F8DF00000080180
(1763824855.142882) can0 6B1#0068000A100C0047
(1763824855.143084) can0 356#6D0B0000A000
(1763824855.143330) can0 355#5F006400B6030618
(1763824855.143557) can0 351#AC0B640010040009
(1763824855.147010) can0 1D8#000000000000E0B9
(1763824855.150890) can0 266#00002C2C00000000
(1763824855.151141) can0 118#208EF00000080180
(1763824855.157009) can0 1D8#00000000000000D9
(1763824855.160885) can0 266#00002C2C00000000
(1763824855.161179) can0 118#218FF00000080180
(1763824855.161395) can0 166#2209000000B603
(1763824855.161625) can0 1D6#40080800282D7810
(1763824855.161834) can0 279#0A830C0000
(1763824855.162069) can0 395#F0110040FF00007D
(1763824855.162324) can0 108#9103000400008001
(1763824855.162423) can0 2B6#8A01
(1763824855.162688) can0 397#000000003B000000
(1763824855.162857) can0 128#8B483802
(1763824855.163095) can0 268#2C2CFF01FF
(1763824855.167010) can0 1D8#00000000000020F9
(1763824855.170889) can0 266#00002C2C00000000
(1763824855.171130) can0 118#1280F00000080180
(1763824855.171383) can0 7D5#2B00000000000000
(1763824855.171633) can0 7D5#3260000000000000
(1763824855.171888) can0 7D7#322C000000000000
(1763824855.177008) can0 1D8#0000000000004019
(1763824855.180887) can0 266#00002C2C00000000
(1763824855.181172) can0 118#1381F00000080180
(1763824855.187004) can0 1D8#0000000000006039
(1763824855.190886) can0 266#00002C2C00000000
(1763824855.191135) can0 118#1482F00000080180
(1763824855.197002) can0 1D8#0000000000008059
(1763824855.198875) can0 380#4C35414136343033
(1763824855.200877) can0 266#00002C2C00000000
(1763824855.201131) can0 118#1583F00000080180
(1763824855.207000) can0 1D8#000000000000A079
(1763824855.210886) can0 266#00002C2C00000000
(1763824855.211131) can0 118#1684F00000080180
(1763824855.217000) can0 1D8#000000000000C099
(1763824855.220881) can0 266#00002C2C00000000
(1763824855.221164) can0 118#1785F00000080180
(1763824855.226997) can0 1D8#000000000000E0B9
(1763824855.230881) can0 266#00002C2C00000000
(1763824855.231058) can0 35A#00000000
(1763824855.231299) can0 118#1886F00000080180
(1763824855.231461) can0 35B#72100500
(1763824855.237003) can0 1D8#00000000000000D9
(1763824855.240882) can0 266#00002C2C00000000
(1763824855.241177) can0 118#1987F00000080180
(1763824855.246879) can0 6B1#0068000A100C0047
(1763824855.247131) can0 1D8#00000000000020F9
(1763824855.247324) can0 356#6E0B0000A000
(1763824855.247580) can0 355#5F006400B6030618
(1763824855.247807) can0 351#AC0B640010040009
(1763824855.250888) can0 266#00002C2C00000000
(1763824855.251137) can0 118#1A88F00000080180
(1763824855.256994) can0 1D8#0000000000004019
(1763824855.260882) can0 266#00002C2C00000000
(1763824855.261149) can0 118#1B89F00000080180
(1763824855.261377) can0 166#2509000000B603
(1763824855.261626) can0 1D6#40080800282D5F10
(1763824855.261815) can0 279#0B840C0000
(1763824855.262059) can0 395#F0110040FF00007D
(1763824855.262297) can0 108#1404000200000005
(1763824855.262397) can0 2B6#8A01
(1763824855.262676) can0 397#000000003B000000
(1763824855.262843) can0 128#8B483802
(1763824855.263099) can0 268#2C2CFF01FF
(1763824855.266998) can0 1D8#0000000000006039
(1763824855.270896) can0 266#00002C2C00000000
(1763824855.271156) can0 118#1C8AF00000080180
(1763824855.271407) can0 7D5#2B00000000000000
(1763824855.271668) can0 7D5#3260000000000000
(1763824855.271909) can0 7D7#322C000000000000
(1763824855.276993) can0 1D8#0000000000008059
(1763824855.280891) can0 266#00002C2C00000000
(1763824855.281157) can0 118#1D8BF00000080180
(1763824855.286989) can0 1D8#000000000000A079
(1763824855.290897) can0 266#00002C2C00000000
(1763824855.291155) can0 118#1E8CF00000080180
(1763824855.296990) can0 1D8#000000000000C099
(1763824855.298644) can0 381#FFFFFF0000000000
(1763824855.300888) can0 266#00002C2C00000000
(1763824855.301165) can0 118#1F8DF00000080180
(1763824855.306989) can0 1D8#000000000000E0B9
(1763824855.310890) can0 266#00002C2C00000000
(1763824855.311178) can0 118#208EF00000080180
(1763824855.316988) can0 1D8#00000000000000D9
(1763824855.320885) can0 266#00002C2C00000000
(1763824855.321148) can0 118#218FF00000080180
(1763824855.326989) can0 1D8#00000000000020F9
(1763824855.330895) can0 266#00002C2C00000000
(1763824855.331150) can0 118#1280F00000080180
(1763824855.336984) can0 1D8#0000000000004019
(1763824855.340890) can0 266#00002C2C00000000
(1763824855.341164) can0 118#1381F00000080180
(1763824855.346983) can0 1D8#0000000000006039
(1763824855.350876) can0 6B1#0068000A100C0047
(1763824855.351122) can0 266#00002C2C00000000
(1763824855.351375) can0 118#1482F00000080180
(1763824855.351573) can0 356#6E0B0000A000
(1763824855.351808) can0 355#5F006400B6030618
(1763824855.352046) can0 351#AC0B640010040009
(1763824855.356984) can0 1D8#0000000000008059
(1763824855.360896) can0 266#00002C2C00000000
(1763824855.361154) can0 118#1583F00000080180
(1763824855.361435) can0 166#2509000000B603
(1763824855.361665) can0 1D6#40080800282D6D10
(1763824855.361848) can0 279#0C850C0000
(1763824855.362160) can0 395#F011003FFF00007D
(1763824855.362399) can0 108#1505000200000005
(1763824855.362533) can0 2B6#8A01
(1763824855.362786) can0 397#000000003B000000
(1763824855.362940) can0 128#8B483802
(1763824855.363119) can0 268#2C2CFF01FF
(1763824855.366985) can0 1D8#000000000000A079
(1763824855.370899) can0 266#00002C2C00000000
(1763824855.371152) can0 118#1684F00000080180
(1763824855.371395) can0 7D5#2B00000000000000
(1763824855.371648) can0 7D5#3260000000000000
(1763824855.371896) can0 7D7#322C000000000000
(1763824855.376980) can0 1D8#000000000000C099
(1763824855.380885) can0 266#00002C2C00000000
(1763824855.381152) can0 118#1785F00000080180
(1763824855.386975) can0 1D8#000000000000E0B9
(1763824855.387234) can0 5A6#3580010000000000
(1763824855.387467) can0 386#0002000000009000
(1763824855.391132) can0 266#00002C2C00000000
(1763824855.391386) can0 118#1886F00000080180
(1763824855.391632) can0 5A5#9B80040000000000
(1763824855.391866) can0 3C5#0000000400000000
(1763824855.396973) can0 1D8#00000000000000D9
(1763824855.398881) can0 374#5030315F30373000
(1763824855.400878) can0 266#00002C2C00000000
(1763824855.401135) can0 118#1987F00000080180
(1763824855.406971) can0 1D8#00000000000020F9
(1763824855.411123) can0 266#00002C2C00000000
(1763824855.411378) can0 118#1A88F00000080180
(1763824855.416968) can0 1D8#0000000000004019
(1763824855.420885) can0 266#00002C2C00000000
(1763824855.421147) can0 118#1B89F00000080180
(1763824855.426973) can0 1D8#0000000000006039
(1763824855.430887) can0 266#00002C2C00000000
(1763824855.431140) can0 118#1C8AF00000080180
(1763824855.436964) can0 1D8#0000000000008059
(1763824855.440881) can0 266#00002C2C00000000
(1763824855.441140) can0 118#1D8BF00000080180
(1763824855.446966) can0 1D8#800000000000A0F9
(1763824855.447223) can0 5A4#1680040000000000
(1763824855.447469) can0 3A0#0000000000000000
(1763824855.451121) can0 266#00002C2C00000000
(1763824855.451363) can0 118#1E8CF00000080180
(1763824855.454804) can0 6B1#0068000A100C0047
(1763824855.455010) can0 356#6E0B0000A000
(1763824855.455261) can0 355#5F006400B6030618
(1763824855.455488) can0 351#AC0B640010040009
(1763824855.456966) can0 1D8#800000000000C019
(1763824855.460871) can0 266#00002C2C00000000
(1763824855.461144) can0 118#1F8DF00000080180
(1763824855.461413) can0 166#2509000000B603
(1763824855.461658) can0 1D6#40080800282D6810
(1763824855.461840) can0 279#0D860C0000
(1763824855.462145) can0 395#0111003F0000007D
(1763824855.462389) can0 108#1606000200000005
(1763824855.462518) can0 2B6#8A01
(1763824855.462762) can0 397#000000003B000000
(1763824855.462929) can0 128#8B483802
(1763824855.463113) can0 268#2C2CFF01FF
(1763824855.466968) can0 1D8#800000000000E039
(1763824855.471121) can0 266#00002C2C00000000
(1763824855.471375) can0 7D5#2B00000000000000
(1763824855.471616) can0 118#208EF00000080180
(1763824855.471862) can0 7D5#3260000000000000
(1763824855.472117) can0 7D7#322C000000000000
(1763824855.476964) can0 1D8#8000000000000059
(1763824855.480881) can0 266#00002C2C00000000
(1763824855.481142) can0 118#218FF00000080180
(1763824855.486033) can0 078#1000000000000000
(1763824855.486801) can0 078#1000000000000000
(1763824855.487054) can0 1D8#8000000000002079
(1763824855.487783) can0 078#1000000000000000
(1763824855.488788) can0 078#1000000000000000
(1763824855.491151) can0 266#00002C2C00000000
(1763824855.491403) can0 118#1280F00000080180
(1763824855.496972) can0 1D8#8000000000004099
(1763824855.498641) can0 375#5030315F30323100
(1763824855.500868) can0 266#00002C2C00000000
(1763824855.501149) can0 118#1381F00000080180
(1763824855.506952) can0 1D8#80000000000060B9
(1763824855.511117) can0 266#00002C2C00000000
(1763824855.511363) can0 118#1482F00000080180
(1763824855.516953) can0 1D8#80000000000080D9
(1763824855.520867) can0 266#00002C2C00000000
(1763824855.521153) can0 118#1583F00000080180
(1763824855.526956) can0 1D8#800000000000A0F9
(1763824855.531112) can0 266#00002C2C00000000
(1763824855.531354) can0 118#1684F00000080180
(1763824855.536950) can0 1D8#800000000000C019
(1763824855.539342) can0 079#0B00000000000000
(1763824855.540865) can0 266#00002C2C00000000
(1763824855.541145) can0 118#1785F00000080180
(1763824855.546950) can0 1D8#800000000000E039
(1763824855.549191) can0 079#0B00000000000000
(1763824855.551113) can0 266#00002C2C00000000
(1763824855.551354) can0 118#1886F00000080180
(1763824855.556951) can0 1D8#8000000000000059
(1763824855.558802) can0 6B1#0068000A100C0047
(1763824855.559056) can0 079#0B00000000000000
(1763824855.559264) can0 356#6E0B0000A000
(1763824855.559501) can0 355#5F006400B6030618
(1763824855.559748) can0 351#AC0B640010040009
(1763824855.560884) can0 266#00002C2C00000000
(1763824855.561149) can0 118#1987F00000080180
(1763824855.561453) can0 166#2509000000B603
(1763824855.561697) can0 1D6#40080800282D6910
(1763824855.561859) can0 279#0E870C0000
(1763824855.562143) can0 395#0111003F0000007D
(1763824855.562391) can0 108#1707000200000005
(1763824855.562491) can0 2B6#8801
(1763824855.562761) can0 397#000000003B000000
(1763824855.562917) can0 128#8B483802
(1763824855.563112) can0 268#2C2CFF01FF
(1763824855.566960) can0 1D8#8000000000002079
(1763824855.568857) can0 079#0B00000000000000
(1763824855.570880) can0 266#00002C2C00000000
(1763824855.571127) can0 118#1A88F00000080180
(1763824855.571376) can0 7D5#2B00000000000000
(1763824855.571622) can0 7D5#3260000000000000
(1763824855.571867) can0 7D7#322C000000000000
(1763824855.576953) can0 1D8#8000000000004099
(1763824855.578878) can0 079#0B00000000000000
(1763824855.580876) can0 266#00002C2C00000000
(1763824855.581152) can0 118#1B89F00000080180
(1763824855.586946) can0 1D8#80000000000060B9
(1763824855.588714) can0 079#0B00000000000000
(1763824855.591107) can0 266#00002C2C00000000
(1763824855.591351) can0 118#1C8AF00000080180
(1763824855.595338) can0 080#FD472F80D81E2E54
(1763824855.596947) can0 1D8#80000000000080D9
(1763824855.598747) can0 079#0B00000000000000
(1763824855.598996) can0 376#5030315F30310000
(1763824855.600858) can0 266#00002C2C00000000
(1763824855.601137) can0 118#1D8BF00000080180
(1763824855.606948) can0 1D8#800000000000A0F9
(1763824855.610875) can0 266#00002C2C00000000
(1763824855.611113) can0 118#1E8CF00000080180
(1763824855.616102) can0 081#143E4EFD0AEA83A6
(1763824855.616944) can0 1D8#800000000000C019
(1763824855.620854) can0 266#00002C2C00000000
(1763824855.621146) can0 118#1F8DF00000080180
(1763824855.626946) can0 1D8#800000000000E039
(1763824855.627203) can0 056#040000000000015B
(1763824855.631103) can0 266#00002C2C00000000
(1763824855.631343) can0 118#208EF00000080180
(1763824855.636943) can0 1D8#8000000000000059
(1763824855.640849) can0 266#00002C2C00000000
(1763824855.641138) can0 118#218FF00000080180
(1763824855.646062) can0 080#AE84741B4BE15D88
(1763824855.646941) can0 1D8#8000000000002079
(1763824855.650868) can0 266#00002C2C00000000
(1763824855.651114) can0 118#1280F00000080180
(1763824855.656484) can0 081#281ACE2384FD1C25
(1763824855.656934) can0 1D8#8000000000004099
(1763824855.660850) can0 266#00002C2C00000000
(1763824855.661145) can0 118#1381F00000080180
(1763824855.661438) can0 166#2509000000B603
(1763824855.661676) can0 1D6#40080800282D5C10
(1763824855.661858) can0 279#0F880C0000
(1763824855.662132) can0 395#0111003F0000007D
(1763824855.662379) can0 108#1808000200000005
(1763824855.662504) can0 2B6#8801
(1763824855.662761) can0 397#000000003B000000
(1763824855.662913) can0 128#8B483802
(1763824855.663132) can0 356#6E0B0000A000
(1763824855.663311) can0 268#2C2CFF01FF
(1763824855.663555) can0 355#5F006400B6030618
(1763824855.663795) can0 351#AC0B640010040009
(1763824855.664022) can0 6B1#0068000A100C0047
(1763824855.666945) can0 1D8#80000000000060B9
(1763824855.670873) can0 266#00002C2C00000000
(1763824855.671114) can0 118#1482F00000080180
(1763824855.671370) can0 7D5#2B00000000000000
(1763824855.671614) can0 7D5#3260000000000000
(1763824855.671867) can0 7D7#322C000000000000
(1763824855.676943) can0 1D8#80000000000080D9
(1763824855.680849) can0 266#00002C2C00000000
(1763824855.681128) can0 118#1583F00000080180
(1763824855.686938) can0 1D8#800000000000A0F9
(1763824855.690865) can0 266#00002C2C00000000
(1763824855.691111) can0 118#1684F00000080180
(1763824855.696803) can0 080#E7B7D23F1A1F865F
(1763824855.697052) can0 1D8#800000000000C019
(1763824855.698641) can0 377#5030315F30370000
(1763824855.700845) can0 266#00002C2C00000000
(1763824855.701144) can0 118#1785F00000080180
(1763824855.706933) can0 1D8#800000000000E039
(1763824855.710862) can0 266#00002C2C00000000
(1763824855.711117) can0 118#1886F00000080180
(1763824855.716589) can0 081#8DA3E17E8D3ABC2E
(1763824855.716935) can0 1D8#8000000000000059
(1763824855.720840) can0 266#00002C2C00000000
(1763824855.721130) can0 118#1987F00000080180
(1763824855.726288) can0 056#040000000000025C
(1763824855.726937) can0 1D8#8000000000002079
(1763824855.730856) can0 266#00002C2C00000000
(1763824855.731122) can0 118#1A88F00000080180
(1763824855.734807) can0 35B#72100500
(1763824855.734968) can0 35A#00000000
(1763824855.736931) can0 1D8#8000000000004099
(1763824855.740841) can0 266#00002C2C00000000
(1763824855.741115) can0 118#1B89F00000080180
(1763824855.746229) can0 080#E90CF3E08E195822
(1763824855.746927) can0 1D8#80000000000060B9
(1763824855.750856) can0 266#00002C2C00000000
(1763824855.751121) can0 118#1C8AF00000080180
(1763824855.756450) can0 081#01C6DE1B3DD883E4
(1763824855.756932) can0 1D8#80000000000080D9
(1763824855.760835) can0 266#00002C2C00000000
(1763824855.761118) can0 118#1D8BF00000080180
(1763824855.761416) can0 166#2509000000B603
(1763824855.761659) can0 1D6#40080800282D5F10
(1763824855.761849) can0 279#10890C0000
(1763824855.762119) can0 395#0111003F0100007D
(1763824855.762368) can0 108#1909000200000005
(1763824855.762471) can0 2B6#8801
(1763824855.762748) can0 397#000000003B000000
(1763824855.762912) can0 128#8B483802
(1763824855.763105) can0 268#2C2CFF01FF
(1763824855.766810) can0 6B1#0068000A100C0047
(1763824855.767063) can0 1D8#800000000000A0F9
(1763824855.767254) can0 356#6E0B0000A000
(1763824855.767497) can0 355#5F006400B6030618
(1763824855.767726) can0 351#AC0B640010040009
(1763824855.770860) can0 266#00002C2C00000000
(1763824855.771099) can0 118#1E8CF00000080180
(1763824855.771357) can0 7D5#2B00000000000000
(1763824855.771611) can0 7D5#3260000000000000
(1763824855.771858) can0 7D7#322C000000000000
(1763824855.776931) can0 1D8#800000000000C019
(1763824855.780834) can0 266#00002C2C00000000
(1763824855.781124) can0 118#1F8DF00000080180
(1763824855.786924) can0 1D8#800000000000E039
(1763824855.790850) can0 266#00002C2C00000000
(1763824855.791115) can0 118#208EF00000080180
(1763824855.796930) can0 1D8#8000000000000059
(1763824855.797168) can0 080#223F52055D5882F9
(1763824855.798892) can0 379#9C00000000000000
(1763824855.800829) can0 266#00002C2C00000000
(1763824855.801119) can0 118#218FF00000080180
(1763824855.806928) can0 1D8#8000000000002079
(1763824855.810848) can0 266#00002C2C00000000
(1763824855.811118) can0 118#1280F00000080180
(1763824855.816478) can0 081#D0F57D1B95BC317A
(1763824855.816920) can0 1D8#8000000000004099
(1763824855.820826) can0 266#00002C2C00000000
(1763824855.821111) can0 118#1381F00000080180
(1763824855.825377) can0 056#040000000000035D
(1763824855.826921) can0 1D8#80000000000060B9
(1763824855.830844) can0 266#00002C2C00000000
(1763824855.831102) can0 118#1482F00000080180
(1763824855.836923) can0 1D8#80000000000080D9
(1763824855.840825) can0 266#00002C2C00000000
(1763824855.841114) can0 118#1583F00000080180
(1763824855.846384) can0 080#249372A6D15254BC
(1763824855.846925) can0 1D8#800000000000A0F9
(1763824855.850842) can0 266#00002C2C00000000
(1763824855.851103) can0 118#1684F00000080180
(1763824855.856295) can0 081#A2BB6F4F7FEA7CD6
(1763824855.856916) can0 1D8#800000000000C019
(1763824855.860822) can0 266#00002C2C00000000
(1763824855.861108) can0 118#1785F00000080180
(1763824855.861402) can0 166#2509000000B603
(1763824855.861640) can0 1D6#40080800282D7710
(1763824855.861826) can0 279#118A0C0000
(1763824855.862101) can0 395#01111F3F0900077D
(1763824855.862351) can0 108#180A000200FFFF05
(1763824855.862468) can0 2B6#8801
(1763824855.862735) can0 397#000000003B000000
(1763824855.862887) can0 128#8B483802
(1763824855.863082) can0 268#2C2CFF01FF
(1763824855.866922) can0 1D8#800000000000E039
(1763824855.870843) can0 266#00002C2C00000000
(1763824855.871053) can0 356#6E0B0000A000
(1763824855.871286) can0 118#1886F00000080180
(1763824855.871524) can0 355#5F006400B6030618
(1763824855.871758) can0 351#AC0B640010040009
(1763824855.871992) can0 3D5#3A3A3A38382B0343
(1763824855.872231) can0 6B1#0068000A100C0047
(1763824855.872467) can0 315#1836363B5036997D
(1763824855.872713) can0 7D5#2B00000000000000
(1763824855.872949) can0 315#0136360036280000
(1763824855.873196) can0 7D5#3260000000000000
(1763824855.873452) can0 315#02FFFFFFFF000000
(1763824855.873697) can0 7D7#322C000000000000
(1763824855.873952) can0 315#FBFFFFFFFBFFFB0F
(1763824855.874177) can0 7D5#420000E400E42200
(1763824855.874418) can0 315#04FFFFFFFF000000
(1763824855.874652) can0 7D5#43BDC1B46B3C0000
(1763824855.874840) can0 5D7#506E000000
(1763824855.875073) can0 7D5#442D452856372444
(1763824855.875230) can0 3B6#FFFFFFFF
(1763824855.875476) can0 7D5#4628282828282828
(1763824855.875716) can0 335#0B001E5B00000000
(1763824855.875949) can0 7D5#4828280000008A93
(1763824855.876202) can0 3A7#0000000000000000
(1763824855.876466) can0 3E5#0000000000000000
(1763824855.876696) can0 367#0000000000000000
(1763824855.876944) can0 1D8#8000000000000059
(1763824855.877201) can0 368#0000000000000000
(1763824855.877438) can0 36B#0000000000000080
(1763824855.877704) can0 36E#0000000000000000
(1763824855.880830) can0 266#00002C2C00000000
(1763824855.881100) can0 118#1987F00000080180
(1763824855.886923) can0 1D8#8000000000002079
(1763824855.890838) can0 266#00002C2C00000000
(1763824855.891086) can0 118#1A88F00000080180
(1763824855.896916) can0 1D8#8000000000004099
(1763824855.897145) can0 080#5DC6D1CAA0917D94
(1763824855.898636) can0 380#4C35414136343033
(1763824855.900813) can0 266#00002C2C00000000
(1763824855.901108) can0 118#1B89F00000080180
(1763824855.906913) can0 1D8#80000000000060B9
(1763824855.910833) can0 266#00002C2C00000000
(1763824855.911092) can0 118#1C8AF00000080180
(1763824855.916778) can0 081#2097E13801963133
(1763824855.917025) can0 1D8#80000000000080D9
(1763824855.920813) can0 266#00002C2C00000000
(1763824855.921087) can0 118#1D8BF00000080180
(1763824855.924464) can0 056#040000000000045E
(1763824855.926914) can0 1D8#800000000000A0F9
(1763824855.930830) can0 266#00002C2C00000000
(1763824855.931101) can0 118#1E8CF00000080180
(1763824855.935863) can0 554#0021041723C001
(1763824855.936108) can0 344#0000000000002067
(1763824855.936352) can0 6D4#0B001E5B00000000
(1763824855.936611) can0 384#0000300000000004
(1763824855.936848) can0 380#0200000063000000
(1763824855.937095) can0 1D8#800000000000C019
(1763824855.937337) can0 5A6#1180010000000000
(1763824855.937585) can0 5A4#3B80010000000000
(1763824855.937829) can0 386#0002010000009000
(1763824855.938083) can0 3A0#0000000000000000
(1763824855.940805) can0 266#00002C2C00000000
(1763824855.941094) can0 118#1F8DF00000080180
(1763824855.941323) can0 527#6980010000000000
(1763824855.941570) can0 5A5#6E80010000000000
(1763824855.941810) can0 5A5#EA80010000000000
(1763824855.942102) can0 527#E780010000000000
(1763824855.942355) can0 3B5#0400000800200000
(1763824855.942593) can0 3E5#0000000000020000
(1763824855.942847) can0 368#0000000000010000
(1763824855.943096) can0 36E#0000000040000000
(1763824855.946913) can0 1D8#800000000000E039
(1763824855.947837) can0 080#5F1AF26B148B4F57
(1763824855.950809) can0 266#00002C2C00000000
(1763824855.951091) can0 118#208EF00000080180
(1763824855.956910) can0 1D8#8000000000000059
(1763824855.960798) can0 266#00002C2C00000000
(1763824855.961075) can0 118#218FF00000080180
(1763824855.961388) can0 166#2509000000B603
(1763824855.961613) can0 1D6#40080800282D7510
(1763824855.961820) can0 279#128B0C0000
(1763824855.962086) can0 395#01111E3F1400077D
(1763824855.962321) can0 108#1B0B000200000005
(1763824855.962441) can0 2B6#8801
(1763824855.962704) can0 397#000000003B000000
(1763824855.962861) can0 128#8B483802
(1763824855.963052) can0 268#2C2CFF01FF
(1763824855.966914) can0 1D8#8000000000002079
(1763824855.967278) can0 081#300853BE039F9BC1
(1763824855.970804) can0 266#00002C2C00000000
(1763824855.971088) can0 118#1280F00000080180
(1763824855.971334) can0 7D5#2B00000000000000
(1763824855.971578) can0 7D5#3260000000000000
(1763824855.971821) can0 7D7#322C000000000000
(1763824855.974806) can0 6B1#0068000A100C0047
(1763824855.975007) can0 356#6E0B0000A000
(1763824855.975249) can0 355#5F006400B6030618
(1763824855.975490) can0 351#AC0B640010040009
(1763824855.976906) can0 1D8#8000000000004099
(1763824855.980801) can0 266#00002C2C00000000
(1763824855.981088) can0 118#1381F00000080180
(1763824855.986906) can0 1D8#80000000000060B9
(1763824855.990806) can0 266#00002C2C00000000
(1763824855.991093) can0 118#1482F00000080180
(1763824855.996902) can0 1D8#80000000000080D9
(1763824855.997305) can0 080#D0D61EE3F70C3923
(1763824855.998890) can0 381#FFFFFF0000000000
(1763824856.000791) can0 266#00002C2C00000000
(1763824856.001078) can0 118#1583F00000080180
(1763824856.006877) can0 081#5906B5C59B3081E7
(1763824856.007131) can0 1D8#800000000000A0F9
(1763824856.010800) can0 266#00002C2C00000000
(1763824856.011078) can0 118#1684F00000080180
(1763824856.016899) can0 1D8#800000000000C019
(1763824856.020793) can0 266#00002C2C00000000
(1763824856.021068) can0 118#1785F00000080180
(1763824856.023552) can0 056#040000000000055F
(1763824856.026898) can0 1D8#800000000000E039
(1763824856.030795) can0 266#00002C2C00000000
(1763824856.031072) can0 118#1886F00000080180
(1763824856.036899) can0 1D8#8000000000000059
(1763824856.040788) can0 266#00002C2C00000000
(1763824856.041068) can0 118#1987F00000080180
(1763824856.046901) can0 1D8#8000000000002079
(1763824856.047993) can0 080#6218A3DD43828BFC
(1763824856.050792) can0 266#00002C2C00000000
(1763824856.051068) can0 118#1A88F00000080180
(1763824856.056894) can0 1D8#8000000000004099
(1763824856.060786) can0 266#00002C2C00000000
(1763824856.061068) can0 118#1B89F00000080180
(1763824856.061384) can0 166#2509000000B603
(1763824856.061621) can0 1D6#40080800282D5610
(1763824856.061796) can0 279#138C0C0000
(1763824856.062083) can0 395#01111C3F1800067D
(1763824856.062351) can0 108#1C0C000200000005
(1763824856.062447) can0 2B6#8801
(1763824856.062720) can0 397#000000003B000000
(1763824856.062877) can0 128#8B483802
(1763824856.063083) can0 268#2C2CFF01FF
(1763824856.066897) can0 1D8#80000000000060B9
(1763824856.067827) can0 081#179FDF2AADB0D9B7
(1763824856.070792) can0 266#00002C2C00000000
(1763824856.071074) can0 118#1C8AF00000080180
(1763824856.071326) can0 7D5#2B00000000000000
(1763824856.071564) can0 7D5#3260000000000000
(1763824856.071815) can0 7D7#322C000000000000
(1763824856.076894) can0 1D8#80000000000080D9
(1763824856.078878) can0 6B1#0068000A100C0047
(1763824856.079077) can0 356#6E0B0000A000
(1763824856.079333) can0 355#5F006400B6030618
(1763824856.079564) can0 351#AC0B640010040009
(1763824856.080789) can0 266#00002C2C00000000
(1763824856.081066) can0 118#1D8BF00000080180
(1763824856.086896) can0 1D8#800000000000A0F9
(1763824856.090784) can0 266#00002C2C00000000
(1763824856.091071) can0 118#1E8CF00000080180
(1763824856.096891) can0 1D8#800000000000C019
(1763824856.097428) can0 080#0B5D9DA83A4535BE
(1763824856.098641) can0 374#5030315F30373000
(1763824856.100779) can0 266#00002C2C00000000
(1763824856.101070) can0 118#1F8DF00000080180
(1763824856.106888) can0 1D8#800000000000E039
(1763824856.107117) can0 081#E9A796159491488F
(1763824856.110785) can0 266#00002C2C00000000
(1763824856.111072) can0 118#208EF00000080180
(1763824856.116889) can0 1D8#8000000000000059
(1763824856.120781) can0 266#00002C2C00000000
(1763824856.121053) can0 118#218FF00000080180
(1763824856.122638) can0 056#0400000000000660
(1763824856.126890) can0 1D8#8000000000002079
(1763824856.130783) can0 266#00002C2C00000000
(1763824856.131074) can0 118#1280F00000080180
(1763824856.136882) can0 1D8#8000000000004099
(1763824856.140776) can0 266#00002C2C00000000
(1763824856.141063) can0 118#1381F00000080180
(1763824856.146883) can0 1D8#80000000000060B9
(1763824856.148155) can0 080#9D9F22A286BB8696
(1763824856.150780) can0 266#00002C2C00000000
(1763824856.151067) can0 118#1482F00000080180
(1763824856.156894) can0 1D8#80000000000080D9
(1763824856.160784) can0 266#00002C2C00000000
(1763824856.161069) can0 118#1583F00000080180
(1763824856.161359) can0 166#2509000000B603
(1763824856.161601) can0 1D6#40080800282D6010
(1763824856.161783) can0 279#148D0C0000
(1763824856.162062) can0 395#01111B3F1900067D
(1763824856.162295) can0 108#1E0D000200010005
(1763824856.162399) can0 2B6#8801
(1763824856.162671) can0 397#000000003B000000
(1763824856.162841) can0 128#8B483802
(1763824856.163022) can0 268#2C2CFF01FF
(1763824856.166889) can0 1D8#800000000000A0F9
(1763824856.167761) can0 081#9B9DC86E90E89861
(1763824856.170782) can0 266#00002C2C00000000
(1763824856.171074) can0 118#1684F00000080180
(1763824856.171311) can0 7D5#2B00000000000000
(1763824856.171557) can0 7D5#3260000000000000
(1763824856.171812) can0 7D7#322C000000000000
(1763824856.176893) can0 1D8#800000000000C019
(1763824856.180774) can0 266#00002C2C00000000
(1763824856.181065) can0 118#1785F00000080180
(1763824856.182870) can0 6B1#0068000A100C0047
(1763824856.183073) can0 356#6E0B0000A000
(1763824856.183317) can0 355#5F006400B6030618
(1763824856.183555) can0 351#AC0B640010040009
(1763824856.186894) can0 1D8#800000000000E039
(1763824856.190787) can0 266#00002C2C00000000
(1763824856.191067) can0 118#1886F00000080180
(1763824856.196894) can0 1D8#8000000000000059
(1763824856.197582) can0 080#9FF34343FAB55959
(1763824856.198880) can0 375#5030315F30323100
(1763824856.200770) can0 266#00002C2C00000000
(1763824856.201058) can0 118#1987F00000080180
(1763824856.206890) can0 1D8#8000000000002079
(1763824856.207130) can0 081#29AEE27C0EEE3DF3
(1763824856.210787) can0 266#00002C2C00000000
(1763824856.211033) can0 118#1A88F00000080180
(1763824856.216887) can0 1D8#8000000000004099
(1763824856.220768) can0 266#00002C2C00000000
(1763824856.221065) can0 118#1B89F00000080180
(1763824856.221723) can0 056#0400000000000761
(1763824856.226888) can0 1D8#80000000000060B9
(1763824856.230784) can0 266#00002C2C00000000
(1763824856.231025) can0 118#1C8AF00000080180
(1763824856.236886) can0 1D8#80000000000080D9
(1763824856.238821) can0 35B#150A0500
(1763824856.238984) can0 35A#00000000
(1763824856.240774) can0 266#00002C2C00000000
(1763824856.241062) can0 118#1D8BF00000080180
(1763824856.246886) can0 1D8#800000000000A0F9
(1763824856.248327) can0 080#D826A167C9F48230
(1763824856.250782) can0 266#00002C2C00000000
(1763824856.251026) can0 118#1E8CF00000080180
(1763824856.256876) can0 1D8#800000000000C019
(1763824856.260765) can0 266#00002C2C00000000
(1763824856.261059) can0 118#1F8DF00000080180
(1763824856.261353) can0 166#2509000000B603
(1763824856.261585) can0 1D6#40080800282D7210
(1763824856.261765) can0 279#158E0C0000
(1763824856.262044) can0 395#0111173F1A00047D
(1763824856.262291) can0 108#1E0E000200000005
(1763824856.262414) can0 2B6#8801
(1763824856.262671) can0 397#000000003B000000
(1763824856.262833) can0 128#8B483802
(1763824856.263025) can0 268#2C2CFF01FF
(1763824856.266885) can0 1D8#800000000000E039
(1763824856.267859) can0 081#86234463B60074F8
(1763824856.270788) can0 266#00002C2C00000000
(1763824856.271053) can0 118#208EF00000080180
(1763824856.271294) can0 7D5#2B00000000000000
(1763824856.271542) can0 7D5#3260000000000000
(1763824856.271788) can0 7D7#322C000000000000
(1763824856.276888) can0 1D8#8000000000000059
(1763824856.280761) can0 266#00002C2C00000000
(1763824856.281048) can0 118#218FF00000080180
(1763824856.286810) can0 6B1#0068000A100C0047
(1763824856.287061) can0 1D8#8000000000002079
(1763824856.287277) can0 356#6E0B0000A000
(1763824856.287510) can0 355#5F006400B6030618
(1763824856.287740) can0 351#AC0B640010040009
(1763824856.290779) can0 266#00002C2C00000000
(1763824856.291029) can0 118#1280F00000080180
(1763824856.296879) can0 1D8#8000000000004099
(1763824856.298641) can0 376#5030315F30310000
(1763824856.299049) can0 080#DA7AC2083DEE54F3
(1763824856.300761) can0 266#00002C2C00000000
(1763824856.301051) can0 118#1381F00000080180
(1763824856.306878) can0 1D8#80000000000060B9
(1763824856.310784) can0 266#00002C2C00000000
(1763824856.311036) can0 118#1482F00000080180
(1763824856.316878) can0 1D8#80000000000080D9
(1763824856.317110) can0 081#9757B25AB7316B0F
(1763824856.320767) can0 266#00002C2C00000000
(1763824856.321019) can0 056#0400000000000862
(1763824856.321261) can0 118#1583F00000080180
(1763824856.326879) can0 1D8#800000000000A0F9
(1763824856.330780) can0 266#00002C2C00000000
(1763824856.331044) can0 118#1684F00000080180
(1763824856.336873) can0 1D8#800000000000C019
(1763824856.340761) can0 266#00002C2C00000000
(1763824856.341026) can0 118#1785F00000080180
(1763824856.346866) can0 1D8#800000000000E039
(1763824856.349774) can0 080#4B36EE80206F3EC0
(1763824856.350775) can0 266#00002C2C00000000
(1763824856.351043) can0 118#1886F00000080180
(1763824856.356868) can0 1D8#8000000000000059
(1763824856.360768) can0 266#00002C2C00000000
(1763824856.361036) can0 118#1987F00000080180
(1763824856.361341) can0 166#2509000000B603
(1763824856.361578) can0 1D6#40080800282D7B10
(1763824856.361750) can0 279#168F0C0000
(1763824856.362033) can0 395#01111A3F1A02067D
(1763824856.362287) can0 108#1F0F000200000005
(1763824856.362392) can0 2B6#8801
(1763824856.362663) can0 397#000000003B000000
(1763824856.362819) can0 128#8B483802
(1763824856.363013) can0 268#2C2CFF01FF
(1763824856.366881) can0 1D8#8000000000002079
(1763824856.367705) can0 081#D6639FE87017B594
(1763824856.370777) can0 266#00002C2C00000000
(1763824856.371040) can0 118#1A88F00000080180
(1763824856.371294) can0 7D5#2B00000000000000
(1763824856.371533) can0 7D5#3260000000000000
(1763824856.371792) can0 7D7#322C000000000000
(1763824856.376870) can0 1D8#8000000000004099
(1763824856.380768) can0 266#00002C2C00000000
(1763824856.381039) can0 118#1B89F00000080180
(1763824856.386867) can0 1D8#80000000000060B9
(1763824856.387827) can0 606#0322F01300000000
(1763824856.388297) can0 616#101162F013504754
(1763824856.390774) can0 266#00002C2C00000000
(1763824856.390984) can0 356#6E0B0000A000
(1763824856.391218) can0 118#1C8AF00000080180
(1763824856.391463) can0 355#5F006400B6030618
(1763824856.391695) can0 351#AC0B640010040009
(1763824856.391939) can0 6B1#0068000A100C0047
(1763824856.396866) can0 1D8#80000000000080D9
(1763824856.398362) can0 606#30000A0000000000
(1763824856.398631) can0 616#2132313235383035
(1763824856.398856) can0 377#5030315F30370000
(1763824856.400758) can0 266#00002C2C00000000
(1763824856.401006) can0 118#1D8BF00000080180
(1763824856.406870) can0 1D8#800000000000A0F9
(1763824856.408508) can0 616#2232393638AAAAAA
(1763824856.410770) can0 266#00002C2C00000000
(1763824856.411034) can0 118#1E8CF00000080180
(1763824856.416863) can0 1D8#800000000000C019
(1763824856.419896) can0 056#0400000000000963
(1763824856.420262) can0 604#0211010000000000
(1763824856.420487) can0 644#0211010000000000
(1763824856.420722) can0 614#025101AAAAAAAAAA
(1763824856.420963) can0 266#00002C2C00000000
(1763824856.421216) can0 118#1F8DF00000080180
(1763824856.425383) can0 1D5#21000000000000F7
(1763824856.425623) can0 2E5#000000000000DD00
(1763824856.426863) can0 1D8#800000000000E039
(1763824856.429871) can0 132#107200003840080E
(1763824856.431821) can0 055#0000000000000156
(1763824856.437246) can0 1D5#2100000000002017
(1763824856.437502) can0 2E5#000000000000DD00
(1763824856.441094) can0 053#D43084C78F364615
(1763824856.458635) can0 132#107200003840080E
(1763824856.458883) can0 055#0100000000000157
(1763824856.459127) can0 1D5#2100000000004037
(1763824856.459377) can0 2E5#000000000000DD00
(1763824856.459552) can0 39D#32600A2800
(1763824856.460406) can0 132#107200003840080E
(1763824856.460640) can0 055#0201000000000159
(1763824856.460868) can0 053#D43084C78F364615
(1763824856.467388) can0 5F4#00091E5B00000001
(1763824856.468367) can0 1D5#2100000000006057
(1763824856.468627) can0 2E5#000000000000DD00
(1763824856.469337) can0 221#60555515545101E8
(1763824856.469579) can0 3A1#884E0BC8000000B4
(1763824856.469809) can0 3C2#1055555500005D19
(1763824856.470037) can0 441#46652220DB0E0090
(1763824856.470478) can0 132#107200003840080E
(1763824856.470731) can0 055#0300000000000159
(1763824856.478377) can0 1D5#2100000000008077
(1763824856.478633) can0 2E5#000000000000DD00
(1763824856.480430) can0 132#107200003840080E
(1763824856.480685) can0 055#0000000000000257
(1763824856.480904) can0 053#D43084C78F364615
(1763824856.488401) can0 1D5#210000000000A097
(1763824856.488654) can0 2E5#000000000000DD00
(1763824856.490458) can0 132#107200003840080E
(1763824856.490712) can0 055#0100000000000258
(1763824856.494876) can0 6B1#0068000A100C0047
(1763824856.495075) can0 356#6E0B0000A000
(1763824856.495319) can0 355#5F006400B6030618
(1763824856.495562) can0 351#AC0B640010040009
(1763824856.498393) can0 1D5#210000000000C0B7
(1763824856.498645) can0 2E5#000000000000DD00
(1763824856.498886) can0 379#9C00000000000000
(1763824856.499325) can0 39D#33610A2800
(1763824856.500425) can0 132#107200003840080E
(1763824856.500662) can0 055#020100000000025A
(1763824856.500895) can0 053#D43084C78F364615
(1763824856.501186) can0 000107D0#2164648B13180002
(1763824856.508441) can0 1D5#210000000000E0D7
(1763824856.508704) can0 2E5#000000000000DD00
(1763824856.510471) can0 132#107200003840080E
(1763824856.510721) can0 055#030000000000025A
(1763824856.518419) can0 1D5#21000000000000F7
(1763824856.518678) can0 2E5#000000000000DD00
(1763824856.519011) can0 056#0400000000000A64
(1763824856.519415) can0 221#61055505000010F3
(1763824856.519645) can0 3A1#0300986EBE0010E2
(1763824856.519868) can0 3C2#0155151500005509
(1763824856.520122) can0 441#00000000000005BF
(1763824856.520355) can0 052#6418138B64312000
(1763824856.520600) can0 339#4144FE0000038000
(1763824856.520838) can0 102#22B348040000A009
(1763824856.521063) can0 103#22B3884400002032
(1763824856.521318) can0 207#0000000000282800
(1763824856.521557) can0 224#0408004019011008
(1763824856.521775) can0 241#3C3C160F8F5500
(1763824856.522033) can0 247#100EFF0000000000
(1763824856.522261) can0 2A8#020000000080002C
(1763824856.522526) can0 2E8#020000000080006C
(1763824856.522747) can0 2E1#10210B9EE4680004
(1763824856.522881) can0 500#0101
(1763824856.523127) can0 7FF#0141535504041501
(1763824856.523348) can0 212#B904A32F01380001
(1763824856.523599) can0 252#C800030900000100
(1763824856.523839) can0 25D#3441012A08000000
(1763824856.524059) can0 2D2#EC2C343A6400B502
(1763824856.524205) can0 229#460000
(1763824856.524336) can0 2D1#FF01
(1763824856.524537) can0 333#0030840702
(1763824856.524769) can0 125#0A00720B00000000
(1763824856.525022) can0 126#00C000000E000000
(1763824856.525258) can0 132#107200003840080E
(1763824856.525511) can0 055#0000000000000358
(1763824856.525730) can0 053#D43084C38F364615
(1763824856.528435) can0 1D5#2100000000002017
(1763824856.528677) can0 2E5#000000000000DD00
(1763824856.534491) can0 132#107200003840080E
(1763824856.534748) can0 055#0100000000000359
(1763824856.538428) can0 1D5#2100000000004037
(1763824856.538686) can0 2E5#000000000000DD00
(1763824856.539342) can0 39D#34620A2800
(1763824856.544450) can0 132#107200003840080E
(1763824856.544690) can0 055#020100000000035B
(1763824856.544919) can0 053#D43084C38F364615
(1763824856.548427) can0 1D5#2100000000006057
(1763824856.548681) can0 2E5#000000000000DD00
(1763824856.552211) can0 1D8#00000000000000D9
(1763824856.554966) can0 132#107200003840080E
(1763824856.555213) can0 055#030000000000035B
(1763824856.558448) can0 1D5#2100000000008077
(1763824856.558696) can0 2E5#000000000000DD00
(1763824856.562245) can0 1D8#00000000000020F9
(1763824856.562495) can0 5A6#6080010300400200
(1763824856.562740) can0 386#0000000000000000
(1763824856.565249) can0 132#107200003840080E
(1763824856.565497) can0 055#0000000000000459
(1763824856.565724) can0 053#D43084C38F364615
(1763824856.566121) can0 266#00002C2C00000000
(1763824856.566372) can0 118#1280F00000080180
(1763824856.568433) can0 1D5#210000000000A097
(1763824856.568681) can0 2E5#000000000000DD00
(1763824856.569375) can0 221#00555515545121A8
(1763824856.569608) can0 3A1#884E0BC8000020D4
(1763824856.569841) can0 3C2#1055555500005D19
(1763824856.570080) can0 441#46652220DB0E0898
(1763824856.572240) can0 1D8#0000000000004019
(1763824856.575519) can0 132#107200003840080E
(1763824856.575770) can0 055#010000000000045A
(1763824856.576133) can0 266#00002C2C00000000
(1763824856.576421) can0 118#1381F00000080180
(1763824856.576706) can0 166#A500000000B603
(1763824856.576947) can0 1D6#00080800282DC410
(1763824856.577124) can0 279#17900C0000
(1763824856.577402) can0 395#F70DFFFFFFFF007D
(1763824856.577642) can0 108#8E00000400008001
(1763824856.577767) can0 2B6#8801
(1763824856.578030) can0 397#000000003B000000
(1763824856.578181) can0 128#8B00EC0A
(1763824856.578377) can0 268#2C2CFF01FF
(1763824856.578624) can0 1D5#210000000000C0B7
(1763824856.578868) can0 2E5#000000000000DD00
(1763824856.579387) can0 39D#35630A2800
(1763824856.582244) can0 1D8#0000000000006039
(1763824856.585963) can0 132#107200003840080E
(1763824856.586211) can0 055#020100000000045C
(1763824856.586434) can0 053#D43084C78F364615
(1763824856.586676) can0 266#00002C2C00000000
(1763824856.586931) can0 3D5#FFFFFFFFFFFFFFFF
(1763824856.587168) can0 118#1482F00000080180
(1763824856.587401) can0 315#1836363B5036987D
(1763824856.587645) can0 527#C080000000000000
(1763824856.587883) can0 315#0136360036280000
(1763824856.588135) can0 36B#0000000000000080
(1763824856.588377) can0 315#02FFFFFFFF000000
(1763824856.588625) can0 7D5#2B00000000000000
(1763824856.588873) can0 1D5#210000000000E0D7
(1763824856.589119) can0 2E5#000000000000DD00
(1763824856.589362) can0 315#FBFFFFFFFBFFFB0F
(1763824856.589615) can0 7D5#3260000000000000
(1763824856.589862) can0 315#04FFFFFFFF000000
(1763824856.590109) can0 7D7#322C000000000000
(1763824856.590295) can0 5D7#8C8C000000
(1763824856.590527) can0 7D5#42FD00FD00E41700
(1763824856.590704) can0 3B6#FFFFFFFF
(1763824856.590951) can0 7D5#43FD00FD003C0000
(1763824856.591186) can0 335#0A010533FC000500
(1763824856.591410) can0 7D5#442F441D55372453
(1763824856.591658) can0 3A7#0000000000000000
(1763824856.591902) can0 7D5#4628282828282828
(1763824856.592138) can0 3B5#0000000000000000
(1763824856.592392) can0 1D8#0000000000008059
(1763824856.592637) can0 3C5#0000000000000000
(1763824856.592876) can0 7D5#482828000000CA93
(1763824856.593123) can0 3E5#0000000000000000
(1763824856.593372) can0 367#0000000000000000
(1763824856.593624) can0 368#0000000000000000
(1763824856.593884) can0 36E#0000000000000000
(1763824856.596136) can0 266#00002C2C00000000
(1763824856.596405) can0 118#1583F00000080180
(1763824856.596656) can0 132#107200003840080E
(1763824856.596888) can0 055#030000000000045C
(1763824856.598470) can0 1D5#21000000000000F7
(1763824856.598712) can0 2E5#000000000000DD00
(1763824856.598921) can0 356#6E0B0000A000
(1763824856.599156) can0 355#5F006400B6030618
(1763824856.599393) can0 351#AC0B640010040009
(1763824856.599637) can0 6B1#0068000A100C0047
(1763824856.599875) can0 380#4C35414136343033
(1763824856.602243) can0 1D8#000000000000A079
(1763824856.605947) can0 132#107200003840080E
(1763824856.606201) can0 055#000000000000055A
(1763824856.606423) can0 053#D43084C78F364615
(1763824856.606662) can0 266#00002C2C00000000
(1763824856.606915) can0 118#1684F00000080180
(1763824856.608959) can0 1D5#2100000000002017
(1763824856.609207) can0 2E5#000000000000DD00
(1763824856.612236) can0 1D8#000000000000C099
(1763824856.615971) can0 132#107200003840080E
(1763824856.616231) can0 055#010000000000055B
(1763824856.616466) can0 266#00002C2C00000000
(1763824856.616720) can0 118#1785F00000080180
(1763824856.618068) can0 056#0400000000000B65
(1763824856.618570) can0 1D5#2100000000004037
(1763824856.618829) can0 2E5#000000000000DD00
(1763824856.619361) can0 39D#36640A2800
(1763824856.619675) can0 221#6105550500003013
(1763824856.619906) can0 3A1#0300986EBE003002
(1763824856.620138) can0 3C2#0155151500005509
(1763824856.620388) can0 441#0000000000000DC7
(1763824856.620620) can0 052#6418138B64312000
(1763824856.620868) can0 339#4144FE0000038000
(1763824856.621104) can0 102#22B348040000A009
(1763824856.621336) can0 103#22B3884400002032
(1763824856.621591) can0 207#0000000000282800
(1763824856.621824) can0 224#0408004019011008
(1763824856.622036) can0 241#3C3C160F8F5500
(1763824856.622292) can0 1D8#000000000000E0B9
(1763824856.622536) can0 247#100EFF0000000000
(1763824856.622779) can0 2A8#020000000080103C
(1763824856.623021) can0 2E8#020000000080107C
(1763824856.623260) can0 2E1#390D00700C000000
(1763824856.623386) can0 500#0101
(1763824856.623633) can0 7FF#02263226441196A2
(1763824856.623861) can0 212#B904A32F01380001
(1763824856.624095) can0 252#C800030900000100
(1763824856.624339) can0 25D#3441012A08000000
(1763824856.624572) can0 2D2#EC2C343A6400B502
(1763824856.624713) can0 229#440100
(1763824856.624845) can0 2D1#FF01
(1763824856.625051) can0 333#0030840702
(1763824856.625281) can0 125#0000720600000000
(1763824856.625519) can0 126#00C034F30E000000
(1763824856.626407) can0 132#107200003840080E
(1763824856.626646) can0 055#020100000000055D
(1763824856.626872) can0 053#D43084C78F364615
(1763824856.627131) can0 266#00002C2C00000000
(1763824856.627363) can0 7D7#02F0320000000000
(1763824856.627609) can0 118#6886300000180180
(1763824856.629452) can0 1D5#2100000000006057
(1763824856.629693) can0 2E5#000000000000DD00
(1763824856.632330) can0 1D8#00000000000000D9
(1763824856.635964) can0 132#107200003840080E
(1763824856.636209) can0 055#030000000000055D
(1763824856.637063) can0 266#00002C2C00000000
(1763824856.637315) can0 7D7#02F0320000000000
(1763824856.637542) can0 118#5987300000080180
(1763824856.637782) can0 297#72441F0002A00F05
(1763824856.638543) can0 1D5#2100000000008077
(1763824856.638798) can0 2E5#000000000000DD00
(1763824856.642357) can0 1D8#00000000000020F9
(1763824856.645973) can0 132#107200003840080E
(1763824856.646221) can0 055#000100000000065C
(1763824856.646452) can0 053#D43084C78F364615
(1763824856.647650) can0 266#00002C2C00000000
(1763824856.647906) can0 7D7#02F0320000000000
(1763824856.648140) can0 118#DA88300000080100
(1763824856.648578) can0 1D5#210000000000A097
(1763824856.648828) can0 2E5#000000000000DD00
(1763824856.651153) can0 554#0021041723C001
(1763824856.651406) can0 344#0000000000000047
(1763824856.651647) can0 6D4#0A010533FC000900
(1763824856.651887) can0 3A0#0000008000000000
(1763824856.652142) can0 384#0000000000000000
(1763824856.652398) can0 1D8#0000000000004019
(1763824856.652640) can0 380#0000000000000000
(1763824856.655988) can0 132#107200003840080E
(1763824856.656239) can0 055#010000000000065C
(1763824856.657443) can0 266#00002C2C00000000
(1763824856.657691) can0 7D7#02F0320000000000
(1763824856.657931) can0 118#DB89300000080100
(1763824856.658166) can0 297#6F451F0002A00F01
(1763824856.658617) can0 1D5#210000000000C0B7
(1763824856.658855) can0 2E5#000000000000DD00
(1763824856.659410) can0 39D#37650A2800
(1763824856.662345) can0 1D8#0000000000006039
(1763824856.665967) can0 132#107200003840080E
(1763824856.666215) can0 055#020100000000065E
(1763824856.666433) can0 053#D43084C78F364615
(1763824856.667631) can0 266#00002C2C00000000
(1763824856.667885) can0 7D7#02F0320000000000
(1763824856.668116) can0 118#DC8A300000080100
(1763824856.668579) can0 1D5#210000000000E0D7
(1763824856.668831) can0 2E5#000000000000DD00
(1763824856.669489) can0 221#6055551554514128
(1763824856.669734) can0 3A1#884E0BC8000040F4
(1763824856.669960) can0 3C2#1055555500005D19
(1763824856.670191) can0 441#46652220DB0E10A0
(1763824856.670428) can0 55A#0100000030000000
(1763824856.672317) can0 1D8#0000000000008059
(1763824856.675996) can0 132#107200003840080E
(1763824856.676249) can0 055#030000000000065E
(1763824856.677458) can0 266#00002C2C00000000
(1763824856.677706) can0 7D7#02F0320000000000
(1763824856.677946) can0 118#DD8B300000080100
(1763824856.678167) can0 166#2401000000B603
(1763824856.678409) can0 297#70461F0002A00F01
(1763824856.678645) can0 1D5#21000000000000F7
(1763824856.678882) can0 1D6#00080808282D8A10
(1763824856.679057) can0 279#08810C0000
(1763824856.679314) can0 2E5#000000000000DD00
(1763824856.679548) can0 395#F111163FFF06047D
(1763824856.679807) can0 108#8F01000400008001
(1763824856.679899) can0 2B6#021B
(1763824856.680176) can0 397#000000003B000000
(1763824856.680342) can0 128#8B00EC0A
(1763824856.680533) can0 268#2C2CFF01FF
(1763824856.682355) can0 1D8#000000000000A079
(1763824856.686134) can0 132#107200003840080E
(1763824856.686383) can0 055#000100000000075D
(1763824856.686607) can0 053#D43084C78F364615
(1763824856.687673) can0 266#00002C2C00000000
(1763824856.687915) can0 7D7#02F0320000000000
(1763824856.688154) can0 276#0046007702CD11A1
(1763824856.688397) can0 7D5#20FD000000000000
(1763824856.688636) can0 118#7E2C300000080100
(1763824856.688889) can0 1D5#2100000000002017
(1763824856.689139) can0 2E5#000000000000DD00
(1763824856.689376) can0 7D5#210100000000E015
(1763824856.689625) can0 7D5#2261000000000000
(1763824856.689865) can0 7D5#23FA000000001027
(1763824856.690121) can0 7D5#24FA000000000000
(1763824856.690372) can0 7D5#25AB000000007412
(1763824856.690604) can0 7D5#2600252100000000
(1763824856.690856) can0 7D5#27000000FAFA0000
(1763824856.691098) can0 7D5#280000000000FA00
(1763824856.691351) can0 7D5#2900000077100000
(1763824856.691587) can0 7D5#2A0000FA43000000
(1763824856.691843) can0 7D5#2B00000000000000
(1763824856.692081) can0 7D5#2ECDFF1D04000000
(1763824856.692324) can0 7D5#2F00000000004600
(1763824856.692574) can0 1D8#000000000000C099
(1763824856.692813) can0 7D5#306E6E3566000000
(1763824856.693065) can0 7D5#3100000000000000
(1763824856.693310) can0 7D5#3260000000000000
(1763824856.693561) can0 7D5#3400000000000000
(1763824856.693816) can0 7D5#3F00000000000000
(1763824856.694066) can0 7D7#200300FAFAFAFA01
(1763824856.694311) can0 7D7#21FF0F00FAFA0000
(1763824856.694551) can0 7D7#2290650000000000
(1763824856.694804) can0 7D7#2300000000000000
(1763824856.695055) can0 7D7#2400000000000000
(1763824856.695305) can0 7D7#2500000000000000
(1763824856.695553) can0 7D7#2600000000000000
(1763824856.695798) can0 7D7#2700400000000000
(1763824856.696050) can0 7D7#2D000000000D0000
(1763824856.696294) can0 7D7#322C000000000000
(1763824856.696538) can0 7D7#3590650000000000
(1763824856.697402) can0 266#00002C2C00000000
(1763824856.697648) can0 7D7#02F0320000000000
(1763824856.697891) can0 132#107200003840080E
(1763824856.698132) can0 055#010000000000075D
(1763824856.698390) can0 276#0046007702CD11A1
(1763824856.698609) can0 118#7F2D300000080100
(1763824856.698845) can0 297#71471F0002A00F01
(1763824856.699092) can0 381#FFFFFF0000000000
(1763824856.700112) can0 1D5#2100000000004037
(1763824856.700357) can0 2E5#000000000000DD00
(1763824856.701200) can0 39D#38660A2800
(1763824856.702377) can0 1D8#000000000000E0B9
(1763824856.702795) can0 6B1#0068000A100C0047
(1763824856.703002) can0 356#6E0B0000A000
(1763824856.703250) can0 355#5F006400B6030618
(1763824856.703477) can0 351#AC0B640010040009
(1763824856.707046) can0 132#107200003840080E
(1763824856.707302) can0 055#020100000000075F
(1763824856.707515) can0 053#D43084C78F364615
(1763824856.707763) can0 266#00002C2C00000000
(1763824856.708002) can0 7D7#02F0320000000000
(1763824856.708243) can0 276#0046007702CD11A1
(1763824856.708476) can0 118#802E300000080100
(1763824856.708916) can0 1D5#2100000000006057
(1763824856.709153) can0 2E5#000000000000DD00
(1763824856.712328) can0 1D8#00000000000000D9
(1763824856.716999) can0 132#107200003840080E
(1763824856.717252) can0 055#030000000000075F
(1763824856.717486) can0 056#0400000000000C66
(1763824856.717733) can0 266#00002C2C00000000
(1763824856.717987) can0 7D7#02F0320000000000
(1763824856.718212) can0 276#0046007702CD11A1
(1763824856.718457) can0 118#812F300000080100
(1763824856.718697) can0 1D5#2100000000008077
(1763824856.718928) can0 297#72481F0002A00F01
(1763824856.719186) can0 2E5#000000000000DD00
(1763824856.719497) can0 221#6105550500005033
(1763824856.719726) can0 3A1#0300986EBE005022
(1763824856.719958) can0 3C2#0155151500005509
(1763824856.720205) can0 441#00000000000015CF
(1763824856.720436) can0 052#6418138B64312000
(1763824856.720677) can0 339#4144FE0000038000
(1763824856.720911) can0 102#22B348040000A009
(1763824856.721152) can0 103#22B3884400002032
(1763824856.721404) can0 207#0000000000282800
(1763824856.721632) can0 224#0408004019011008
(1763824856.721854) can0 241#3C3C160F8F5500
(1763824856.722101) can0 247#100EFF0000000000
(1763824856.722350) can0 2A8#040000000080204E
(1763824856.722588) can0 1D8#00000000000020F9
(1763824856.722830) can0 2E8#040000000080208E
(1763824856.723080) can0 2E1#02000000FF000200
(1763824856.723202) can0 500#0101
(1763824856.723454) can0 7FF#03300868E1410082
(1763824856.723682) can0 212#B904A32F01380001
(1763824856.723918) can0 252#C800030900000100
(1763824856.724166) can0 25D#3441012A08000000
(1763824856.724396) can0 2D2#EC2C343A6400B502
(1763824856.724531) can0 229#520200
(1763824856.724667) can0 2D1#FF01
(1763824856.724857) can0 333#0030840702
(1763824856.725101) can0 125#0000680B00000000
(1763824856.725338) can0 126#00C234F30E000000
(1763824856.725569) can0 3D9#42CD0A9A83C53172
(1763824856.727373) can0 132#107200003840080E
(1763824856.727608) can0 055#000100000000085E
(1763824856.727832) can0 053#D43084C78F364615
(1763824856.728080) can0 266#00002C2C00000000
(1763824856.728324) can0 7D7#02F0320000000000
(1763824856.728562) can0 118#9240300000080100
(1763824856.730382) can0 1D5#210000000000A097
(1763824856.730607) can0 2E5#000000000000DD00
(1763824856.732321) can0 1D8#0000000000004019
(1763824856.737006) can0 132#107200003840080E
(1763824856.737251) can0 055#010000000000085E
(1763824856.737499) can0 266#00002C2C00000000
(1763824856.737740) can0 7D7#02F0320000000000
(1763824856.737987) can0 118#9341300000080100
(1763824856.738216) can0 297#73491F0002A00F01
(1763824856.739632) can0 1D5#210000000000C0B7
(1763824856.739884) can0 2E5#000000000000DD00
(1763824856.740479) can0 39D#39670A2800
(1763824856.742345) can0 1D8#0000000000006039
(1763824856.742799) can0 35B#77090500
(1763824856.742976) can0 35A#00000000
(1763824856.747006) can0 132#107200003840080E
(1763824856.747256) can0 055#0201000000000860
(1763824856.747506) can0 053#D43084C78F364615
(1763824856.747754) can0 266#00002C2C00000000
(1763824856.748005) can0 7D7#02F0320000000000
(1763824856.748235) can0 118#B462300000080100
(1763824856.749995) can0 1D5#210000000000E0D7
(1763824856.750255) can0 2E5#000000000000DD00
(1763824856.752312) can0 1D8#0000000000008059
(1763824856.757039) can0 132#107200003840080E
(1763824856.757283) can0 055#0300000000000860
(1763824856.757536) can0 266#00002C2C00000000
(1763824856.757779) can0 7D7#02F0320000000000
(1763824856.758024) can0 118#B563300000080100
(1763824856.758254) can0 297#744A1F0002A00F01
(1763824856.759560) can0 1D5#21000000000000F7
(1763824856.759813) can0 2E5#000000000000DD00
(1763824856.762341) can0 1D8#000000000000A079
(1763824856.767056) can0 132#107200003840080E
(1763824856.767308) can0 055#000100000000095F
(1763824856.767531) can0 053#D43084C78F364615
(1763824856.767778) can0 266#00002C2C00000000
(1763824856.768026) can0 7D7#02F0320000000000
(1763824856.768263) can0 118#B664300000080100
(1763824856.770292) can0 1D5#2100000000002017
(1763824856.770546) can0 2E5#000000000000DD00
(1763824856.770766) can0 221#6055551554516148
(1763824856.771009) can0 3A1#884E0BC800006014
(1763824856.771238) can0 3C2#1055555500005D19
(1763824856.771464) can0 441#46652220DB0E18A8
(1763824856.772314) can0 1D8#000000000000C099
(1763824856.777068) can0 132#107200003840080E
(1763824856.777320) can0 055#010000000000095F
(1763824856.777570) can0 266#00002C2C00000000
(1763824856.777808) can0 7D7#02F0320000000000
(1763824856.778056) can0 118#B765300000080100
(1763824856.778276) can0 166#2509000000B603
(1763824856.778510) can0 297#754B1F0002A00F01
(1763824856.778751) can0 1D6#00080800282D6E10
(1763824856.778943) can0 279#09820C0000
(1763824856.779182) can0 395#F111163FFF06047D
(1763824856.779412) can0 108#9002000400008001
(1763824856.779664) can0 1D5#2100000000004037
(1763824856.779782) can0 2B6#021B
(1763824856.780041) can0 2E5#000000000000DD00
(1763824856.780282) can0 397#000000003B000000
(1763824856.780452) can0 128#81003802
(1763824856.780635) can0 268#2C2CFF01FF
(1763824856.780815) can0 39D#3A680A2800
(1763824856.782346) can0 1D8#000000000000E0B9
(1763824856.787050) can0 132#107200003840080E
(1763824856.787306) can0 055#0201000000000961
(1763824856.787532) can0 053#D43084C78F364615
(1763824856.787782) can0 266#00002C2C00000000
(1763824856.788026) can0 7D7#02F0320000000000
(1763824856.788264) can0 118#B866300000080100
(1763824856.788511) can0 7D5#20FA000000000000
(1763824856.788759) can0 7D5#21FE00000000E015
(1763824856.789001) can0 7D5#2261000000000000
(1763824856.789260) can0 7D5#23FA000000001027
(1763824856.789508) can0 7D5#24FA000000000000
(1763824856.789748) can0 7D5#25AB000000000C46
(1763824856.790001) can0 7D5#2600252100000000
(1763824856.790240) can0 1D5#2100000000006057
(1763824856.790488) can0 2E5#000000000000DD00
(1763824856.790725) can0 7D5#27250000FAFA0000
(1763824856.790980) can0 7D5#280000000000FA00
(1763824856.791220) can0 7D5#2900000076100000
(1763824856.791466) can0 7D5#2A0000FA43000000
(1763824856.791717) can0 7D5#2B00000000000000
(1763824856.791955) can0 7D5#2ECDFF1D04000000
(1763824856.792208) can0 7D5#2F00000000004600
(1763824856.792464) can0 1D8#00000000000000D9
(1763824856.792692) can0 7D5#306E6E3566000000
(1763824856.792949) can0 7D5#3100000000000000
(1763824856.793191) can0 7D5#3260000000000000
(1763824856.793446) can0 7D5#3400000000000000
(1763824856.793691) can0 7D5#3F00000000000000
(1763824856.793939) can0 7D7#200300FAFAFAFA01
(1763824856.794180) can0 7D7#21FF0F00FAFA0000
(1763824856.794425) can0 7D7#2290650000000000
(1763824856.794691) can0 7D7#2300000000000000
(1763824856.794934) can0 7D7#2400000000000000
(1763824856.795186) can0 7D7#2500000000000000
(1763824856.795430) can0 7D7#2600000000000000
(1763824856.795681) can0 7D7#2700400000000000
(1763824856.795927) can0 7D7#2D00000000040000
(1763824856.796180) can0 7D7#322C000000000000
(1763824856.796424) can0 7D7#3590650000000000
(1763824856.797073) can0 132#107200003840080E
(1763824856.797308) can0 055#0300000000000961
(1763824856.797551) can0 266#00002C2C00000000
(1763824856.797795) can0 7D7#02F0320000000000
(1763824856.798044) can0 118#B967300000080100
(1763824856.798270) can0 297#764C1F0002A00F01
(1763824856.798877) can0 374#5030315F30373000
(1763824856.799633) can0 1D5#2100000000008077
(1763824856.799879) can0 2E5#000000000000DD00
(1763824856.802327) can0 1D8#00000000000020F9
(1763824856.806860) can0 6B1#0068000A100C0047
(1763824856.807107) can0 132#107200003840080E
(1763824856.807354) can0 055#0001000000000A60
(1763824856.807574) can0 053#D43084C78F364615
(1763824856.807815) can0 266#00002C2C00000000
(1763824856.808026) can0 356#6E0B0000A000
(1763824856.808264) can0 118#BA68300000080100
(1763824856.808507) can0 355#5F006400B6030618
(1763824856.808741) can0 351#AC0B640010040009
(1763824856.808990) can0 7D7#02F0320000000000
(1763824856.809645) can0 1D5#210000000000A097
(1763824856.809899) can0 2E5#000000000000DD00
(1763824856.812312) can0 1D8#0000000000004019
(1763824856.816241) can0 056#0400000000000D67
(1763824856.817137) can0 132#107200003840080E
(1763824856.817391) can0 055#0100000000000A60
(1763824856.817632) can0 266#00002C2C00000000
(1763824856.817879) can0 7D7#02F0320000000000
(1763824856.818124) can0 118#BB69300000080100
(1763824856.818348) can0 297#774D1F0002A00F01
(1763824856.819600) can0 1D5#210000000000C0B7
(1763824856.819860) can0 2E5#000000000000DD00
(1763824856.820532) can0 39D#3B690A2800
(1763824856.821056) can0 221#6105550500007053
(1763824856.821298) can0 3A1#0300986EBE007042
(1763824856.821525) can0 3C2#0155151500005509
(1763824856.821772) can0 441#0000000000001DD7
(1763824856.822003) can0 052#6418138B64312000
(1763824856.822250) can0 339#4144FE0000038000
(1763824856.822487) can0 102#22B348040000A009
(1763824856.822727) can0 103#22B3884400002032
(1763824856.822971) can0 1D8#0000000000006039
(1763824856.823216) can0 207#0000000000282800
(1763824856.823455) can0 224#0408004019011008
(1763824856.823670) can0 241#3C3C160F8F5500
(1763824856.823918) can0 247#100EFF0000000000
(1763824856.824165) can0 2A8#040000000080305E
(1763824856.824407) can0 2E8#040000000080309E
(1763824856.824634) can0 2E1#036D9902194F0000
(1763824856.824756) can0 500#0101
(1763824856.825019) can0 7FF#0477000000000000
(1763824856.825250) can0 212#B904A32F01380001
(1763824856.825483) can0 252#C800030900000100
(1763824856.825733) can0 25D#3441012A08000000
(1763824856.825963) can0 2D2#EC2C343A6400B502
(1763824856.826102) can0 229#6D0300
(1763824856.826229) can0 2D1#FF01
(1763824856.826433) can0 333#0030840702
(1763824856.826672) can0 125#0A00720B00000000
(1763824856.826904) can0 126#00C234F30E000000
(1763824856.827136) can0 3D9#42CD0A9A83C53172
(1763824856.827581) can0 266#00002C2C00000000
(1763824856.827828) can0 7D7#02F0320000000000
(1763824856.828071) can0 118#BC6A300000080100
(1763824856.828307) can0 132#107200003840080E
(1763824856.828548) can0 055#0201000000000A62
(1763824856.828774) can0 053#D43084C78F364615
(1763824856.831078) can0 1D5#210000000000E0D7
(1763824856.831338) can0 2E5#000000000000DD00
(1763824856.832328) can0 1D8#0000000000008059
(1763824856.837119) can0 266#00002C2C00000000
(1763824856.837366) can0 118#BD6B300000080100
(1763824856.837607) can0 7D7#02F0320000000000
(1763824856.837851) can0 297#784E1F0002A00F01
(1763824856.838150) can0 132#107200003840080E
(1763824856.838395) can0 055#0300000000000A62
(1763824856.840606) can0 1D5#21000000000000F7
(1763824856.840854) can0 2E5#000000000000DD00
(1763824856.842327) can0 1D8#000000000000A079
(1763824856.847522) can0 266#00002C2C00000000
(1763824856.847771) can0 7D7#02F0320000000000
(1763824856.848007) can0 118#BE6C300000080100
(1763824856.848326) can0 132#107200003840080E
(1763824856.848569) can0 055#0001000000000B61
(1763824856.848789) can0 053#D43084C78F364615
(1763824856.851047) can0 1D5#2100000000002017
(1763824856.851297) can0 2E5#000000000000DD00
(1763824856.852315) can0 1D8#000000000000C099
(1763824856.857110) can0 266#00002C2C00000000
(1763824856.857362) can0 118#BF6D300000080100
(1763824856.857608) can0 7D7#02F0320000000000
(1763824856.857843) can0 297#794F1F0002A00F01
(1763824856.858148) can0 132#107200003840080E
(1763824856.858397) can0 055#0100000000000B61
(1763824856.860707) can0 1D5#2100000000004037
(1763824856.860955) can0 2E5#000000000000DD00
(1763824856.861279) can0 39D#3C6A0A2800
(1763824856.862343) can0 1D8#000000000000E0B9
(1763824856.867517) can0 266#00002C2C00000000
(1763824856.867764) can0 7D7#02F0320000000000
(1763824856.868008) can0 118#C06E300000080100
(1763824856.868316) can0 132#107200003840080E
(1763824856.868563) can0 055#0201000000000B63
(1763824856.868784) can0 053#D43084C78F364615
(1763824856.871008) can0 221#6055551554518168
(1763824856.871242) can0 3A1#884E0BC800008034
(1763824856.871479) can0 3C2#1055555500005D19
(1763824856.871706) can0 441#46652220DB0E20B0
(1763824856.871950) can0 1D5#2100000000006057
(1763824856.872191) can0 2E5#000000000000DD00
(1763824856.872445) can0 1D8#00000000000000D9
(1763824856.877108) can0 266#00002C2C00000000
(1763824856.877367) can0 118#C16F300000080100
(1763824856.877611) can0 7D7#02F0320000000000
(1763824856.877844) can0 297#6A401F0002A00F01
(1763824856.878066) can0 166#2509000000B603
(1763824856.878310) can0 1D6#00080800282D5910
(1763824856.878492) can0 279#0A830C0000
(1763824856.878735) can0 132#107200003840080E
(1763824856.878965) can0 395#F111163FFF06047D
(1763824856.879209) can0 055#0300000000000B63
(1763824856.879453) can0 108#9103000400008001
(1763824856.879575) can0 2B6#021B
(1763824856.879831) can0 397#000000003B000000
(1763824856.879985) can0 128#81003802
(1763824856.880189) can0 268#2C2CFF01FF
(1763824856.880686) can0 1D5#2100000000008077
(1763824856.880929) can0 2E5#000000000000DD00
(1763824856.882351) can0 1D8#00000000000020F9
(1763824856.887524) can0 266#00002C2C00000000
(1763824856.887774) can0 7D7#02F0320000000000
(1763824856.888011) can0 118#B260300000080100
(1763824856.888255) can0 7D5#20F9000000000000
(1763824856.888507) can0 7D5#21FE00000000E015
(1763824856.888756) can0 7D5#2261000000000000
(1763824856.889001) can0 132#107200003840080E
(1763824856.889240) can0 7D5#23FA000000001027
(1763824856.889500) can0 7D5#24FA000000000000
(1763824856.889735) can0 055#0001000000000C62
(1763824856.889959) can0 053#D43084C78F364615
(1763824856.890200) can0 7D5#25AB00000000391E
(1763824856.890440) can0 7D5#2600252100000000
(1763824856.890684) can0 7D5#275E0000FAFA0000
(1763824856.890942) can0 7D5#280000000000FA00
(1763824856.891175) can0 1D5#210000000000A097
(1763824856.891434) can0 2E5#000000000000DD00
(1763824856.891674) can0 7D5#290000007D100000
(1763824856.891918) can0 7D5#2A0000FA43000000
(1763824856.892172) can0 7D5#2B00000000000000
(1763824856.892410) can0 1D8#0000000000004019
(1763824856.892662) can0 7D5#2ECDFF1D04000000
(1763824856.892899) can0 7D5#2F00000000004600
(1763824856.893139) can0 7D5#306E6E3566000000
(1763824856.893388) can0 7D5#3100000000000000
(1763824856.893631) can0 7D5#3260000000000000
(1763824856.893884) can0 7D5#3400000000000000
(1763824856.894142) can0 7D5#3F00000000000000
(1763824856.894384) can0 7D7#200300FAFAFAFA01
(1763824856.894620) can0 7D7#21FF0F00FAFA0000
(1763824856.894875) can0 7D7#2290650000000000
(1763824856.895117) can0 7D7#2300000000000000
(1763824856.895377) can0 7D7#2400000000000000
(1763824856.895628) can0 7D7#2500000000000000
(1763824856.895885) can0 7D7#2600000000000000
(1763824856.896143) can0 7D7#2700400000000000
(1763824856.896385) can0 7D7#2D00000000040000
(1763824856.896628) can0 7D7#322C000000000000
(1763824856.896874) can0 7D7#3590650000000000
(1763824856.897419) can0 266#00002C2C00000000
(1763824856.897670) can0 7D7#02F0320000000000
(1763824856.897907) can0 118#B361300000080100
(1763824856.898145) can0 297#6B411F0002A00F01
(1763824856.898639) can0 375#5030315F30323100
(1763824856.899321) can0 132#107200003840080E
(1763824856.899567) can0 055#0100000000000C62
(1763824856.900651) can0 1D5#210000000000C0B7
(1763824856.900891) can0 2E5#000000000000DD00
(1763824856.901375) can0 39D#3D6B0A2800
(1763824856.902355) can0 1D8#0000000000006039
(1763824856.907525) can0 266#00002C2C00000000
(1763824856.907772) can0 7D7#02F0320000000000
(1763824856.907999) can0 118#B462300000080100
(1763824856.909185) can0 132#107200003840080E
(1763824856.909650) can0 055#0201000000000C64
(1763824856.909874) can0 053#D43084C78F364615
(1763824856.910797) can0 6B1#0068000A100C0047
(1763824856.911000) can0 356#6E0B0000A000
(1763824856.911244) can0 1D5#210000000000E0D7
(1763824856.911496) can0 2E5#000000000000DD00
(1763824856.911731) can0 355#5F006400B6030618
(1763824856.911971) can0 351#AC0B640010040009
(1763824856.912317) can0 1D8#0000000000008059
(1763824856.915334) can0 056#0400000000000E68
(1763824856.917109) can0 266#00002C2C00000000
(1763824856.917365) can0 118#B563300000080100
(1763824856.917616) can0 7D7#02F0320000000000
(1763824856.917854) can0 297#6C421F0002A00F01
(1763824856.919243) can0 132#107200003840080E
(1763824856.919483) can0 055#0300000000000C64
(1763824856.919734) can0 55A#0100000030000000
(1763824856.919853) can0 213#0015
(1763824856.920115) can0 284#10000000C0000000
(1763824856.920343) can0 293#9608000021100367
(1763824856.920588) can0 313#0200C807000000E7
(1763824856.920823) can0 334#3F7F1402F023001E
(1763824856.921055) can0 3B3#9080052280009825
(1763824856.921363) can0 1D5#21000000000000F7
(1763824856.921605) can0 2E5#000000000000DD00
(1763824856.921843) can0 221#6105550500009073
(1763824856.922084) can0 3A1#0300986EBE009062
(1763824856.922317) can0 3C2#0155151500005509
(1763824856.922557) can0 1D8#000000000000A079
(1763824856.922805) can0 441#00000000000025DF
(1763824856.923041) can0 052#6418138B64312000
(1763824856.923279) can0 339#4144FE0000038000
(1763824856.923522) can0 102#22B348040000A009
(1763824856.923755) can0 103#22B3884400002032
(1763824856.924003) can0 207#0000000000282800
(1763824856.924241) can0 224#0408004019011008
(1763824856.924472) can0 241#3C3C160F8F5500
(1763824856.924702) can0 247#100EFF0000000000
(1763824856.924952) can0 2A8#040000000080406E
(1763824856.925199) can0 2E8#04000000008040AE
(1763824856.925422) can0 2E1#FC1FAFD998B51900
(1763824856.925552) can0 500#0101
(1763824856.925807) can0 7FF#050000002000C002
(1763824856.926040) can0 212#B904A32F01380001
(1763824856.926291) can0 252#C800030900000100
(1763824856.926523) can0 25D#3441012A08000000
(1763824856.926754) can0 2D2#EC2C343A6400B502
(1763824856.926890) can0 229#430400
(1763824856.927030) can0 2D1#FF01
(1763824856.927215) can0 333#0030840702
(1763824856.927461) can0 125#0A00720B00000000
(1763824856.927693) can0 126#00C234F30E000000
(1763824856.927939) can0 266#00002C2C00000000
(1763824856.928170) can0 3D9#42CD0A9A83C53172
(1763824856.928411) can0 118#BA643000000D0000
(1763824856.928660) can0 7D7#02F0320000000000
(1763824856.929492) can0 132#107200003840080E
(1763824856.929734) can0 055#0001000000000D63
(1763824856.929962) can0 053#D43084C78F364615
(1763824856.931126) can0 1D5#2100000000002017
(1763824856.931373) can0 2E5#000000000000DD00
(1763824856.932318) can0 1D8#000000000000C099
(1763824856.936963) can0 266#00002C2C00000000
(1763824856.937206) can0 7D7#02F0320000000000
(1763824856.937441) can0 118#3B653000000D0080
(1763824856.937685) can0 297#71431F0002A00F05
(1763824856.939386) can0 132#107200003840080E
(1763824856.939849) can0 055#0100000000000D63
(1763824856.940806) can0 1D5#2100000000004037
(1763824856.941059) can0 2E5#000000000000DD00
(1763824856.941244) can0 39D#3E6C0A2800
(1763824856.942359) can0 1D8#000000000000E0B9
(1763824856.947372) can0 266#00002C2C00000000
(1763824856.947623) can0 7D7#02F0320000000000
(1763824856.947863) can0 118#3C663000000D0080
(1763824856.949284) can0 132#107200003840080E
(1763824856.949527) can0 055#0201000000000D65
(1763824856.949763) can0 053#D43084C78F364615
(1763824856.950909) can0 1D5#2100000000006057
(1763824856.951159) can0 2E5#000000000000DD00
(1763824856.952297) can0 1D8#00000000000000D9
(1763824856.956968) can0 266#00002C2C00000000
(1763824856.957227) can0 7D7#02F0320000000000
(1763824856.957463) can0 118#3D673000000D0080
(1763824856.957700) can0 297#72441F0002A00F05
(1763824856.959371) can0 132#107200003840080E
(1763824856.959616) can0 055#0300000000000D65
(1763824856.960691) can0 1D5#2100000000008077
(1763824856.960945) can0 2E5#000000000000DD00
(1763824856.962315) can0 1D8#00000000000020F9
(1763824856.967388) can0 266#00002C2C00000000
(1763824856.967641) can0 7D7#02F0320000000000
(1763824856.967885) can0 118#3E683000000D0080
(1763824856.969307) can0 132#107200003840080E
(1763824856.969573) can0 055#0001000000000E64
(1763824856.969784) can0 053#D43084C78F364615
(1763824856.970932) can0 1D5#210000000000A097
(1763824856.971186) can0 2E5#000000000000DD00
(1763824856.971609) can0 221#605555155451A188
(1763824856.971845) can0 3A1#884E0BC80000A054
(1763824856.972082) can0 3C2#1055555500005D19
(1763824856.972320) can0 1D8#0000000000004019
(1763824856.972549) can0 441#46652220DB0E28B8
(1763824856.976971) can0 266#00002C2C00000000
(1763824856.977227) can0 7D7#02F0320000000000
(1763824856.977479) can0 118#3F693000000D0080
(1763824856.977681) can0 166#2509000000B603
(1763824856.977912) can0 297#73451F0002A00F05
(1763824856.978154) can0 1D6#00080800282D7410
(1763824856.978351) can0 279#0B840C0000
(1763824856.978583) can0 395#F111163FFF06047D
(1763824856.978829) can0 108#1404000200000005
(1763824856.978946) can0 2B6#DA19
(1763824856.979204) can0 397#000000003B000000
(1763824856.979384) can0 128#83003802
(1763824856.979617) can0 132#107200003840080E
(1763824856.979861) can0 055#0100000000000E64
(1763824856.980046) can0 268#2C2CFF01FF
(1763824856.981219) can0 1D5#210000000000C0B7
(1763824856.981457) can0 2E5#000000000000DD00
(1763824856.981640) can0 39D#3F6D0A2800
(1763824856.982343) can0 1D8#0800000000006041
(1763824856.987519) can0 266#00002C2C00000000
(1763824856.987771) can0 7D7#02F0320000000000
(1763824856.988002) can0 118#406A3000000D0080
(1763824856.988262) can0 7D5#20FA000000000000
(1763824856.988496) can0 527#A980000000000000
(1763824856.988747) can0 7D5#21FB00000000E015
(1763824856.988981) can0 527#B580000000000000
(1763824856.989232) can0 7D5#2261000000000000
(1763824856.989476) can0 36B#0000000000011080
(1763824856.989724) can0 7D5#23FA000000001027
(1763824856.989962) can0 132#107200003840080E
(1763824856.990216) can0 055#0201000000000E66
(1763824856.990426) can0 053#D43084C78F364615
(1763824856.990683) can0 7D5#24FA000000000000
(1763824856.990921) can0 7D5#25AA00000000E546
(1763824856.991170) can0 7D5#2660522100000000
(1763824856.991423) can0 7D5#27730000FAFA0000
(1763824856.991652) can0 1D5#210000000000E0D7
(1763824856.991906) can0 2E5#000000000000DD00
(1763824856.992149) can0 7D5#280000000000FA00
(1763824856.992395) can0 1D8#0800000000008061
(1763824856.992648) can0 7D5#2900000070100000
(1763824856.992891) can0 7D5#2A0001FA43000000
(1763824856.993151) can0 7D5#2B00000000000000
(1763824856.993386) can0 7D5#2ECDFF1D04000000
(1763824856.993629) can0 7D5#2F00000000004600
(1763824856.993866) can0 7D5#306E6E3566010000
(1763824856.994116) can0 7D5#3100000000000000
(1763824856.994370) can0 7D5#3206000000000000
(1763824856.994622) can0 7D5#3400000000000000
(1763824856.994875) can0 7D5#3F00000000000000
(1763824856.995120) can0 7D7#200300FAFAFAFA01
(1763824856.995364) can0 7D7#21FF0F00FAFA0000
(1763824856.995607) can0 7D7#2290650000000000
(1763824856.995864) can0 7D7#2300000000000000
(1763824856.996114) can0 7D7#2400000000000000
(1763824856.996367) can0 7D7#2500000000000000
(1763824856.996624) can0 7D7#2600000000000000
(1763824856.996870) can0 7D7#2700400000000000
(1763824856.997109) can0 7D7#2D00000000010000
(1763824856.997358) can0 7D7#322C000000000000
(1763824856.997615) can0 266#00002C2C00000000
(1763824856.997850) can0 7D7#3590650000000000
(1763824856.998092) can0 118#416B3000000D0080
(1763824856.998346) can0 7D7#02F0320000000000
(1763824856.998572) can0 297#74461F0002A00F05
(1763824856.998953) can0 376#5030315F30310000
(1763824857.000674) can0 132#107200003840080E
(1763824857.000902) can0 055#0300000000000E66
(1763824857.001156) can0 1D5#21000000000000F7
(1763824857.001399) can0 2E5#000000000000DD00
(1763824857.002319) can0 1D8#080000000000A081
(1763824857.007503) can0 266#00002C2C00000000
(1763824857.007752) can0 7D7#02F0320000000000
(1763824857.007996) can0 118#426C3000000D0080
(1763824857.010180) can0 132#107200003840080E
(1763824857.010431) can0 055#0001000000000F65
(1763824857.010652) can0 053#D43084C78F364615
(1763824857.011808) can0 1D5#2100000000002017
(1763824857.012058) can0 2E5#000000000000DD00
(1763824857.012318) can0 1D8#100000000000C0A9
(1763824857.014415) can0 056#0400000000000F69
(1763824857.014861) can0 6B1#0068000A100C0047
(1763824857.015070) can0 356#6E0B0000A000
(1763824857.015309) can0 355#5F006400B6030618
(1763824857.015560) can0 351#AC0B640010040009
(1763824857.017374) can0 266#00002C2C00000000
(1763824857.017616) can0 7D7#02F0320000000000
(1763824857.017863) can0 118#436D3000000D0080
(1763824857.018099) can0 297#75471F0002A00F05
(1763824857.020303) can0 132#107200003840080E
(1763824857.020782) can0 055#0100000000000F65
(1763824857.021729) can0 1D5#2100000000004037
(1763824857.021983) can0 2E5#000000000000DD00
(1763824857.022161) can0 39D#406E0A2800
(1763824857.022416) can0 1D8#100000000000E0C9
(1763824857.022640) can0 221#610555050000B093
(1763824857.022886) can0 3A1#0300986EBE00B082
(1763824857.023104) can0 3C2#0155151500005509
(1763824857.023361) can0 441#0000000000002DE7
(1763824857.023587) can0 052#6418138B64312000
(1763824857.023842) can0 339#4144FE0000038000
(1763824857.024068) can0 102#22B348040000A009
(1763824857.024301) can0 103#22B3884400002032
(1763824857.024557) can0 207#0000000000282800
(1763824857.024796) can0 224#0408004019011008
(1763824857.025011) can0 241#3C3C160F8F5500
(1763824857.025251) can0 247#100EFF0000000000
(1763824857.025507) can0 2A8#040000000080507E
(1763824857.025748) can0 2E8#04000000008050BE
(1763824857.025992) can0 2E1#0500000000000000
(1763824857.026118) can0 500#0101
(1763824857.026384) can0 7FF#0600000000000000
(1763824857.026611) can0 212#B904A32F01380001
(1763824857.026852) can0 252#C800030900000100
(1763824857.027098) can0 25D#3441012A08000000
(1763824857.027324) can0 2D2#EC2C343A6400B502
(1763824857.027468) can0 229#410500
(1763824857.027718) can0 266#00002C2C00000000
(1763824857.027845) can0 2D1#FF01
(1763824857.028092) can0 118#446E3000000D0080
(1763824857.028276) can0 333#0030840702
(1763824857.028513) can0 125#0A00720B00000000
(1763824857.028761) can0 126#00C200000E000000
(1763824857.028996) can0 3D9#42CD0A9A83C53172
(1763824857.029239) can0 7D7#02F0320000000000
(1763824857.030209) can0 132#107200003840080E
(1763824857.030448) can0 055#0201000000000F67
(1763824857.030672) can0 053#D43084C78F364615
(1763824857.031841) can0 1D5#2100000000006057
(1763824857.032080) can0 2E5#000000000000DD00
(1763824857.032328) can0 1D8#08000000000000E1
(1763824857.037073) can0 266#00002C2C00000000
(1763824857.037313) can0 118#456F3000000D0080
(1763824857.037551) can0 7D7#02F0320000000000
(1763824857.037796) can0 297#76481F0002A00F05
(1763824857.040222) can0 132#107200003840080E
(1763824857.040701) can0 055#0300000000000F67
(1763824857.041715) can0 1D5#2100000000008077
(1763824857.041973) can0 2E5#000000000000DD00
(1763824857.042342) can0 1D8#0800000000002001
(1763824857.047480) can0 266#00002C2C00000000
(1763824857.047735) can0 7D7#02F0320000000000
(1763824857.047966) can0 118#36603000000D0080
(1763824857.050217) can0 132#107200003840080E
(1763824857.050473) can0 055#0001000000000056
(1763824857.050693) can0 053#D43084C78F364615
(1763824857.051836) can0 1D5#210000000000A097
(1763824857.052091) can0 2E5#000000000000DD00
(1763824857.052331) can0 1D8#1800000000004031
(1763824857.057412) can0 266#00002C2C00000000
(1763824857.057659) can0 7D7#02F0320000000000
(1763824857.057901) can0 118#37613000000D0080
(1763824857.058126) can0 297#77491F0002A00F05
(1763824857.060305) can0 132#107200003840080E
(1763824857.060781) can0 055#0100000000000056
(1763824857.061735) can0 1D5#210000000000C0B7
(1763824857.061992) can0 2E5#000000000000DD00
(1763824857.062164) can0 39D#416F0A2800
(1763824857.062408) can0 1D8#1800000000006051
(1763824857.067622) can0 266#00002C2C00000000
(1763824857.067866) can0 7D7#02F0320000000000
(1763824857.068112) can0 118#38623000000D0080
(1763824857.070247) can0 132#107200003840080E
(1763824857.070490) can0 055#0201000000000058
(1763824857.070718) can0 053#D43084C78F364615
(1763824857.071628) can0 221#605555155451C1A8
(1763824857.071861) can0 3A1#884E0BC80000C074
(1763824857.072089) can0 3C2#1055555500005D19
(1763824857.072342) can0 1D8#1800000000008071
(1763824857.072563) can0 441#46652220DB0E30C0
(1763824857.072809) can0 1D5#210000000000E0D7
(1763824857.073053) can0 2E5#000000000000DD00
(1763824857.077416) can0 266#00002C2C00000000
(1763824857.077666) can0 7D7#02F0320000000000
(1763824857.077904) can0 118#39633000000D0080
(1763824857.078118) can0 166#2409000000B603
(1763824857.078357) can0 297#784A1F0002A00F05
(1763824857.078605) can0 1D6#00080800282D5F10
(1763824857.078782) can0 279#0C850C0000
(1763824857.079023) can0 395#F011073FFF00007D
(1763824857.079271) can0 108#1505000200000005
(1763824857.079387) can0 2B6#DA01
(1763824857.079643) can0 397#000000003B000000
(1763824857.079827) can0 128#83003802
(1763824857.080008) can0 268#2C2CFF01FF
(1763824857.080249) can0 132#107200003840080E
(1763824857.080697) can0 055#0300000000000058
(1763824857.081765) can0 1D5#21000000000000F7
(1763824857.082015) can0 2E5#000000000000DD00
(1763824857.082340) can0 1D8#180000000000A091
(1763824857.087621) can0 266#00002C2C00000000
(1763824857.087878) can0 7D7#02F0320000000000
(1763824857.088108) can0 118#3A643000000D0080
(1763824857.088350) can0 7D5#20FA000000000000
(1763824857.088599) can0 7D5#21FB00000000E015
(1763824857.088857) can0 7D5#2261000000000000
(1763824857.089098) can0 7D5#23FA000000001027
(1763824857.089387) can0 7D5#24FA000000000000
(1763824857.089637) can0 7D5#25AD000000007148
(1763824857.089877) can0 7D5#2660522100000000
(1763824857.090124) can0 7D5#27730000FAFA0000
(1763824857.090399) can0 7D5#280000000000FA00
(1763824857.090636) can0 132#107200003840080E
(1763824857.090883) can0 055#0001000000000157
(1763824857.091114) can0 053#D43084C78F364615
(1763824857.091359) can0 7D5#2900000062100000
(1763824857.091595) can0 7D5#2A0001FA43000000
(1763824857.091857) can0 7D5#2B00000000000000
(1763824857.092110) can0 7D5#2ECDFF1501000000
(1763824857.092354) can0 1D5#2100000000002017
(1763824857.092591) can0 1D8#180000000000C0B1
(1763824857.092844) can0 2E5#000000000000DD00
(1763824857.093084) can0 7D5#2F00000000004600
(1763824857.093324) can0 7D5#306E6E3566010000
(1763824857.093572) can0 7D5#3100000000000000
(1763824857.093822) can0 7D5#320E000000000000
(1763824857.094074) can0 7D5#3400000000000000
(1763824857.094338) can0 7D5#3F00000000000000
(1763824857.094583) can0 7D7#200300FAFAFAFA01
(1763824857.094827) can0 7D7#21FF0F00FAFA0000
(1763824857.095066) can0 7D7#2290650000000000
(1763824857.095327) can0 7D7#2300000000000000
(1763824857.095573) can0 7D7#2400000000000000
(1763824857.095832) can0 7D7#2500000000000000
(1763824857.096079) can0 7D7#2600000000000000
(1763824857.096319) can0 7D7#2700400000000000
(1763824857.096580) can0 7D7#2D00000000010000
(1763824857.096822) can0 7D7#322C000000000000
(1763824857.097060) can0 7D7#3590650000000000
(1763824857.097505) can0 266#00002C2C00000000
(1763824857.097749) can0 7D7#02F0320000000000
(1763824857.097985) can0 118#3B653000000D0080
(1763824857.098220) can0 297#794B1F0002A00F05
(1763824857.098631) can0 377#5030315F30370000
(1763824857.101097) can0 132#107200003840080E
(1763824857.101342) can0 055#0100000000000157
(1763824857.101760) can0 1D5#2100000000004037
(1763824857.102013) can0 2E5#000000000000DD00
(1763824857.102194) can0 39D#32600A2800
(1763824857.102431) can0 1D8#180000000000E0D1
(1763824857.107672) can0 266#03002C2C03000000
(1763824857.107926) can0 7D7#02F0320000000000
(1763824857.108160) can0 118#3C663000000D0080
(1763824857.110236) can0 132#107200003840080E
(1763824857.110480) can0 055#0201000000000159
(1763824857.110720) can0 053#D43084C78F364615
(1763824857.111862) can0 1D5#2100000000006057
(1763824857.112122) can0 2E5#000000000000DD00
(1763824857.112365) can0 1D8#18000000000000F1
(1763824857.113499) can0 056#040000000000005A
(1763824857.117463) can0 266#06002C2C04000000
(1763824857.117714) can0 7D7#02F0320000000000
(1763824857.117949) can0 118#3D673000000D0080
(1763824857.118195) can0 297#7A4C1F0002A00F05
(1763824857.118792) can0 6B1#0068000A100C0047
(1763824857.118997) can0 356#6E0B0700A000
(1763824857.119240) can0 355#5F006400B6030618
(1763824857.119481) can0 351#AC0B640010040009
(1763824857.120403) can0 132#107200003840080E
(1763824857.120872) can0 055#0300000000000159
(1763824857.121762) can0 1D5#2100000000008077
(1763824857.122007) can0 2E5#000000000000DD00
(1763824857.122255) can0 221#610555050000D0B3
(1763824857.122497) can0 1D8#1800000000002011
(1763824857.122728) can0 3A1#0300986EBE00D0A2
(1763824857.122957) can0 3C2#0155151500005509
(1763824857.123198) can0 441#00000000000035EF
(1763824857.123438) can0 052#6418138B64312000
(1763824857.123682) can0 339#4144FE0000038000
(1763824857.123913) can0 102#22B348040000A009
(1763824857.124149) can0 103#22B3884400002032
(1763824857.124409) can0 207#0000000000282800
(1763824857.124644) can0 224#0408004019011008
(1763824857.124852) can0 241#3C3C160F8F5500
(1763824857.125104) can0 247#100EFF0000000000
(1763824857.125351) can0 2A8#040000000080608E
(1763824857.125595) can0 2E8#04000000008060CE
(1763824857.125823) can0 2E1#76800800E1C37363
(1763824857.125942) can0 500#0101
(1763824857.126192) can0 7FF#0141535504041501
(1763824857.126426) can0 212#B904A32F01380001
(1763824857.126664) can0 252#C800030900000100
(1763824857.126919) can0 25D#3441012A08000000
(1763824857.127137) can0 2D2#EC2C343A6400B502
(1763824857.127283) can0 229#DD0600
(1763824857.127413) can0 2D1#FF01
(1763824857.127676) can0 266#0300020200000000
(1763824857.127858) can0 333#0030840702
(1763824857.128094) can0 118#3E683000000D0080
(1763824857.128338) can0 125#0A00680B00000000
(1763824857.128584) can0 126#00C200000E000000
(1763824857.128817) can0 3D9#42CD0A9A83C53172
(1763824857.129060) can0 7D7#02F0320000000000
(1763824857.130268) can0 132#107200003840080E
(1763824857.130504) can0 055#0001000000000258
(1763824857.130732) can0 053#D43084C78F364615
(1763824857.131886) can0 1D5#210000000000A097
(1763824857.132128) can0 2E5#000000000000DD00
(1763824857.132372) can0 1D8#210040000000407A
(1763824857.137023) can0 266#0000021900000000
(1763824857.137260) can0 118#3F693000000D0080
(1763824857.137504) can0 7D7#02F0320000000000
(1763824857.137736) can0 297#7B4D1F0002A00F05
(1763824857.140373) can0 132#107200003840080E
(1763824857.140621) can0 055#0100000000000258
(1763824857.141801) can0 1D5#210000000000C0B7
(1763824857.142050) can0 2E5#000000000000DD00
(1763824857.142237) can0 39D#33610A2800
(1763824857.142473) can0 1D8#21006000000060BA
(1763824857.147437) can0 266#0000021900000000
(1763824857.147680) can0 7D7#02F0320000000000
(1763824857.147922) can0 118#406A3000000D0080
(1763824857.150251) can0 132#107200003840080E
(1763824857.150504) can0 055#020100000000025A
(1763824857.150731) can0 053#D43084C78F364615
(1763824857.151873) can0 1D5#210000000000E0D7
(1763824857.152127) can0 2E5#000000000000DD00
(1763824857.152367) can0 1D8#21004000000080BA
(1763824857.157040) can0 266#0000021900000000
(1763824857.157279) can0 118#416B3000000D0080
(1763824857.157513) can0 7D7#02F0320000000000
(1763824857.157751) can0 297#7C4E1F0002A00F05
(1763824857.160316) can0 132#107200003840080E
(1763824857.160570) can0 055#030000000000025A
(1763824857.161801) can0 1D5#21000000000000F7
(1763824857.162055) can0 2E5#000000000000DD00
(1763824857.162369) can0 1D8#210020000000A0BA
(1763824857.167450) can0 266#0000021900000000
(1763824857.167702) can0 7D7#02F0320000000000
(1763824857.167939) can0 118#426C3000000D0080
(1763824857.170281) can0 132#107200003840080E
(1763824857.170533) can0 055#0001000000000359
(1763824857.170769) can0 55A#0100000030000000
(1763824857.170996) can0 053#D43084C78F364615
(1763824857.171905) can0 1D5#2100000000002017
(1763824857.172158) can0 2E5#000000000000DD00
(1763824857.172406) can0 1D8#210020000000C0DA
(1763824857.172627) can0 221#605555155451E1C8
(1763824857.172868) can0 3A1#884E0BC80000E094
(1763824857.173092) can0 3C2#1055555500005D19
(1763824857.173321) can0 441#46652220DB0E38C8
(1763824857.177018) can0 266#0000021900000000
(1763824857.177252) can0 118#436D3000000D0080
(1763824857.177515) can0 7D7#02F0320000000000
(1763824857.177737) can0 297#7D4F1F0002A00F05
(1763824857.177954) can0 166#2439000000B603
(1763824857.178197) can0 1D6#00080800282D7A10
(1763824857.178378) can0 279#0D860C0000
(1763824857.178622) can0 395#0111073E0000007D
(1763824857.178867) can0 108#1606000200000005
(1763824857.178984) can0 2B6#DA19
(1763824857.179368) can0 397#000000003B000000
(1763824857.179524) can0 128#83003802
(1763824857.179723) can0 268#02021E0067
(1763824857.180774) can0 132#107200003840080E
(1763824857.181018) can0 055#0100000000000359
(1763824857.181817) can0 1D5#2100000000004037
(1763824857.182071) can0 2E5#000000000000DD00
(1763824857.182247) can0 39D#34620A2800
(1763824857.182498) can0 1D8#210000000000E0DA
(1763824857.187465) can0 266#0000021900004F01
(1763824857.187720) can0 7D7#02F0320000000000
(1763824857.187952) can0 118#456E3100000D0080
(1763824857.188193) can0 7D5#20FA4D0100004E01
(1763824857.188426) can0 7D5#21FC00000300E015
(1763824857.188672) can0 7D5#22610000F4FF4602
(1763824857.188908) can0 7D5#23FA000080021027
(1763824857.189155) can0 7D5#24FA00000000FC04
(1763824857.189389) can0 7D5#25AA000000006F4B
(1763824857.189630) can0 7D5#2610522100000000
(1763824857.189883) can0 7D5#27730000FAFA0000
(1763824857.190139) can0 7D5#280000000000FA00
(1763824857.190373) can0 132#107200003840080E
(1763824857.190618) can0 055#020100000000035B
(1763824857.190836) can0 053#D43084C78F364615
(1763824857.191081) can0 7D5#2900000059100000
(1763824857.191327) can0 7D5#2A0002FA43000000
(1763824857.191577) can0 7D5#2B00000000000000
(1763824857.191836) can0 7D5#2E04041201000000
(1763824857.192078) can0 1D5#2100000000006057
(1763824857.192326) can0 1D8#21000000000000FA
(1763824857.192571) can0 2E5#000000000000DD00
(1763824857.192816) can0 7D5#2F00000000004600
(1763824857.193051) can0 7D5#306E6E3566010000
(1763824857.193297) can0 7D5#311E017A01970100
(1763824857.193552) can0 7D5#320E000000000000
(1763824857.193798) can0 7D5#3400000000000000
(1763824857.194056) can0 7D5#3F00000000000000
(1763824857.194304) can0 7D7#200300FAFAFAFA02
(1763824857.194550) can0 7D7#21FF0F00FAFA0000
(1763824857.194792) can0 7D7#2290650000000000
(1763824857.195058) can0 7D7#2300000000000000
(1763824857.195314) can0 7D7#2400000000000000
(1763824857.195567) can0 7D7#2500000000000000
(1763824857.195807) can0 7D7#2600000000000000
(1763824857.196056) can0 7D7#2700400000000000
(1763824857.196305) can0 7D7#2D00000000010000
(1763824857.196553) can0 7D7#3202000000000000
(1763824857.196804) can0 7D7#3590650000000000
(1763824857.197325) can0 266#0000021900004F01
(1763824857.197571) can0 7D7#02F0320000000000
(1763824857.197810) can0 118#466F3100000D0080
(1763824857.198047) can0 297#6E401F0002A00F05
(1763824857.198874) can0 379#9C00000000000000
(1763824857.201248) can0 132#107200003840080E
(1763824857.201497) can0 055#030000000000035B
(1763824857.201876) can0 1D5#2100000000008077
(1763824857.202130) can0 2E5#000000000000DD00
(1763824857.202375) can0 1D8#210000000000201A
(1763824857.207463) can0 266#0000021900004F01
(1763824857.207715) can0 7D7#02F0320000000000
(1763824857.207951) can0 118#37603100000D0080
(1763824857.211287) can0 132#107200003840080E
(1763824857.211547) can0 055#000100000000045A
(1763824857.211767) can0 053#D43084C78F364615
(1763824857.212304) can0 1D8#210000000000403A
(1763824857.212594) can0 056#040000000000015B
(1763824857.212925) can0 1D5#210000000000A097
(1763824857.213180) can0 2E5#000000000000DD00
(1763824857.217019) can0 266#0000021900004F01
(1763824857.217257) can0 118#38613100000D0080
(1763824857.217512) can0 7D7#02F0320000000000
(1763824857.217743) can0 297#6F411F0002A00F05
(1763824857.221291) can0 132#107200003840080E
(1763824857.221541) can0 055#010000000000045A
(1763824857.221735) can0 39D#35630A2800
(1763824857.221972) can0 221#610555050000F0D3
(1763824857.222201) can0 3A1#0300986EBE00F0C2
(1763824857.222447) can0 1D8#210000000000605A
(1763824857.222679) can0 3C2#0155151500005509
(1763824857.222920) can0 355#5F006400B6030618
(1763824857.223125) can0 356#6E0B0000A000
(1763824857.223357) can0 351#AC0B5A0010040009
(1763824857.223608) can0 441#0000000000003DF7
(1763824857.223852) can0 1D5#210000000000C0B7
(1763824857.224101) can0 2E5#000000000000DD00
(1763824857.224332) can0 052#6418138B64312000
(1763824857.224575) can0 339#4144FE0000038000
(1763824857.224811) can0 102#22B348040000A009
(1763824857.225046) can0 103#22B3884400002032
(1763824857.225296) can0 207#0000000000282800
(1763824857.225545) can0 224#0408004019011008
(1763824857.225752) can0 241#3C3C160F8F5500
(1763824857.225997) can0 247#100EFF0000000000
(1763824857.226238) can0 2A8#040000000080709E
(1763824857.226480) can0 2E8#04000000008070DE
(1763824857.226716) can0 2E1#10210B9EE4680004
(1763824857.226851) can0 500#0101
(1763824857.227100) can0 6B1#00680009100C0046
(1763824857.227324) can0 7FF#02263226441196A2
(1763824857.227559) can0 212#B904A32F01380001
(1763824857.227795) can0 252#C800030900000100
(1763824857.228035) can0 25D#3441012A08000000
(1763824857.228289) can0 266#0000021900004F01
(1763824857.228515) can0 2D2#EC2C343A6400B502
(1763824857.228749) can0 118#39623100000D0080
(1763824857.228890) can0 229#F90700
(1763824857.229026) can0 2D1#FF01
(1763824857.229219) can0 333#0030840702
(1763824857.229471) can0 125#4600680B0000020D
(1763824857.229710) can0 126#00C200000E000000
(1763824857.229937) can0 3D9#42CD0A9A83C53172
(1763824857.230187) can0 7D7#02F0320000000000
(1763824857.231322) can0 132#107200003840080E
(1763824857.231556) can0 055#020100000000045C
(1763824857.231778) can0 053#D43084C78F364615
(1763824857.232297) can0 1D8#210000000000807A
(1763824857.232935) can0 1D5#210000000000E0D7
(1763824857.233188) can0 2E5#000000000000DD00
(1763824857.237035) can0 266#0000021900004F01
(1763824857.237276) can0 118#3A633100000D0080
(1763824857.237517) can0 7D7#02F0320000000000
(1763824857.237758) can0 297#70421F0002A00F05
(1763824857.241296) can0 132#107200003840080E
(1763824857.241546) can0 055#030000000000045C
(1763824857.242319) can0 1D8#210000000000A09A
(1763824857.242860) can0 1D5#21000000000000F7
(1763824857.243117) can0 2E5#000000000000DD00
(1763824857.246798) can0 35B#9A0D0500
(1763824857.246966) can0 35A#00000000
(1763824857.247471) can0 266#0000021900004F01
(1763824857.247710) can0 7D7#02F0320000000000
(1763824857.247949) can0 118#3B643100000D0080
(1763824857.251337) can0 132#107200003840080E
(1763824857.251590) can0 055#000100000000055B
(1763824857.251806) can0 053#D43084C78F364615
(1763824857.252300) can0 1D8#210000000000C0BA
(1763824857.252971) can0 1D5#2100000000002017
(1763824857.253221) can0 2E5#000000000000DD00
(1763824857.257035) can0 266#0000021900004F01
(1763824857.257273) can0 118#3C653100000D0080
(1763824857.257522) can0 7D7#02F0320000000000
(1763824857.257757) can0 297#71431F0002A00F05
(1763824857.261345) can0 132#107200003840080E
(1763824857.261602) can0 055#010000000000055B
(1763824857.261772) can0 39D#36640A2800
(1763824857.262342) can0 1D8#210000000000E0DA
(1763824857.262879) can0 1D5#2100000000004037
(1763824857.263131) can0 2E5#000000000000DD00
(1763824857.267465) can0 266#0000021900004F01
(1763824857.267728) can0 7D7#02F0320000000000
(1763824857.267953) can0 118#3D663100000D0080
(1763824857.271346) can0 132#107200003840080E
(1763824857.271599) can0 055#020100000000055D
(1763824857.271815) can0 053#D43084C78F364615
(1763824857.272300) can0 1D8#21000000000000FA
(1763824857.272720) can0 221#60555515545101E8
(1763824857.272961) can0 3A1#884E0BC8000000B4
(1763824857.273189) can0 3C2#1055555500005D19
(1763824857.273420) can0 441#46652220DB0E0090
