  can0  6B1   [8]  00 68 00 0A 10 0C 00 47
  can0  356   [6]  6E 0B 00 00 A0 00
  can0  355   [8]  5F 00 64 00 B6 03 06 18
  can0  351   [8]  AC 0B 64 00 10 04 00 09
  can0  377   [8]  50 30 31 5F 30 37 00 00
  can0  6B1   [8]  00 68 00 0A 10 0C 00 47
  can0  356   [6]  6E 0B 00 00 A0 00
  can0  355   [8]  5F 00 64 00 B6 03 06 18
  can0  351   [8]  AC 0B 64 00 10 04 00 09
  can0  35B   [4]  96 10 05 00
  can0  35A   [4]  00 00 00 00
  can0  379   [8]  9C 00 00 00 00 00 00 00
  can0  6B1   [8]  00 68 00 0A 10 0C 00 47
  can0  356   [6]  6E 0B 00 00 A0 00
  can0  355   [8]  5F 00 64 00 B6 03 06 18
  can0  351   [8]  AC 0B 64 00 10 04 00 09
  can0  380   [8]  4C 35 41 41 36 34 30 33
  can0  6B1   [8]  00 68 00 0A 10 0C 00 47
  can0  356   [6]  6E 0B 00 00 A0 00
  can0  355   [8]  5F 00 64 00 B6 03 06 18
  can0  351   [8]  AC 0B 64 00 10 04 00 09
  can0  381   [8]  FF FF FF 00 00 00 00 00
  can0  6B1   [8]  00 68 00 0A 10 0C 00 47
  can0  356   [6]  6E 0B 00 00 A0 00
  can0  355   [8]  5F 00 64 00 B6 03 06 18
  can0  351   [8]  AC 0B 64 00 10 04 00 09
  can0  374   [8]  50 30 31 5F 30 37 30 00
  can0  6B1   [8]  00 68 00 0A 10 0C 00 47
  can0  356   [6]  6E 0B 00 00 A0 00
  can0  355   [8]  5F 00 64 00 B6 03 06 18
  can0  351   [8]  AC 0B 64 00 10 04 00 09
  can0  375   [8]  50 30 31 5F 30 32 31 00
  can0  6B1   [8]  00 68 00 0A 10 0C 00 47
  can0  356   [6]  6E 0B 00 00 A0 00
  can0  355   [8]  5F 00 64 00 B6 03 06 18
  can0  351   [8]  AC 0B 64 00 10 04 00 09
  can0  35B   [4]  96 10 05 00
  can0  35A   [4]  00 00 00 00
  can0  376   [8]  50 30 31 5F 30 34 00 00
  can0  6B1   [8]  00 68 00 0A 10 0C 00 47
  can0  356   [6]  6E 0B 00 00 A0 00
  can0  355   [8]  5F 00 64 00 B6 03 06 18
  can0  351   [8]  AC 0B 64 00 10 04 00 09
  can0  377   [8]  50 30 31 5F 30 37 00 00
  can0  6B1   [8]  00 68 00 0A 10 0C 00 47
  can0  356   [6]  6E 0B 00 00 A0 00
  can0  355   [8]  5F 00 64 00 B6 03 06 18
  can0  351   [8]  AC 0B 64 00 10 04 00 09
  can0  379   [8]  9C 00 00 00 00 00 00 00
  can0  6B1   [8]  00 68 00 0A 10 0C 00 47
  can0  356   [6]  6E 0B 00 00 A0 00
  can0  355   [8]  5F 00 64 00 B6 03 06 18
  can0  351   [8]  AC 0B 64 00 10 04 00 09
  can0  380   [8]  4C 35 41 41 36 34 30 33
  can0  6B1   [8]  00 68 00 0A 10 0C 00 47
  can0  356   [6]  6E 0B 00 00 A0 00
  can0  355   [8]  5F 00 64 00 B6 03 06 18
  can0  351   [8]  AC 0B 64 00 10 04 00 09
  can0  381   [8]  FF FF FF 00 00 00 00 00
  can0  6B1   [8]  00 68 00 0A 10 0C 00 47
  can0  35A   [4]  00 00 00 00
  can0  356   [6]  6E 0B 00 00 A0 00
  can0  355   [8]  5F 00 64 00 B6 03 06 18
  can0  351   [8]  AC 0B 64 00 10 04 00 09
  can0  35B   [4]  93 10 05 00
  can0  374   [8]  50 30 31 5F 30 37 30 00
  can0  6B1   [8]  00 68 00 0A 10 0C 00 47
  can0  356   [6]  6E 0B 00 00 A0 00
  can0  355   [8]  5F 00 64 00 B6 03 06 18
  can0  351   [8]  AC 0B 64 00 10 04 00 09
  can0  375   [8]  50 30 31 5F 30 32 31 00
  can0  376   [8]  50 30 31 5F 30 34 00 00
  can0  6B1   [8]  00 68 00 0A 10 0C 00 47
  can0  356   [6]  6E 0B 00 00 A0 00
  can0  355   [8]  5F 00 64 00 B6 03 06 18
  can0  351   [8]  AC 0B 64 00 10 04 00 09
  can0  377   [8]  50 30 31 5F 30 37 00 00
  can0  6B1   [8]  00 68 00 0A 10 0C 00 47
  can0  356   [6]  6E 0B 00 00 A0 00
  can0  355   [8]  5F 00 64 00 B6 03 06 18
  can0  351   [8]  AC 0B 64 00 10 04 00 09
  can0  379   [8]  9C 00 00 00 00 00 00 00
  can0  6B1   [8]  00 68 00 0A 10 0D 00 48
  can0  356   [6]  6E 0B 00 00 A0 00
  can0  355   [8]  5F 00 64 00 B6 03 06 18
  can0  351   [8]  AC 0B 64 00 10 04 00 09
  can0  35B   [4]  96 10 05 00
  can0  35A   [4]  00 00 00 00
  can0  380   [8]  4C 35 41 41 36 34 30 33
  can0  6B1   [8]  00 68 00 0A 10 0D 00 48
  can0  356   [6]  6E 0B 00 00 A0 00
  can0  355   [8]  5F 00 64 00 B6 03 06 18
  can0  351   [8]  AC 0B 64 00 10 04 00 09
  can0  381   [8]  FF FF FF 00 00 00 00 00
  can0  6B1   [8]  00 68 00 0A 10 0D 00 48
  can0  356   [6]  6E 0B 00 00 A0 00
  can0  355   [8]  5F 00 64 00 B6 03 06 18
  can0  351   [8]  AC 0B 64 00 10 04 00 09
  can0  374   [8]  50 30 31 5F 30 37 30 00
  can0  6B1   [8]  00 68 00 0A 10 0D 00 48
  can0  356   [6]  6E 0B 00 00 A0 00
  can0  355   [8]  5F 00 64 00 B6 03 06 18
  can0  351   [8]  AC 0B 64 00 10 04 00 09
  can0  375   [8]  50 30 31 5F 30 32 31 00
  can0  6B1   [8]  00 68 00 0A 10 0D 00 48
  can0  356   [6]  6E 0B 00 00 A0 00
  can0  355   [8]  5F 00 64 00 B6 03 06 18
  can0  351   [8]  AC 0B 64 00 10 04 00 09
  can0  376   [8]  50 30 31 5F 30 31 00 00
  can0  6B1   [8]  00 68 00 0A 10 0D 00 48
  can0  356   [6]  6E 0B 00 00 A0 00
  can0  355   [8]  5F 00 64 00 B6 03 06 18
  can0  351   [8]  AC 0B 64 00 10 04 00 09
  can0  377   [8]  50 30 31 5F 30 37 00 00
  can0  35B   [4]  96 10 05 00
  can0  35A   [4]  00 00 00 00
  can0  6B1   [8]  00 68 00 0A 10 0D 00 48
  can0  356   [6]  6E 0B 00 00 A0 00
  can0  355   [8]  5F 00 64 00 B6 03 06 18
  can0  351   [8]  AC 0B 64 00 10 04 00 09
  can0  379   [8]  9C 00 00 00 00 00 00 00
  can0  6B1   [8]  00 68 00 0A 10 0D 00 48
  can0  356   [6]  6E 0B 00 00 A0 00
  can0  355   [8]  5F 00 64 00 B6 03 06 18
  can0  351   [8]  AC 0B 64 00 10 04 00 09
  can0  380   [8]  4C 35 41 41 36 34 30 33
  can0  6B1   [8]  00 68 00 0A 10 0D 00 48
  can0  356   [6]  6E 0B 00 00 A0 00
  can0  355   [8]  5F 00 64 00 B6 03 06 18
  can0  351   [8]  AC 0B 64 00 10 04 00 09
  can0  381   [8]  FF FF FF 00 00 00 00 00
  can0  6B1   [8]  00 68 00 0A 10 0C 00 47
  can0  356   [6]  6E 0B 00 00 A0 00
  can0  355   [8]  5F 00 64 00 B6 03 06 18
  can0  351   [8]  AC 0B 64 00 10 04 00 09
  can0  374   [8]  50 30 31 5F 30 37 30 00
  can0  6B1   [8]  00 68 00 0A 10 0C 00 47
  can0  356   [6]  6E 0B 00 00 A0 00
  can0  355   [8]  5F 00 64 00 B6 03 06 18
  can0  351   [8]  AC 0B 64 00 10 04 00 09
  can0  375   [8]  50 30 31 5F 30 32 31 00
  can0  35B   [4]  96 10 05 00
  can0  35A   [4]  00 00 00 00
  can0  6B1   [8]  00 68 00 0A 10 0C 00 47
  can0  356   [6]  6E 0B 00 00 A0 00
  can0  355   [8]  5F 00 64 00 B6 03 06 18
  can0  351   [8]  AC 0B 64 00 10 04 00 09
  can0  376   [8]  50 30 31 5F 30 34 00 00
  can0  6B1   [8]  00 68 00 0A 10 0C 00 47
  can0  356   [6]  6E 0B 00 00 A0 00
  can0  355   [8]  5F 00 64 00 B6 03 06 18
  can0  351   [8]  AC 0B 64 00 10 04 00 09
  can0  377   [8]  50 30 31 5F 30 37 00 00
  can0  6B1   [8]  00 68 00 0A 10 0C 00 47
  can0  356   [6]  6F 0B 00 00 A0 00
  can0  355   [8]  5F 00 64 00 B6 03 06 18
  can0  351   [8]  AC 0B 64 00 10 04 00 09
  can0  379   [8]  9C 00 00 00 00 00 00 00
  can0  6B1   [8]  00 68 00 0A 10 0C 00 47
  can0  356   [6]  6E 0B 00 00 A0 00
  can0  355   [8]  5F 00 64 00 B6 03 06 18
  can0  351   [8]  AC 0B 64 00 10 04 00 09
  can0  380   [8]  4C 35 41 41 36 34 30 33
  can0  6B1   [8]  00 68 00 0A 10 0C 00 47
  can0  356   [6]  6E 0B 00 00 A0 00
  can0  355   [8]  5F 00 64 00 B6 03 06 18
  can0  351   [8]  AC 0B 64 00 10 04 00 09
  can0  381   [8]  FF FF FF 00 00 00 00 00
  can0  35B   [4]  96 10 05 00
  can0  35A   [4]  00 00 00 00
  can0  6B1   [8]  00 68 00 0A 10 0C 00 47
  can0  356   [6]  6E 0B 00 00 A0 00
  can0  355   [8]  5F 00 64 00 B6 03 06 18
  can0  351   [8]  AC 0B 64 00 10 04 00 09
  can0  374   [8]  50 30 31 5F 30 37 30 00
  can0  6B1   [8]  00 68 00 0A 10 0C 00 47
  can0  356   [6]  6E 0B 00 00 A0 00
  can0  355   [8]  5F 00 64 00 B6 03 06 18
  can0  351   [8]  AC 0B 64 00 10 04 00 09
  can0  375   [8]  50 30 31 5F 30 32 31 00
  can0  6B1   [8]  00 68 00 0A 10 0C 00 47
  can0  356   [6]  6E 0B 00 00 A0 00
  can0  355   [8]  5F 00 64 00 B6 03 06 18
  can0  351   [8]  AC 0B 64 00 10 04 00 09
  can0  376   [8]  50 30 31 5F 30 34 00 00
  can0  6B1   [8]  00 68 00 0A 10 0C 00 47
  can0  356   [6]  6E 0B 00 00 A0 00
  can0  355   [8]  5F 00 64 00 B6 03 06 18
  can0  351   [8]  AC 0B 64 00 10 04 00 09
  can0  377   [8]  50 30 31 5F 30 37 00 00
  can0  6B1   [8]  00 68 00 0A 10 0C 00 47
  can0  356   [6]  6E 0B 00 00 A0 00
  can0  355   [8]  5F 00 64 00 B6 03 06 18
  can0  351   [8]  AC 0B 64 00 10 04 00 09
  can0  379   [8]  9C 00 00 00 00 00 00 00
  can0  35B   [4]  96 10 05 00
  can0  35A   [4]  00 00 00 00
  can0  6B1   [8]  00 68 00 0A 10 0C 00 47
  can0  356   [6]  6E 0B 00 00 A0 00
  can0  355   [8]  5F 00 64 00 B6 03 06 18
  can0  351   [8]  AC 0B 64 00 10 04 00 09
  can0  380   [8]  4C 35 41 41 36 34 30 33
  can0  6B1   [8]  00 68 00 0A 10 0C 00 47
  can0  356   [6]  6E 0B 00 00 A0 00
  can0  355   [8]  5F 00 64 00 B6 03 06 18
  can0  351   [8]  AC 0B 64 00 10 04 00 09
  can0  381   [8]  FF FF FF 00 00 00 00 00
  can0  374   [8]  50 30 31 5F 30 37 30 00
  can0  6B1   [8]  00 68 00 0A 10 0C 00 47
  can0  356   [6]  6E 0B 00 00 A0 00
  can0  355   [8]  5F 00 64 00 B6 03 06 18
  can0  351   [8]  AC 0B 64 00 10 04 00 09
  can0  375   [8]  50 30 31 5F 30 32 31 00
  can0  6B1   [8]  00 68 00 0A 10 0C 00 47
  can0  356   [6]  6E 0B 00 00 A0 00
  can0  355   [8]  5F 00 64 00 B6 03 06 18
  can0  351   [8]  AC 0B 64 00 10 04 00 09
  can0  376   [8]  50 30 31 5F 30 34 00 00
  can0  6B1   [8]  00 68 00 0A 10 0C 00 47
  can0  356   [6]  6E 0B 00 00 A0 00
  can0  355   [8]  5F 00 64 00 B6 03 06 18
  can0  351   [8]  AC 0B 64 00 10 04 00 09
  can0  35B   [4]  96 10 05 00
  can0  35A   [4]  00 00 00 00
  can0  377   [8]  50 30 31 5F 30 37 00 00
  can0  6B1   [8]  00 68 00 0A 10 0C 00 47
  can0  356   [6]  6E 0B 00 00 A0 00
  can0  355   [8]  5F 00 64 00 B6 03 06 18
  can0  351   [8]  AC 0B 64 00 10 04 00 09
  can0  379   [8]  9C 00 00 00 00 00 00 00
  can0  6B1   [8]  00 68 00 0A 10 0C 00 47
  can0  356   [6]  6E 0B 00 00 A0 00
  can0  355   [8]  5F 00 64 00 B6 03 06 18
  can0  351   [8]  AC 0B 64 00 10 04 00 09
  can0  380   [8]  4C 35 41 41 36 34 30 33
  can0  6B1   [8]  00 68 00 0A 10 0C 00 47
  can0  356   [6]  6E 0B 00 00 A0 00
  can0  355   [8]  5F 00 64 00 B6 03 06 18
  can0  351   [8]  AC 0B 64 00 10 04 00 09
  can0  381   [8]  FF FF FF 00 00 00 00 00
  can0  6B1   [8]  00 68 00 0A 10 0C 00 47
  can0  356   [6]  6E 0B 00 00 A0 00
  can0  355   [8]  5F 00 64 00 B6 03 06 18
  can0  351   [8]  AC 0B 64 00 10 04 00 09
  can0  374   [8]  50 30 31 5F 30 37 30 00
  can0  35B   [4]  96 10 05 00
  can0  35A   [4]  00 00 00 00
  can0  6B1   [8]  00 68 00 0A 10 0C 00 47
  can0  356   [6]  6E 0B 00 00 A0 00
  can0  355   [8]  5F 00 64 00 B6 03 06 18
  can0  351   [8]  AC 0B 64 00 10 04 00 09
  can0  375   [8]  50 30 31 5F 30 32 31 00
  can0  6B1   [8]  00 68 00 0A 10 0C 00 47
  can0  356   [6]  6E 0B 00 00 A0 00
  can0  355   [8]  5F 00 64 00 B6 03 06 18
  can0  351   [8]  AC 0B 64 00 10 04 00 09
  can0  376   [8]  50 30 31 5F 30 34 00 00
  can0  6B1   [8]  00 68 00 0A 10 0C 00 47
  can0  356   [6]  6E 0B 00 00 A0 00
  can0  355   [8]  5F 00 64 00 B6 03 06 18
  can0  351   [8]  AC 0B 64 00 10 04 00 09
  can0  377   [8]  50 30 31 5F 30 37 00 00
  can0  6B1   [8]  00 68 00 0A 10 0C 00 47
  can0  356   [6]  6E 0B 00 00 A0 00
  can0  355   [8]  5F 00 64 00 B6 03 06 18
  can0  351   [8]  AC 0B 64 00 10 04 00 09
  can0  379   [8]  9C 00 00 00 00 00 00 00
  can0  6B1   [8]  00 68 00 0A 10 0C 00 47
  can0  356   [6]  6E 0B 00 00 A0 00
  can0  355   [8]  5F 00 64 00 B6 03 06 18
  can0  351   [8]  AC 0B 64 00 10 04 00 09
  can0  380   [8]  4C 35 41 41 36 34 30 33
  can0  35B   [4]  93 10 05 00
  can0  35A   [4]  00 00 00 00
  can0  6B1   [8]  00 68 00 0A 10 0C 00 47
  can0  356   [6]  6E 0B 00 00 A0 00
  can0  355   [8]  5F 00 64 00 B6 03 06 18
  can0  351   [8]  AC 0B 64 00 10 04 00 09
  can0  381   [8]  FF FF FF 00 00 00 00 00
  can0  6B1   [8]  00 68 00 0A 10 0C 00 47
  can0  356   [6]  6E 0B 00 00 A0 00
  can0  355   [8]  5F 00 64 00 B6 03 06 18
  can0  351   [8]  AC 0B 64 00 10 04 00 09
  can0  374   [8]  50 30 31 5F 30 37 30 00
  can0  6B1   [8]  00 68 00 0A 10 0C 00 47
  can0  356   [6]  6E 0B 00 00 A0 00
  can0  355   [8]  5F 00 64 00 B6 03 06 18
  can0  351   [8]  AC 0B 64 00 10 04 00 09
  can0  375   [8]  50 30 31 5F 30 32 31 00
  can0  6B1   [8]  00 68 00 0A 10 0C 00 47
  can0  356   [6]  6E 0B 00 00 A0 00
  can0  355   [8]  5F 00 64 00 B6 03 06 18
  can0  351   [8]  AC 0B 64 00 10 04 00 09
  can0  376   [8]  50 30 31 5F 30 34 00 00
  can0  6B1   [8]  00 68 00 0A 10 0C 00 47
  can0  356   [6]  6E 0B 00 00 A0 00
  can0  355   [8]  5F 00 64 00 B6 03 06 18
  can0  351   [8]  AC 0B 64 00 10 04 00 09
  can0  377   [8]  50 30 31 5F 30 37 00 00
  can0  35B   [4]  93 10 05 00
  can0  35A   [4]  00 00 00 00
  can0  6B1   [8]  00 68 00 0A 10 0C 00 47
  can0  356   [6]  6E 0B 00 00 A0 00
  can0  355   [8]  5F 00 64 00 B6 03 06 18
  can0  351   [8]  AC 0B 64 00 10 04 00 09
  can0  379   [8]  9C 00 00 00 00 00 00 00
  can0  6B1   [8]  00 68 00 0A 10 0C 00 47
  can0  356   [6]  6E 0B 00 00 A0 00
  can0  355   [8]  5F 00 64 00 B6 03 06 18
  can0  351   [8]  AC 0B 64 00 10 04 00 09
  can0  380   [8]  4C 35 41 41 36 34 30 33
  can0  6B1   [8]  00 68 00 0A 10 0C 00 47
  can0  356   [6]  6E 0B 00 00 A0 00
  can0  355   [8]  5F 00 64 00 B6 03 06 18
  can0  351   [8]  AC 0B 64 00 10 04 00 09
  can0  381   [8]  FF FF FF 00 00 00 00 00
  can0  6B1   [8]  00 68 00 0A 10 0C 00 47
  can0  356   [6]  6E 0B 00 00 A0 00
  can0  355   [8]  5F 00 64 00 B6 03 06 18
  can0  351   [8]  AC 0B 64 00 10 04 00 09
  can0  374   [8]  50 30 31 5F 30 37 30 00
  can0  6B1   [8]  00 68 00 0A 10 0C 00 47
  can0  356   [6]  6E 0B 00 00 A0 00
  can0  355   [8]  5F 00 64 00 B6 03 06 18
  can0  351   [8]  AC 0B 64 00 10 04 00 09
  can0  375   [8]  50 30 31 5F 30 32 31 00
  can0  35B   [4]  96 10 05 00
  can0  35A   [4]  00 00 00 00
  can0  6B1   [8]  00 68 00 0A 10 0C 00 47
  can0  356   [6]  6E 0B 00 00 A0 00
  can0  355   [8]  5F 00 64 00 B6 03 06 18
  can0  351   [8]  AC 0B 64 00 10 04 00 09
  can0  376   [8]  50 30 31 5F 30 34 00 00
  can0  6B1   [8]  00 68 00 0A 10 0C 00 47
  can0  356   [6]  6E 0B 00 00 A0 00
  can0  355   [8]  5F 00 64 00 B6 03 06 18
  can0  351   [8]  AC 0B 64 00 10 04 00 09
  can0  377   [8]  50 30 31 5F 30 37 00 00
  can0  6B1   [8]  00 68 00 0A 10 0C 00 47
  can0  356   [6]  6E 0B 00 00 A0 00
  can0  355   [8]  5F 00 64 00 B6 03 06 18
  can0  351   [8]  AC 0B 64 00 10 04 00 09
  can0  379   [8]  9C 00 00 00 00 00 00 00
  can0  380   [8]  4C 35 41 41 36 34 30 33
  can0  6B1   [8]  00 68 00 0A 10 0C 00 47
  can0  356   [6]  6E 0B 00 00 A0 00
  can0  355   [8]  5F 00 64 00 B6 03 06 18
  can0  351   [8]  AC 0B 64 00 10 04 00 09
  can0  381   [8]  FF FF FF 00 00 00 00 00
  can0  6B1   [8]  00 68 00 0A 10 0C 00 47
  can0  356   [6]  6E 0B 00 00 A0 00
  can0  355   [8]  5F 00 64 00 B6 03 06 18
  can0  351   [8]  AC 0B 64 00 10 04 00 09
  can0  35B   [4]  98 10 05 00
  can0  35A   [4]  00 00 00 00
  can0  374   [8]  50 30 31 5F 30 37 30 00
  can0  6B1   [8]  00 68 00 0A 10 0C 00 47
  can0  356   [6]  6E 0B 00 00 A0 00
  can0  355   [8]  5F 00 64 00 B6 03 06 18
  can0  351   [8]  AC 0B 64 00 10 04 00 09
  can0  375   [8]  50 30 31 5F 30 32 31 00
  can0  6B1   [8]  00 68 00 0A 10 0C 00 47
  can0  356   [6]  6E 0B 00 00 A0 00
  can0  355   [8]  5F 00 64 00 B6 03 06 18
  can0  351   [8]  AC 0B 64 00 10 04 00 09
  can0  376   [8]  50 30 31 5F 30 34 00 00
  can0  6B1   [8]  00 68 00 0A 10 0C 00 47
  can0  356   [6]  6E 0B 00 00 A0 00
  can0  355   [8]  5F 00 64 00 B6 03 06 18
  can0  351   [8]  AC 0B 64 00 10 04 00 09
  can0  377   [8]  50 30 31 5F 30 37 00 00
  can0  6B1   [8]  00 68 00 0A 10 0C 00 47
  can0  356   [6]  6E 0B 00 00 A0 00
  can0  355   [8]  5F 00 64 00 B6 03 06 18
  can0  351   [8]  AC 0B 64 00 10 04 00 09
  can0  379   [8]  9C 00 00 00 00 00 00 00
  can0  6B1   [8]  00 68 00 0A 10 0C 00 47
  can0  356   [6]  6E 0B 00 00 A0 00
  can0  355   [8]  5F 00 64 00 B6 03 06 18
  can0  351   [8]  AC 0B 64 00 10 04 00 09
  can0  35B   [4]  98 10 05 00
  can0  35A   [4]  00 00 00 00
  can0  380   [8]  4C 35 41 41 36 34 30 33
  can0  6B1   [8]  00 68 00 0A 10 0C 00 47
  can0  356   [6]  6E 0B 00 00 A0 00
  can0  355   [8]  5F 00 64 00 B6 03 06 18
  can0  351   [8]  AC 0B 64 00 10 04 00 09
  can0  381   [8]  FF FF FF 00 00 00 00 00
  can0  6B1   [8]  00 68 00 0A 10 0C 00 47
  can0  356   [6]  6E 0B 00 00 A0 00
  can0  355   [8]  5F 00 64 00 B6 03 06 18
  can0  351   [8]  AC 0B 64 00 10 04 00 09
  can0  374   [8]  50 30 31 5F 30 37 30 00
  can0  6B1   [8]  00 68 00 0A 10 0C 00 47
  can0  356   [6]  6E 0B 00 00 A0 00
  can0  355   [8]  5F 00 64 00 B6 03 06 18
  can0  351   [8]  AC 0B 64 00 10 04 00 09
  can0  375   [8]  50 30 31 5F 30 32 31 00
  can0  6B1   [8]  00 68 00 0A 10 0C 00 47
  can0  356   [6]  6E 0B 00 00 A0 00
  can0  355   [8]  5F 00 64 00 B6 03 06 18
  can0  351   [8]  AC 0B 64 00 10 04 00 09
  can0  376   [8]  50 30 31 5F 30 34 00 00
  can0  6B1   [8]  00 68 00 0A 10 0C 00 47
  can0  35A   [4]  00 00 00 00
  can0  356   [6]  6E 0B 00 00 A0 00
  can0  355   [8]  5F 00 64 00 B6 03 06 18
  can0  351   [8]  AC 0B 64 00 10 04 00 09
  can0  35B   [4]  98 10 05 00
  can0  377   [8]  50 30 31 5F 30 37 00 00
  can0  6B1   [8]  00 68 00 0A 10 0C 00 47
  can0  356   [6]  6E 0B 00 00 A0 00
  can0  355   [8]  5F 00 64 00 B6 03 06 18
  can0  351   [8]  AC 0B 64 00 10 04 00 09
  can0  379   [8]  9C 00 00 00 00 00 00 00
  can0  6B1   [8]  00 68 00 0A 10 0C 00 47
  can0  356   [6]  6E 0B 00 00 A0 00
  can0  355   [8]  5F 00 64 00 B6 03 06 18
  can0  351   [8]  AC 0B 64 00 10 04 00 09
  can0  380   [8]  4C 35 41 41 36 34 30 33
  can0  6B1   [8]  00 68 00 0A 10 0C 00 47
  can0  356   [6]  6E 0B 00 00 A0 00
  can0  355   [8]  5F 00 64 00 B6 03 06 18
  can0  351   [8]  AC 0B 64 00 10 04 00 09
  can0  381   [8]  FF FF FF 00 00 00 00 00
  can0  6B1   [8]  00 68 00 0A 10 0C 00 47
  can0  356   [6]  6E 0B 00 00 A0 00
  can0  355   [8]  5F 00 64 00 B6 03 06 18
  can0  351   [8]  AC 0B 64 00 10 04 00 09
  can0  374   [8]  50 30 31 5F 30 37 30 00
  can0  35B   [4]  98 10 05 00
  can0  35A   [4]  00 00 00 00
  can0  6B1   [8]  00 68 00 0A 10 0C 00 47
  can0  356   [6]  6E 0B 00 00 A0 00
  can0  355   [8]  5F 00 64 00 B6 03 06 18
  can0  351   [8]  AC 0B 64 00 10 04 00 09
  can0  375   [8]  50 30 31 5F 30 32 31 00
  can0  6B1   [8]  00 68 00 0A 10 0C 00 47
  can0  356   [6]  6F 0B 00 00 A0 00
  can0  355   [8]  5F 00 64 00 B6 03 06 18
  can0  351   [8]  AC 0B 64 00 10 04 00 09
  can0  376   [8]  50 30 31 5F 30 34 00 00
  can0  6B1   [8]  00 68 00 0A 10 0C 00 47
  can0  356   [6]  6E 0B 00 00 A0 00
  can0  355   [8]  5F 00 64 00 B6 03 06 18
  can0  351   [8]  AC 0B 64 00 10 04 00 09
  can0  377   [8]  50 30 31 5F 30 37 00 00
  can0  6B1   [8]  00 68 00 0A 10 0C 00 47
  can0  356   [6]  6E 0B 00 00 A0 00
  can0  355   [8]  5F 00 64 00 B6 03 06 18
  can0  351   [8]  AC 0B 64 00 10 04 00 09
  can0  379   [8]  9C 00 00 00 00 00 00 00
  can0  6B1   [8]  00 68 00 0A 10 0C 00 47
  can0  356   [6]  6E 0B 00 00 A0 00
  can0  355   [8]  5F 00 64 00 B6 03 06 18
  can0  351   [8]  AC 0B 64 00 10 04 00 09
  can0  380   [8]  4C 35 41 41 36 34 30 33
  can0  35B   [4]  96 10 05 00
  can0  35A   [4]  00 00 00 00
  can0  6B1   [8]  00 68 00 0A 10 0C 00 47
  can0  356   [6]  6E 0B 00 00 A0 00
  can0  355   [8]  5F 00 64 00 B6 03 06 18
  can0  351   [8]  AC 0B 64 00 10 04 00 09
  can0  381   [8]  FF FF FF 00 00 00 00 00
  can0  6B1   [8]  00 68 00 0A 10 0C 00 47
  can0  356   [6]  6E 0B 00 00 A0 00
  can0  355   [8]  5F 00 64 00 B6 03 06 18
  can0  351   [8]  AC 0B 64 00 10 04 00 09
  can0  374   [8]  50 30 31 5F 30 37 30 00
  can0  6B1   [8]  00 68 00 0A 10 0C 00 47
  can0  356   [6]  6E 0B 00 00 A0 00
  can0  355   [8]  5F 00 64 00 B6 03 06 18
  can0  351   [8]  AC 0B 64 00 10 04 00 09
  can0  375   [8]  50 30 31 5F 30 32 31 00
  can0  6B1   [8]  00 68 00 0A 10 0C 00 47
  can0  356   [6]  6E 0B 00 00 A0 00
  can0  355   [8]  5F 00 64 00 B6 03 06 18
  can0  351   [8]  AC 0B 64 00 10 04 00 09
  can0  376   [8]  50 30 31 5F 30 34 00 00
  can0  377   [8]  50 30 31 5F 30 37 00 00
  can0  6B1   [8]  00 68 00 0A 10 0C 00 47
  can0  356   [6]  6E 0B 00 00 A0 00
  can0  355   [8]  5F 00 64 00 B6 03 06 18
  can0  351   [8]  AC 0B 64 00 10 04 00 09
  can0  35B   [4]  98 10 05 00
  can0  35A   [4]  00 00 00 00
  can0  379   [8]  9C 00 00 00 00 00 00 00
  can0  6B1   [8]  00 68 00 0A 10 0C 00 47
  can0  356   [6]  6E 0B 00 00 A0 00
  can0  355   [8]  5F 00 64 00 B6 03 06 18
  can0  351   [8]  AC 0B 64 00 10 04 00 09
  can0  380   [8]  4C 35 41 41 36 34 30 33
  can0  6B1   [8]  00 68 00 0A 10 0C 00 47
  can0  356   [6]  6E 0B 00 00 A0 00
  can0  355   [8]  5F 00 64 00 B6 03 06 18
  can0  351   [8]  AC 0B 64 00 10 04 00 09
  can0  381   [8]  FF FF FF 00 00 00 00 00
  can0  6B1   [8]  00 68 00 0A 10 0C 00 47
  can0  356   [6]  6E 0B 00 00 A0 00
  can0  355   [8]  5F 00 64 00 B6 03 06 18
  can0  351   [8]  AC 0B 64 00 10 04 00 09
  can0  374   [8]  50 30 31 5F 30 37 30 00
  can0  6B1   [8]  00 68 00 0A 10 0C 00 47
  can0  356   [6]  6E 0B 00 00 A0 00
  can0  355   [8]  5F 00 64 00 B6 03 06 18
  can0  351   [8]  AC 0B 64 00 10 04 00 09
  can0  375   [8]  50 30 31 5F 30 32 31 00
  can0  6B1   [8]  00 68 00 0A 10 0C 00 47
  can0  356   [6]  6E 0B 00 00 A0 00
  can0  355   [8]  5F 00 64 00 B6 03 06 18
  can0  351   [8]  AC 0B 64 00 10 04 00 09
  can0  35B   [4]  96 10 05 00
  can0  35A   [4]  00 00 00 00
  can0  376   [8]  50 30 31 5F 30 34 00 00
  can0  6B1   [8]  00 68 00 0A 10 0C 00 47
  can0  356   [6]  6E 0B 00 00 A0 00
  can0  355   [8]  5F 00 64 00 B6 03 06 18
  can0  351   [8]  AC 0B 64 00 10 04 00 09
  can0  377   [8]  50 30 31 5F 30 37 00 00
  can0  6B1   [8]  00 68 00 0A 10 0C 00 47
  can0  356   [6]  6E 0B 00 00 A0 00
  can0  355   [8]  5F 00 64 00 B6 03 06 18
  can0  351   [8]  AC 0B 64 00 10 04 00 09
  can0  379   [8]  9C 00 00 00 00 00 00 00
  can0  6B1   [8]  00 68 00 0A 10 0C 00 47
  can0  356   [6]  6E 0B 00 00 A0 00
  can0  355   [8]  5F 00 64 00 B6 03 06 18
  can0  351   [8]  AC 0B 64 00 10 04 00 09
  can0  380   [8]  4C 35 41 41 36 34 30 33
  can0  6B1   [8]  00 68 00 0A 10 0C 00 47
  can0  356   [6]  6E 0B 00 00 A0 00
  can0  355   [8]  5F 00 64 00 B6 03 06 18
  can0  351   [8]  AC 0B 64 00 10 04 00 09
  can0  381   [8]  FF FF FF 00 00 00 00 00
  can0  6B1   [8]  00 68 00 0A 10 0C 00 47
  can0  356   [6]  6E 0B 00 00 A0 00
  can0  355   [8]  5F 00 64 00 B6 03 06 18
  can0  351   [8]  AC 0B 64 00 10 04 00 09
  can0  35B   [4]  96 10 05 00
  can0  35A   [4]  00 00 00 00
  can0  374   [8]  50 30 31 5F 30 37 30 00
  can0  6B1   [8]  00 68 00 0A 10 0C 00 47
  can0  356   [6]  6E 0B 00 00 A0 00
  can0  355   [8]  5F 00 64 00 B6 03 06 18
  can0  351   [8]  AC 0B 64 00 10 04 00 09
  can0  375   [8]  50 30 31 5F 30 32 31 00
  can0  6B1   [8]  00 68 00 0A 10 0C 00 47
  can0  356   [6]  6E 0B 00 00 A0 00
  can0  355   [8]  5F 00 64 00 B6 03 06 18
  can0  351   [8]  AC 0B 64 00 10 04 00 09
  can0  376   [8]  50 30 31 5F 30 34 00 00
  can0  6B1   [8]  00 68 00 0A 10 0C 00 47
  can0  356   [6]  6E 0B 00 00 A0 00
  can0  355   [8]  5F 00 64 00 B6 03 06 18
  can0  351   [8]  AC 0B 64 00 10 04 00 09
  can0  377   [8]  50 30 31 5F 30 37 00 00
  can0  6B1   [8]  00 68 00 0A 10 0C 00 47
  can0  356   [6]  6E 0B 00 00 A0 00
  can0  355   [8]  5F 00 64 00 B6 03 06 18
  can0  351   [8]  AC 0B 64 00 10 04 00 09
  can0  379   [8]  9C 00 00 00 00 00 00 00
  can0  6B1   [8]  00 68 00 0A 10 0C 00 47
  can0  356   [6]  6E 0B 00 00 A0 00
  can0  355   [8]  5F 00 64 00 B6 03 06 18
  can0  351   [8]  AC 0B 64 00 10 04 00 09
  can0  35B   [4]  98 10 05 00
  can0  35A   [4]  00 00 00 00
  can0  380   [8]  4C 35 41 41 36 34 30 33
  can0  6B1   [8]  00 68 00 0A 10 0C 00 47
  can0  356   [6]  6E 0B 00 00 A0 00
  can0  355   [8]  5F 00 64 00 B6 03 06 18
  can0  351   [8]  AC 0B 64 00 10 04 00 09
  can0  381   [8]  FF FF FF 00 00 00 00 00
  can0  6B1   [8]  00 68 00 0A 10 0C 00 47
  can0  356   [6]  6E 0B 00 00 A0 00
  can0  355   [8]  5F 00 64 00 B6 03 06 18
  can0  351   [8]  AC 0B 64 00 10 04 00 09
  can0  374   [8]  50 30 31 5F 30 37 30 00
  can0  6B1   [8]  00 68 00 0A 10 0C 00 47
  can0  356   [6]  6E 0B 00 00 A0 00
  can0  355   [8]  5F 00 64 00 B6 03 06 18
  can0  351   [8]  AC 0B 64 00 10 04 00 09
  can0  375   [8]  50 30 31 5F 30 32 31 00
  can0  6B1   [8]  00 68 00 0A 10 0C 00 47
  can0  356   [6]  6E 0B 00 00 A0 00
  can0  355   [8]  5F 00 64 00 B6 03 06 18
  can0  351   [8]  AC 0B 64 00 10 04 00 09
  can0  376   [8]  50 30 31 5F 30 34 00 00
  can0  35B   [4]  96 10 05 00
  can0  35A   [4]  00 00 00 00
  can0  6B1   [8]  00 68 00 0A 10 0C 00 47
  can0  356   [6]  6E 0B 00 00 A0 00
  can0  355   [8]  5F 00 64 00 B6 03 06 18
  can0  351   [8]  AC 0B 64 00 10 04 00 09
  can0  377   [8]  50 30 31 5F 30 37 00 00
  can0  6B1   [8]  00 68 00 0A 10 0C 00 47
  can0  356   [6]  6E 0B 00 00 A0 00
  can0  355   [8]  5F 00 64 00 B6 03 06 18
  can0  351   [8]  AC 0B 64 00 10 04 00 09
  can0  379   [8]  9C 00 00 00 00 00 00 00
  can0  6B1   [8]  00 68 00 0A 10 0C 00 47
  can0  356   [6]  6E 0B 00 00 A0 00
  can0  355   [8]  5F 00 64 00 B6 03 06 18
  can0  351   [8]  AC 0B 64 00 10 04 00 09
  can0  380   [8]  4C 35 41 41 36 34 30 33
  can0  6B1   [8]  00 68 00 0A 10 0C 00 47
  can0  356   [6]  6E 0B 00 00 A0 00
  can0  355   [8]  5F 00 64 00 B6 03 06 18
  can0  351   [8]  AC 0B 64 00 10 04 00 09
