date Wed Nov  5 21:44:05 2025
base hex  timestamps absolute
no internal events logged
   0.000000 1  1FFFFFF0x       Rx   d 8 01 19 00 07 08 00 00 43
   0.002007 1  1FFFFFF0x       Rx   d 8 01 00 00 05 0C 00 00 63
   0.030797 1  5F4             Rx   d 8 00 09 1E 5B 00 00 00 01
   0.065733 1  381             Rx   d 8 FF FF FF 00 00 00 00 00
   0.065964 1  76              Rx   d 8 03 0F 04 0F 05 0F 00 B7
   0.113401 1  351             Rx   d 8 AC 0B 00 00 00 00 70 08
   0.113668 1  356             Rx   d 6 6D 0B 00 00 B4 00
   0.113913 1  355             Rx   d 8 53 00 64 00 43 03 06 18
   0.115627 1  1D8             Rx   d 8 00 00 00 00 00 00 00 D9
   0.125658 1  1D8             Rx   d 8 00 00 00 00 00 00 20 F9
   0.129534 1  266             Rx   d 8 00 00 2C 2C 00 00 00 00
   0.129774 1  118             Rx   d 8 12 80 F0 00 00 08 01 80
   0.135653 1  1D8             Rx   d 8 00 00 00 00 00 00 40 19
   0.135897 1  5A6             Rx   d 8 38 80 03 00 00 00 03 00
   0.136142 1  386             Rx   d 8 00 00 00 00 00 00 80 00
   0.139524 1  266             Rx   d 8 00 00 2C 2C 00 00 00 00
   0.139820 1  118             Rx   d 8 13 81 F0 00 00 08 01 80
   0.140052 1  166             Rx   d 7 00 00 00 00 00 B6 03
   0.140289 1  1D6             Rx   d 8 00 08 08 00 28 2D AB 10
   0.140477 1  279             Rx   d 5 07 80 0C 00 00
   0.140717 1  395             Rx   d 8 F7 0D FF FF FF FF 00 7D
   0.140975 1  108             Rx   d 8 8E 00 00 04 00 00 80 01
   0.141091 1  2B6             Rx   d 2 8A 01
   0.141353 1  397             Rx   d 8 00 00 00 00 3B 00 00 00
   0.141507 1  128             Rx   d 4 8F 00 EC 0A
   0.141742 1  268             Rx   d 5 2C 2C FF 01 FF
   0.145658 1  1D8             Rx   d 8 00 00 00 00 00 00 60 39
   0.149531 1  266             Rx   d 8 00 00 2C 2C 00 00 00 00
   0.149790 1  118             Rx   d 8 14 82 F0 00 00 08 01 80
   0.150028 1  3D5             Rx   d 8 FF FF FF FF FF FF FF FF
   0.150267 1  527             Rx   d 8 C0 80 00 00 00 00 00 00
   0.150514 1  315             Rx   d 8 18 39 38 3B 50 38 9E 7D
   0.150747 1  5A5             Rx   d 8 43 80 00 00 03 00 00 00
   0.150987 1  315             Rx   d 8 01 38 38 00 38 28 00 00
   0.151242 1  3B5             Rx   d 8 04 00 00 00 00 00 00 00
   0.151483 1  315             Rx   d 8 02 FF FF FF FF 00 00 00
   0.151728 1  36B             Rx   d 8 00 00 00 00 00 00 00 80
   0.151970 1  315             Rx   d 8 FB FF FF FF FB FF FB 0F
   0.152228 1  7D5             Rx   d 8 2B 00 00 00 00 00 00 00
   0.152476 1  315             Rx   d 8 04 FF FF FF FF 00 00 00
   0.152719 1  7D5             Rx   d 8 32 60 00 00 00 00 00 00
   0.152896 1  5D7             Rx   d 5 8C 8C 00 00 00
   0.153150 1  7D7             Rx   d 8 32 2C 00 00 00 00 00 00
   0.153315 1  3B6             Rx   d 4 FF FF FF FF
   0.153556 1  7D5             Rx   d 8 42 FD 00 FD 00 E6 20 00
   0.153800 1  335             Rx   d 8 0A 01 05 33 FC 00 05 00
   0.154038 1  7D5             Rx   d 8 43 FD 00 FD 00 3C 00 00
   0.154286 1  3A7             Rx   d 8 00 00 00 00 00 00 00 00
   0.154513 1  7D5             Rx   d 8 44 2A 42 1D 56 37 24 44
   0.154760 1  3C5             Rx   d 8 00 00 00 00 00 00 00 00
   0.155001 1  7D5             Rx   d 8 46 28 28 28 28 28 28 28
   0.155253 1  3E5             Rx   d 8 00 00 00 00 00 00 00 00
   0.155489 1  7D5             Rx   d 8 48 28 28 00 00 00 4A 00
   0.155738 1  1D8             Rx   d 8 00 00 00 00 00 00 80 59
   0.155984 1  367             Rx   d 8 00 00 00 00 00 00 00 00
   0.156241 1  368             Rx   d 8 00 00 00 00 00 00 00 00
   0.156492 1  36E             Rx   d 8 00 00 00 00 00 00 00 00
   0.159548 1  266             Rx   d 8 00 00 2C 2C 00 00 00 00
   0.159831 1  118             Rx   d 8 15 83 F0 00 00 08 01 80
   0.165661 1  1D8             Rx   d 8 00 00 00 00 00 00 A0 79
   0.165906 1  374             Rx   d 8 50 30 31 5F 30 30 31 00
   0.166130 1  76              Rx   d 8 06 11 07 12 00 0F 00 BD
   0.169529 1  266             Rx   d 8 00 00 2C 2C 00 00 00 00
   0.169830 1  118             Rx   d 8 16 84 F0 00 00 08 01 80
   0.175651 1  1D8             Rx   d 8 00 00 00 00 00 00 C0 99
   0.179517 1  266             Rx   d 8 00 00 2C 2C 00 00 00 00
   0.179816 1  118             Rx   d 8 17 85 F0 00 00 08 01 80
   0.185650 1  1D8             Rx   d 8 00 00 00 00 00 00 E0 B9
   0.189525 1  266             Rx   d 8 00 00 2C 2C 00 00 00 00
   0.189820 1  118             Rx   d 8 18 86 F0 00 00 08 01 80
   0.195647 1  1D8             Rx   d 8 00 00 00 00 00 00 00 D9
   0.199517 1  266             Rx   d 8 00 00 2C 2C 00 00 00 00
   0.199823 1  118             Rx   d 8 19 87 F0 00 00 08 01 80
   0.205644 1  1D8             Rx   d 8 00 00 00 00 00 00 20 F9
   0.209518 1  266             Rx   d 8 00 00 2C 2C 00 00 00 00
   0.209819 1  118             Rx   d 8 1A 88 F0 00 00 08 01 80
   0.214563 1  554             Rx   d 7 00 21 04 17 23 C0 01
   0.214816 1  344             Rx   d 8 00 00 00 00 00 00 00 47
   0.215057 1  6D4             Rx   d 8 0A 01 05 33 FC 00 09 00
   0.215306 1  3A0             Rx   d 8 00 00 00 00 00 00 00 00
   0.215554 1  384             Rx   d 8 00 00 00 00 00 00 00 00
   0.215803 1  1D8             Rx   d 8 00 00 00 00 00 00 40 19
   0.216059 1  380             Rx   d 8 00 00 00 00 00 00 00 00
   0.217394 1  351             Rx   d 8 AC 0B 0A 00 D2 00 70 08
   0.217609 1  356             Rx   d 6 6D 0B 00 00 B4 00
   0.217839 1  355             Rx   d 8 53 00 64 00 43 03 06 18
   0.219511 1  266             Rx   d 8 00 00 2C 2C 00 00 00 00
   0.219755 1  118             Rx   d 8 1B 89 F0 00 00 08 01 80
   0.225641 1  1D8             Rx   d 8 00 00 00 00 00 00 60 39
   0.225891 1  5A4             Rx   d 8 42 80 01 00 00 00 00 00
   0.226133 1  5A4             Rx   d 8 15 80 02 00 00 00 00 00
   0.226385 1  3A0             Rx   d 8 00 00 00 00 00 00 00 00
   0.229515 1  266             Rx   d 8 00 00 2C 2C 00 00 00 00
   0.229799 1  118             Rx   d 8 1C 8A F0 00 00 08 01 80
   0.230051 1  5A5             Rx   d 8 5C 80 04 00 00 00 00 00
   0.230289 1  5A5             Rx   d 8 5A 80 08 00 00 00 00 00
   0.230536 1  3B5             Rx   d 8 04 00 00 0A 00 00 00 00
   0.235639 1  1D8             Rx   d 8 00 00 00 00 00 00 80 59
   0.239509 1  266             Rx   d 8 00 00 2C 2C 00 00 00 00
   0.239805 1  118             Rx   d 8 1D 8B F0 00 00 08 01 80
   0.240034 1  166             Rx   d 7 00 00 00 00 00 B6 03
   0.240269 1  1D6             Rx   d 8 40 08 08 08 28 2D 9A 10
   0.240455 1  279             Rx   d 5 38 B1 0C 00 00
   0.240696 1  395             Rx   d 8 F0 11 00 40 FF 00 00 7D
   0.240930 1  108             Rx   d 8 8F 01 00 04 00 00 80 01
   0.241065 1  2B6             Rx   d 2 8A 01
   0.241316 1  397             Rx   d 8 00 00 00 00 3B 00 00 00
   0.241474 1  128             Rx   d 4 87 08 EC 0A
   0.241734 1  268             Rx   d 5 2C 2C FF 01 FF
   0.245641 1  1D8             Rx   d 8 00 00 00 00 00 00 A0 79
   0.249512 1  266             Rx   d 8 00 00 2C 2C 00 00 00 00
   0.249755 1  118             Rx   d 8 1E 8C F0 00 00 08 01 80
   0.250008 1  7D5             Rx   d 8 2B 00 00 00 00 00 00 00
   0.250255 1  7D5             Rx   d 8 32 60 00 00 00 00 00 00
   0.250497 1  7D7             Rx   d 8 32 2C 00 00 00 00 00 00
   0.255640 1  1D8             Rx   d 8 00 00 00 00 00 00 C0 99
   0.259515 1  266             Rx   d 8 00 00 2C 2C 00 00 00 00
   0.259820 1  118             Rx   d 8 1F 8D F0 00 00 08 01 80
   0.265638 1  1D8             Rx   d 8 00 00 00 00 00 00 E0 B9
   0.265869 1  375             Rx   d 8 50 30 31 5F 30 32 31 00
   0.266121 1  76              Rx   d 8 01 0F 02 0F 03 0F 00 B1
   0.269514 1  266             Rx   d 8 00 00 2C 2C 00 00 00 00
   0.269757 1  118             Rx   d 8 20 8E F0 00 00 08 01 80
   0.275638 1  1D8             Rx   d 8 00 00 00 00 00 00 00 D9
   0.279513 1  266             Rx   d 8 00 00 2C 2C 00 00 00 00
   0.279808 1  118             Rx   d 8 21 8F F0 00 00 08 01 80
   0.285636 1  1D8             Rx   d 8 00 00 00 00 00 00 20 F9
   0.289507 1  266             Rx   d 8 00 00 2C 2C 00 00 00 00
   0.289752 1  118             Rx   d 8 12 80 F0 00 00 08 01 80
   0.295635 1  1D8             Rx   d 8 00 00 00 00 00 00 40 19
   0.299507 1  266             Rx   d 8 00 00 2C 2C 00 00 00 00
   0.299817 1  118             Rx   d 8 13 81 F0 00 00 08 01 80
   0.305635 1  1D8             Rx   d 8 00 00 00 00 00 00 60 39
   0.309506 1  266             Rx   d 8 00 00 2C 2C 00 00 00 00
   0.309749 1  118             Rx   d 8 14 82 F0 00 00 08 01 80
   0.315631 1  1D8             Rx   d 8 00 00 00 00 00 00 80 59
   0.319519 1  266             Rx   d 8 00 00 2C 2C 00 00 00 00
   0.319809 1  118             Rx   d 8 15 83 F0 00 00 08 01 80
   0.321385 1  351             Rx   d 8 AC 0B 0A 00 D2 00 70 08
   0.321597 1  356             Rx   d 6 6C 0B 00 00 B4 00
   0.321824 1  355             Rx   d 8 53 00 64 00 43 03 06 18
   0.325637 1  1D8             Rx   d 8 00 00 00 00 00 00 A0 79
   0.329509 1  266             Rx   d 8 00 00 2C 2C 00 00 00 00
   0.329750 1  118             Rx   d 8 16 84 F0 00 00 08 01 80
   0.335633 1  1D8             Rx   d 8 00 00 00 00 00 00 C0 99
   0.335889 1  5A6             Rx   d 8 0A 80 48 01 40 00 00 00
   0.336133 1  386             Rx   d 8 00 02 00 00 00 00 80 00
   0.339506 1  266             Rx   d 8 00 00 2C 2C 00 00 00 00
   0.339805 1  118             Rx   d 8 17 85 F0 00 00 08 01 80
   0.340018 1  166             Rx   d 7 91 08 00 00 00 B6 03
   0.340263 1  1D6             Rx   d 8 40 08 08 00 28 2D 70 10
   0.340443 1  279             Rx   d 5 19 92 0C 00 00
   0.340682 1  395             Rx   d 8 F0 11 00 40 FF 00 00 7D
   0.340933 1  108             Rx   d 8 90 02 00 04 00 00 80 01
   0.341051 1  2B6             Rx   d 2 8A 01
   0.341319 1  397             Rx   d 8 00 00 00 00 3B 00 00 00
   0.341478 1  128             Rx   d 4 8F 48 38 02
   0.341729 1  268             Rx   d 5 2C 2C FF 01 FF
   0.345636 1  1D8             Rx   d 8 00 00 00 00 00 00 E0 B9
   0.349507 1  266             Rx   d 8 00 00 2C 2C 00 00 00 00
   0.349747 1  118             Rx   d 8 18 86 F0 00 00 08 01 80
   0.350005 1  7D5             Rx   d 8 2B 00 00 00 00 00 00 00
   0.350257 1  7D5             Rx   d 8 32 60 00 00 00 00 00 00
   0.350496 1  7D7             Rx   d 8 32 2C 00 00 00 00 00 00
   0.355632 1  1D8             Rx   d 8 00 00 00 00 00 00 00 D9
   0.359514 1  266             Rx   d 8 00 00 2C 2C 00 00 00 00
   0.359799 1  118             Rx   d 8 19 87 F0 00 00 08 01 80
   0.365630 1  1D8             Rx   d 8 00 00 00 00 00 00 20 F9
   0.365878 1  376             Rx   d 8 50 30 31 5F 30 31 00 00
   0.366102 1  76              Rx   d 8 04 0F 05 0F 06 11 00 BC
   0.369512 1  266             Rx   d 8 00 00 2C 2C 00 00 00 00
   0.369753 1  118             Rx   d 8 1A 88 F0 00 00 08 01 80
   0.375632 1  1D8             Rx   d 8 00 00 00 00 00 00 40 19
   0.379512 1  266             Rx   d 8 00 00 2C 2C 00 00 00 00
   0.379793 1  118             Rx   d 8 1B 89 F0 00 00 08 01 80
   0.385626 1  1D8             Rx   d 8 00 00 00 00 00 00 60 39
   0.389498 1  266             Rx   d 8 00 00 2C 2C 00 00 00 00
   0.389748 1  118             Rx   d 8 1C 8A F0 00 00 08 01 80
   0.395626 1  1D8             Rx   d 8 00 00 00 00 00 00 80 59
   0.399510 1  266             Rx   d 8 00 00 2C 2C 00 00 00 00
   0.399794 1  118             Rx   d 8 1D 8B F0 00 00 08 01 80
   0.405627 1  1D8             Rx   d 8 00 00 00 00 00 00 A0 79
   0.409508 1  266             Rx   d 8 00 00 2C 2C 00 00 00 00
   0.409752 1  118             Rx   d 8 1E 8C F0 00 00 08 01 80
   0.415622 1  1D8             Rx   d 8 00 00 00 00 00 00 C0 99
   0.419504 1  266             Rx   d 8 00 00 2C 2C 00 00 00 00
   0.419798 1  118             Rx   d 8 1F 8D F0 00 00 08 01 80
   0.425386 1  351             Rx   d 8 AC 0B 0A 00 D2 00 70 08
   0.425641 1  1D8             Rx   d 8 00 00 00 00 00 00 E0 B9
   0.425845 1  356             Rx   d 6 6C 0B 00 00 B4 00
   0.426090 1  355             Rx   d 8 53 00 64 00 43 03 06 18
   0.429511 1  266             Rx   d 8 00 00 2C 2C 00 00 00 00
   0.429765 1  118             Rx   d 8 20 8E F0 00 00 08 01 80
   0.435622 1  1D8             Rx   d 8 00 00 00 00 00 00 00 D9
   0.439502 1  266             Rx   d 8 00 00 2C 2C 00 00 00 00
   0.439789 1  118             Rx   d 8 21 8F F0 00 00 08 01 80
   0.440011 1  166             Rx   d 7 23 09 00 00 00 B6 03
   0.440236 1  1D6             Rx   d 8 40 08 08 00 28 2D 76 10
   0.440428 1  279             Rx   d 5 0A 83 0C 00 00
   0.440666 1  395             Rx   d 8 F0 11 00 40 FF 00 00 7D
   0.440913 1  108             Rx   d 8 91 03 00 04 00 00 80 01
   0.441017 1  2B6             Rx   d 2 8A 01
   0.441283 1  397             Rx   d 8 00 00 00 00 3B 00 00 00
   0.441441 1  128             Rx   d 4 8B 48 38 02
   0.441711 1  268             Rx   d 5 2C 2C FF 01 FF
   0.445626 1  1D8             Rx   d 8 00 00 00 00 00 00 20 F9
   0.449501 1  266             Rx   d 8 00 00 2C 2C 00 00 00 00
   0.449749 1  118             Rx   d 8 12 80 F0 00 00 08 01 80
   0.450001 1  7D5             Rx   d 8 2B 00 00 00 00 00 00 00
   0.450251 1  7D5             Rx   d 8 32 60 00 00 00 00 00 00
   0.450488 1  7D7             Rx   d 8 32 2C 00 00 00 00 00 00
   0.455624 1  1D8             Rx   d 8 00 00 00 00 00 00 40 19
   0.459502 1  266             Rx   d 8 00 00 2C 2C 00 00 00 00
   0.459795 1  118             Rx   d 8 13 81 F0 00 00 08 01 80
   0.465617 1  1D8             Rx   d 8 00 00 00 00 00 00 60 39
   0.465859 1  377             Rx   d 8 50 30 31 5F 30 38 00 00
   0.466103 1  76              Rx   d 8 07 12 00 0F 01 0F 00 B6
   0.469503 1  266             Rx   d 8 00 00 2C 2C 00 00 00 00
   0.469754 1  118             Rx   d 8 14 82 F0 00 00 08 01 80
   0.475615 1  1D8             Rx   d 8 00 00 00 00 00 00 80 59
   0.479498 1  266             Rx   d 8 00 00 2C 2C 00 00 00 00
   0.479781 1  118             Rx   d 8 15 83 F0 00 00 08 01 80
   0.485616 1  1D8             Rx   d 8 00 00 00 00 00 00 A0 79
   0.489496 1  266             Rx   d 8 00 00 2C 2C 00 00 00 00
   0.489743 1  118             Rx   d 8 16 84 F0 00 00 08 01 80
   0.495615 1  1D8             Rx   d 8 00 00 00 00 00 00 C0 99
   0.499500 1  266             Rx   d 8 00 00 2C 2C 00 00 00 00
   0.499788 1  118             Rx   d 8 17 85 F0 00 00 08 01 80
   0.505616 1  1D8             Rx   d 8 00 00 00 00 00 00 E0 B9
   0.509500 1  266             Rx   d 8 00 00 2C 2C 00 00 00 00
   0.509753 1  118             Rx   d 8 18 86 F0 00 00 08 01 80
   0.513384 1  35B             Rx   d 4 72 10 05 00
   0.513573 1  35A             Rx   d 4 00 00 00 00
   0.515615 1  1D8             Rx   d 8 00 00 00 00 00 00 00 D9
   0.519497 1  266             Rx   d 8 00 00 2C 2C 00 00 00 00
   0.519788 1  118             Rx   d 8 19 87 F0 00 00 08 01 80
   0.525613 1  1D8             Rx   d 8 00 00 00 00 00 00 20 F9
   0.529390 1  351             Rx   d 8 AC 0B 0A 00 D2 00 70 08
   0.529639 1  266             Rx   d 8 00 00 2C 2C 00 00 00 00
   0.529885 1  118             Rx   d 8 1A 88 F0 00 00 08 01 80
   0.530079 1  356             Rx   d 6 6D 0B 00 00 B4 00
   0.530321 1  355             Rx   d 8 53 00 64 00 43 03 06 18
   0.535619 1  1D8             Rx   d 8 00 00 00 00 00 00 40 19
   0.539497 1  266             Rx   d 8 00 00 2C 2C 00 00 00 00
   0.539751 1  118             Rx   d 8 1B 89 F0 00 00 08 01 80
   0.539995 1  166             Rx   d 7 25 09 00 00 00 B6 03
   0.540226 1  1D6             Rx   d 8 40 08 08 00 28 2D 66 10
   0.540409 1  279             Rx   d 5 0B 84 0C 00 00
   0.540651 1  395             Rx   d 8 F0 11 00 40 FF 00 00 7D
   0.540896 1  108             Rx   d 8 14 04 00 02 00 00 00 05
   0.541024 1  2B6             Rx   d 2 8A 01
   0.541284 1  397             Rx   d 8 00 00 00 00 3B 00 00 00
   0.541445 1  128             Rx   d 4 8B 48 38 02
   0.541717 1  268             Rx   d 5 2C 2C FF 01 FF
   0.545615 1  1D8             Rx   d 8 00 00 00 00 00 00 60 39
   0.549513 1  266             Rx   d 8 00 00 2C 2C 00 00 00 00
   0.549773 1  118             Rx   d 8 1C 8A F0 00 00 08 01 80
   0.550031 1  7D5             Rx   d 8 2B 00 00 00 00 00 00 00
   0.550277 1  7D5             Rx   d 8 32 60 00 00 00 00 00 00
   0.550525 1  7D7             Rx   d 8 32 2C 00 00 00 00 00 00
   0.555612 1  1D8             Rx   d 8 00 00 00 00 00 00 80 59
   0.559510 1  266             Rx   d 8 00 00 2C 2C 00 00 00 00
   0.559779 1  118             Rx   d 8 1D 8B F0 00 00 08 01 80
   0.565605 1  1D8             Rx   d 8 00 00 00 00 00 00 A0 79
   0.565863 1  379             Rx   d 8 9C 00 00 00 00 00 00 00
   0.566089 1  76              Rx   d 8 02 0F 03 0F 04 0F 00 B4
   0.569511 1  266             Rx   d 8 00 00 2C 2C 00 00 00 00
   0.569784 1  118             Rx   d 8 1E 8C F0 00 00 08 01 80
   0.575604 1  1D8             Rx   d 8 00 00 00 00 00 00 C0 99
   0.579059 1  36              Rx   d 8 06 9E B2 10 12 9E B2 06
   0.579506 1  266             Rx   d 8 00 00 2C 2C 00 00 00 00
   0.579775 1  118             Rx   d 8 1F 8D F0 00 00 08 01 80
   0.585604 1  1D8             Rx   d 8 00 00 00 00 00 00 E0 B9
   0.589510 1  266             Rx   d 8 00 00 2C 2C 00 00 00 00
   0.589767 1  118             Rx   d 8 20 8E F0 00 00 08 01 80
   0.595605 1  1D8             Rx   d 8 00 00 00 00 00 00 00 D9
   0.599505 1  266             Rx   d 8 00 00 2C 2C 00 00 00 00
   0.599777 1  118             Rx   d 8 21 8F F0 00 00 08 01 80
   0.605605 1  1D8             Rx   d 8 00 00 00 00 00 00 20 F9
   0.609505 1  266             Rx   d 8 00 00 2C 2C 00 00 00 00
   0.609772 1  118             Rx   d 8 12 80 F0 00 00 08 01 80
   0.615599 1  1D8             Rx   d 8 00 00 00 00 00 00 40 19
   0.619502 1  266             Rx   d 8 00 00 2C 2C 00 00 00 00
   0.619764 1  118             Rx   d 8 13 81 F0 00 00 08 01 80
   0.625601 1  1D8             Rx   d 8 00 00 00 00 00 00 60 39
   0.629752 1  266             Rx   d 8 00 00 2C 2C 00 00 00 00
   0.630007 1  118             Rx   d 8 14 82 F0 00 00 08 01 80
   0.633393 1  351             Rx   d 8 AC 0B 0A 00 D2 00 70 08
   0.633595 1  356             Rx   d 6 6D 0B 00 00 B4 00
   0.633847 1  355             Rx   d 8 53 00 64 00 43 03 06 18
   0.635604 1  1D8             Rx   d 8 00 00 00 00 00 00 80 59
   0.639511 1  266             Rx   d 8 00 00 2C 2C 00 00 00 00
   0.639776 1  118             Rx   d 8 15 83 F0 00 00 08 01 80
   0.640047 1  166             Rx   d 7 25 09 00 00 00 B6 03
   0.640287 1  1D6             Rx   d 8 40 08 08 00 28 2D 56 10
   0.640454 1  279             Rx   d 5 0C 85 0C 00 00
   0.640774 1  395             Rx   d 8 F0 11 00 41 FF 00 00 7D
   0.641009 1  108             Rx   d 8 15 05 00 02 00 00 00 05
   0.641149 1  2B6             Rx   d 2 8A 01
   0.641404 1  397             Rx   d 8 00 00 00 00 3B 00 00 00
   0.641558 1  128             Rx   d 4 8B 48 38 02
   0.641745 1  268             Rx   d 5 2C 2C FF 01 FF
   0.645603 1  1D8             Rx   d 8 00 00 00 00 00 00 A0 79
   0.649514 1  266             Rx   d 8 00 00 2C 2C 00 00 00 00
   0.649775 1  118             Rx   d 8 16 84 F0 00 00 08 01 80
   0.650018 1  7D5             Rx   d 8 2B 00 00 00 00 00 00 00
   0.650269 1  7D5             Rx   d 8 32 60 00 00 00 00 00 00
   0.650513 1  7D7             Rx   d 8 32 2C 00 00 00 00 00 00
   0.655599 1  1D8             Rx   d 8 00 00 00 00 00 00 C0 99
   0.659508 1  266             Rx   d 8 00 00 2C 2C 00 00 00 00
   0.659768 1  118             Rx   d 8 17 85 F0 00 00 08 01 80
   0.665594 1  1D8             Rx   d 8 00 00 00 00 00 00 E0 B9
   0.665833 1  380             Rx   d 8 4C 35 41 41 36 34 30 33
   0.666062 1  76              Rx   d 8 05 0F 06 11 07 12 00 C2
   0.666313 1  5A6             Rx   d 8 35 80 01 00 00 00 00 00
   0.666553 1  386             Rx   d 8 00 02 00 00 00 00 90 00
   0.669748 1  266             Rx   d 8 00 00 2C 2C 00 00 00 00
   0.669995 1  118             Rx   d 8 18 86 F0 00 00 08 01 80
   0.670243 1  5A5             Rx   d 8 9B 80 04 00 00 00 00 00
   0.670495 1  3C5             Rx   d 8 00 00 00 04 00 00 00 00
   0.675593 1  1D8             Rx   d 8 00 00 00 00 00 00 00 D9
   0.679505 1  266             Rx   d 8 00 00 2C 2C 00 00 00 00
   0.679762 1  118             Rx   d 8 19 87 F0 00 00 08 01 80
   0.685590 1  1D8             Rx   d 8 00 00 00 00 00 00 20 F9
   0.689506 1  266             Rx   d 8 00 00 2C 2C 00 00 00 00
   0.689765 1  118             Rx   d 8 1A 88 F0 00 00 08 01 80
   0.695589 1  1D8             Rx   d 8 00 00 00 00 00 00 40 19
   0.699495 1  266             Rx   d 8 00 00 2C 2C 00 00 00 00
   0.699781 1  118             Rx   d 8 1B 89 F0 00 00 08 01 80
   0.705587 1  1D8             Rx   d 8 00 00 00 00 00 00 60 39
   0.709743 1  266             Rx   d 8 00 00 2C 2C 00 00 00 00
   0.709990 1  118             Rx   d 8 1C 8A F0 00 00 08 01 80
   0.715588 1  1D8             Rx   d 8 00 00 00 00 00 00 80 59
   0.719496 1  266             Rx   d 8 00 00 2C 2C 00 00 00 00
   0.719752 1  118             Rx   d 8 1D 8B F0 00 00 08 01 80
   0.725584 1  1D8             Rx   d 8 80 00 00 00 00 00 A0 F9
   0.725845 1  5A4             Rx   d 8 16 80 04 00 00 00 00 00
   0.726086 1  3A0             Rx   d 8 00 00 00 00 00 00 00 00
   0.729744 1  266             Rx   d 8 00 00 2C 2C 00 00 00 00
   0.730000 1  118             Rx   d 8 1E 8C F0 00 00 08 01 80
   0.735581 1  1D8             Rx   d 8 80 00 00 00 00 00 C0 19
   0.737399 1  351             Rx   d 8 AC 0B 0A 00 D2 00 70 08
   0.737603 1  356             Rx   d 6 6D 0B 00 00 B4 00
   0.737849 1  355             Rx   d 8 53 00 64 00 43 03 06 18
   0.739496 1  266             Rx   d 8 00 00 2C 2C 00 00 00 00
   0.739760 1  118             Rx   d 8 1F 8D F0 00 00 08 01 80
   0.740030 1  166             Rx   d 7 25 09 00 00 00 B6 03
   0.740270 1  1D6             Rx   d 8 40 08 08 00 28 2D 68 10
   0.740455 1  279             Rx   d 5 0D 86 0C 00 00
   0.740758 1  395             Rx   d 8 01 11 00 41 00 00 00 7D
   0.740998 1  108             Rx   d 8 16 06 00 02 00 00 00 05
   0.741142 1  2B6             Rx   d 2 8A 01
   0.741384 1  397             Rx   d 8 00 00 00 00 3B 00 00 00
   0.741559 1  128             Rx   d 4 8B 48 38 02
   0.741722 1  268             Rx   d 5 2C 2C FF 01 FF
   0.745587 1  1D8             Rx   d 8 80 00 00 00 00 00 E0 39
   0.749740 1  266             Rx   d 8 00 00 2C 2C 00 00 00 00
   0.750004 1  7D5             Rx   d 8 2B 00 00 00 00 00 00 00
   0.750250 1  118             Rx   d 8 20 8E F0 00 00 08 01 80
   0.750485 1  7D5             Rx   d 8 32 60 00 00 00 00 00 00
   0.750735 1  7D7             Rx   d 8 32 2C 00 00 00 00 00 00
   0.755586 1  1D8             Rx   d 8 80 00 00 00 00 00 00 59
   0.759496 1  266             Rx   d 8 00 00 2C 2C 00 00 00 00
   0.759763 1  118             Rx   d 8 21 8F F0 00 00 08 01 80
   0.764370 1  78              Rx   d 8 10 00 00 00 00 00 00 00
   0.765168 1  78              Rx   d 8 10 00 00 00 00 00 00 00
   0.765598 1  1D8             Rx   d 8 80 00 00 00 00 00 20 79
   0.765847 1  381             Rx   d 8 FF FF FF 00 00 00 00 00
   0.766083 1  76              Rx   d 8 00 0F 01 0F 02 0F 00 AE
   0.766336 1  78              Rx   d 8 10 00 00 00 00 00 00 00
   0.767160 1  78              Rx   d 8 10 00 00 00 00 00 00 00
   0.769771 1  266             Rx   d 8 00 00 2C 2C 00 00 00 00
   0.770012 1  118             Rx   d 8 12 80 F0 00 00 08 01 80
   0.775593 1  1D8             Rx   d 8 80 00 00 00 00 00 40 99
   0.779489 1  266             Rx   d 8 00 00 2C 2C 00 00 00 00
   0.779764 1  118             Rx   d 8 13 81 F0 00 00 08 01 80
   0.785575 1  1D8             Rx   d 8 80 00 00 00 00 00 60 B9
   0.789734 1  266             Rx   d 8 00 00 2C 2C 00 00 00 00
   0.789979 1  118             Rx   d 8 14 82 F0 00 00 08 01 80
   0.795575 1  1D8             Rx   d 8 80 00 00 00 00 00 80 D9
   0.799484 1  266             Rx   d 8 00 00 2C 2C 00 00 00 00
   0.799760 1  118             Rx   d 8 15 83 F0 00 00 08 01 80
   0.805576 1  1D8             Rx   d 8 80 00 00 00 00 00 A0 F9
   0.809500 1  266             Rx   d 8 00 00 2C 2C 00 00 00 00
   0.809757 1  118             Rx   d 8 16 84 F0 00 00 08 01 80
   0.815570 1  1D8             Rx   d 8 80 00 00 00 00 00 C0 19
   0.817818 1  79              Rx   d 8 0B 00 00 00 00 00 00 00
   0.819484 1  266             Rx   d 8 00 00 2C 2C 00 00 00 00
   0.819768 1  118             Rx   d 8 17 85 F0 00 00 08 01 80
   0.825572 1  1D8             Rx   d 8 80 00 00 00 00 00 E0 39
   0.827666 1  79              Rx   d 8 0B 00 00 00 00 00 00 00
   0.829729 1  266             Rx   d 8 00 00 2C 2C 00 00 00 00
   0.829983 1  118             Rx   d 8 18 86 F0 00 00 08 01 80
   0.835573 1  1D8             Rx   d 8 80 00 00 00 00 00 00 59
   0.837321 1  79              Rx   d 8 0B 00 00 00 00 00 00 00
   0.839482 1  266             Rx   d 8 00 00 2C 2C 00 00 00 00
   0.839760 1  118             Rx   d 8 19 87 F0 00 00 08 01 80
   0.840070 1  166             Rx   d 7 25 09 00 00 00 B6 03
   0.840304 1  1D6             Rx   d 8 40 08 08 00 28 2D 90 10
   0.840483 1  279             Rx   d 5 0E 87 0C 00 00
   0.840760 1  395             Rx   d 8 01 11 00 41 00 00 00 7D
   0.841005 1  108             Rx   d 8 17 07 00 02 00 00 00 05
   0.841106 1  2B6             Rx   d 2 88 01
   0.841383 1  397             Rx   d 8 00 00 00 00 3B 00 00 00
   0.841542 1  128             Rx   d 4 8B 48 38 02
   0.841730 1  268             Rx   d 5 2C 2C FF 01 FF
   0.841932 1  356             Rx   d 6 6D 0B 00 00 B4 00
   0.842175 1  355             Rx   d 8 53 00 64 00 43 03 06 18
   0.842421 1  351             Rx   d 8 AC 0B 0A 00 D2 00 70 08
   0.845578 1  1D8             Rx   d 8 80 00 00 00 00 00 20 79
   0.847374 1  79              Rx   d 8 0B 00 00 00 00 00 00 00
   0.849500 1  266             Rx   d 8 00 00 2C 2C 00 00 00 00
   0.849745 1  118             Rx   d 8 1A 88 F0 00 00 08 01 80
   0.850001 1  7D5             Rx   d 8 2B 00 00 00 00 00 00 00
   0.850243 1  7D5             Rx   d 8 32 60 00 00 00 00 00 00
   0.850514 1  7D7             Rx   d 8 32 2C 00 00 00 00 00 00
   0.855572 1  1D8             Rx   d 8 80 00 00 00 00 00 40 99
   0.857185 1  79              Rx   d 8 0B 00 00 00 00 00 00 00
   0.859496 1  266             Rx   d 8 00 00 2C 2C 00 00 00 00
   0.859787 1  118             Rx   d 8 1B 89 F0 00 00 08 01 80
   0.865565 1  1D8             Rx   d 8 80 00 00 00 00 00 60 B9
   0.865803 1  374             Rx   d 8 50 30 31 5F 30 37 30 00
   0.866036 1  76              Rx   d 8 03 0F 04 0F 05 0F 00 B7
   0.867214 1  79              Rx   d 8 0B 00 00 00 00 00 00 00
   0.869726 1  266             Rx   d 8 00 00 2C 2C 00 00 00 00
   0.869974 1  118             Rx   d 8 1C 8A F0 00 00 08 01 80
   0.873700 1  80              Rx   d 8 FD 47 2F 80 D8 1E 2E 54
   0.875569 1  1D8             Rx   d 8 80 00 00 00 00 00 80 D9
   0.877229 1  79              Rx   d 8 0B 00 00 00 00 00 00 00
   0.879493 1  266             Rx   d 8 00 00 2C 2C 00 00 00 00
   0.879766 1  118             Rx   d 8 1D 8B F0 00 00 08 01 80
   0.885570 1  1D8             Rx   d 8 80 00 00 00 00 00 A0 F9
   0.889723 1  266             Rx   d 8 00 00 2C 2C 00 00 00 00
   0.889979 1  118             Rx   d 8 1E 8C F0 00 00 08 01 80
   0.894570 1  81              Rx   d 8 14 3E 4E FD 0A EA 83 A6
   0.895564 1  1D8             Rx   d 8 80 00 00 00 00 00 C0 19
   0.899477 1  266             Rx   d 8 00 00 2C 2C 00 00 00 00
   0.899761 1  118             Rx   d 8 1F 8D F0 00 00 08 01 80
   0.905562 1  1D8             Rx   d 8 80 00 00 00 00 00 E0 39
   0.905815 1  56              Rx   d 8 04 00 00 00 00 00 01 5B
   0.909487 1  266             Rx   d 8 00 00 2C 2C 00 00 00 00
   0.909745 1  118             Rx   d 8 20 8E F0 00 00 08 01 80
   0.915559 1  1D8             Rx   d 8 80 00 00 00 00 00 00 59
   0.919471 1  266             Rx   d 8 00 00 2C 2C 00 00 00 00
   0.919772 1  118             Rx   d 8 21 8F F0 00 00 08 01 80
   0.924423 1  80              Rx   d 8 AD DA E4 4A 91 E4 F4 A6
   0.925559 1  1D8             Rx   d 8 80 00 00 00 00 00 20 79
   0.929487 1  266             Rx   d 8 00 00 2C 2C 00 00 00 00
   0.929745 1  118             Rx   d 8 12 80 F0 00 00 08 01 80
   0.934949 1  81              Rx   d 8 15 CB 8B 92 6F 39 FD 37
   0.935557 1  1D8             Rx   d 8 80 00 00 00 00 00 40 99
   0.939466 1  266             Rx   d 8 00 00 2C 2C 00 00 00 00
   0.939758 1  118             Rx   d 8 13 81 F0 00 00 08 01 80
   0.940062 1  166             Rx   d 7 25 09 00 00 00 B6 03
   0.940287 1  1D6             Rx   d 8 40 08 08 00 28 2D 65 10
   0.940477 1  279             Rx   d 5 0F 88 0C 00 00
   0.940747 1  395             Rx   d 8 01 11 00 41 00 00 00 7D
   0.941007 1  108             Rx   d 8 18 08 00 02 00 00 00 05
   0.941110 1  2B6             Rx   d 2 88 01
   0.941397 1  397             Rx   d 8 00 00 00 00 3B 00 00 00
   0.941541 1  128             Rx   d 4 8B 48 38 02
   0.941732 1  268             Rx   d 5 2C 2C FF 01 FF
   0.945461 1  351             Rx   d 8 AC 0B 0A 00 D2 00 70 08
   0.945706 1  1D8             Rx   d 8 80 00 00 00 00 00 60 B9
   0.945908 1  356             Rx   d 6 6D 0B 00 00 B4 00
   0.946153 1  355             Rx   d 8 53 00 64 00 43 03 06 18
   0.949490 1  266             Rx   d 8 00 00 2C 2C 00 00 00 00
   0.949746 1  118             Rx   d 8 14 82 F0 00 00 08 01 80
   0.949998 1  7D5             Rx   d 8 2B 00 00 00 00 00 00 00
   0.950254 1  7D5             Rx   d 8 32 60 00 00 00 00 00 00
   0.950487 1  7D7             Rx   d 8 32 2C 00 00 00 00 00 00
   0.955565 1  1D8             Rx   d 8 80 00 00 00 00 00 80 D9
   0.959469 1  266             Rx   d 8 00 00 2C 2C 00 00 00 00
   0.959756 1  118             Rx   d 8 15 83 F0 00 00 08 01 80
   0.965558 1  1D8             Rx   d 8 80 00 00 00 00 00 A0 F9
   0.965791 1  375             Rx   d 8 50 30 31 5F 30 32 31 00
   0.966029 1  76              Rx   d 8 06 11 07 12 00 0F 00 BD
   0.969482 1  266             Rx   d 8 00 00 2C 2C 00 00 00 00
   0.969755 1  118             Rx   d 8 16 84 F0 00 00 08 01 80
   0.975165 1  80              Rx   d 8 E6 0D 42 6F 5F 22 1D 7D
   0.975560 1  1D8             Rx   d 8 80 00 00 00 00 00 C0 19
   0.979464 1  266             Rx   d 8 00 00 2C 2C 00 00 00 00
   0.979752 1  118             Rx   d 8 17 85 F0 00 00 08 01 80
   0.985552 1  1D8             Rx   d 8 80 00 00 00 00 00 E0 39
   0.989479 1  266             Rx   d 8 00 00 2C 2C 00 00 00 00
   0.989734 1  118             Rx   d 8 18 86 F0 00 00 08 01 80
   0.995016 1  81              Rx   d 8 B1 8F 63 3D 3A 0F F5 0C
   0.995551 1  1D8             Rx   d 8 80 00 00 00 00 00 00 59
   0.999460 1  266             Rx   d 8 00 00 2C 2C 00 00 00 00
   0.999752 1  118             Rx   d 8 19 87 F0 00 00 08 01 80
   1.004761 1  56              Rx   d 8 04 00 00 00 00 00 02 5C
   1.005553 1  1D8             Rx   d 8 80 00 00 00 00 00 20 79
   1.009354 1  6B0             Rx   d 8 00 A7 00 48 72 43 00 5C
   1.009617 1  266             Rx   d 8 00 00 2C 2C 00 00 00 00
   1.009853 1  118             Rx   d 8 1A 88 F0 00 00 08 01 80
   1.010103 1  6B4             Rx   d 8 01 63 00 01 00 15 00 00
   1.010346 1  6B3             Rx   d 8 00 12 00 00 00 0F 00 00
   1.010577 1  6B2             Rx   d 8 00 46 00 79 9E 61 00 BE
   1.010812 1  6B1             Rx   d 8 00 15 00 00 9E C2 00 2E
   1.015556 1  1D8             Rx   d 8 80 00 00 00 00 00 40 99
   1.017331 1  35B             Rx   d 4 72 10 05 00
   1.017517 1  35A             Rx   d 4 00 00 00 00
   1.019465 1  266             Rx   d 8 00 00 2C 2C 00 00 00 00
   1.019755 1  118             Rx   d 8 1B 89 F0 00 00 08 01 80
   1.024594 1  80              Rx   d 8 E8 61 63 10 D4 1C EF 41
   1.025547 1  1D8             Rx   d 8 80 00 00 00 00 00 60 B9
   1.029475 1  266             Rx   d 8 00 00 2C 2C 00 00 00 00
   1.029745 1  118             Rx   d 8 1C 8A F0 00 00 08 01 80
   1.034918 1  81              Rx   d 8 2C 3C 67 2E 61 4E 43 D8
   1.035549 1  1D8             Rx   d 8 80 00 00 00 00 00 80 D9
   1.039455 1  266             Rx   d 8 00 00 2C 2C 00 00 00 00
   1.039734 1  118             Rx   d 8 1D 8B F0 00 00 08 01 80
   1.040039 1  166             Rx   d 7 25 09 00 00 00 B6 03
   1.040275 1  1D6             Rx   d 8 40 08 08 00 28 2D 60 10
   1.040466 1  279             Rx   d 5 10 89 0C 00 00
   1.040738 1  395             Rx   d 8 01 11 00 41 00 00 00 7D
   1.040984 1  108             Rx   d 8 19 09 00 02 00 00 00 05
   1.041095 1  2B6             Rx   d 2 88 01
   1.041367 1  397             Rx   d 8 00 00 00 00 3B 00 00 00
   1.041546 1  128             Rx   d 4 8B 48 38 02
   1.041714 1  268             Rx   d 5 2C 2C FF 01 FF
   1.045556 1  1D8             Rx   d 8 80 00 00 00 00 00 A0 F9
   1.049419 1  351             Rx   d 8 AC 0B 0A 00 D2 00 70 08
   1.049661 1  266             Rx   d 8 00 00 2C 2C 00 00 00 00
   1.049863 1  356             Rx   d 6 6D 0B 00 00 B4 00
   1.050108 1  118             Rx   d 8 1E 8C F0 00 00 08 01 80
   1.050338 1  355             Rx   d 8 53 00 64 00 43 03 06 18
   1.050597 1  7D5             Rx   d 8 2B 00 00 00 00 00 00 00
   1.050848 1  7D5             Rx   d 8 32 60 00 00 00 00 00 00
   1.051089 1  7D7             Rx   d 8 32 2C 00 00 00 00 00 00
   1.055555 1  1D8             Rx   d 8 80 00 00 00 00 00 C0 19
   1.059455 1  266             Rx   d 8 00 00 2C 2C 00 00 00 00
   1.059747 1  118             Rx   d 8 1F 8D F0 00 00 08 01 80
   1.065547 1  1D8             Rx   d 8 80 00 00 00 00 00 E0 39
   1.065783 1  376             Rx   d 8 50 30 31 5F 30 31 00 00
   1.066023 1  76              Rx   d 8 01 0F 02 0F 03 0F 00 B1
   1.069470 1  266             Rx   d 8 00 00 2C 2C 00 00 00 00
   1.069739 1  118             Rx   d 8 20 8E F0 00 00 08 01 80
   1.075313 1  80              Rx   d 8 21 95 C1 34 A2 5B 19 18
   1.075565 1  1D8             Rx   d 8 80 00 00 00 00 00 00 59
   1.079066 1  36              Rx   d 8 07 9E B5 10 12 9E BC 14
   1.079452 1  266             Rx   d 8 00 00 2C 2C 00 00 00 00
   1.079737 1  118             Rx   d 8 21 8F F0 00 00 08 01 80
   1.085547 1  1D8             Rx   d 8 80 00 00 00 00 00 20 79
   1.089464 1  266             Rx   d 8 00 00 2C 2C 00 00 00 00
   1.089755 1  118             Rx   d 8 12 80 F0 00 00 08 01 80
   1.095152 1  81              Rx   d 8 E8 6B D8 7C C0 EE 6E 30
   1.095542 1  1D8             Rx   d 8 80 00 00 00 00 00 40 99
   1.099447 1  266             Rx   d 8 00 00 2C 2C 00 00 00 00
   1.099751 1  118             Rx   d 8 13 81 F0 00 00 08 01 80
   1.103847 1  56              Rx   d 8 04 00 00 00 00 00 03 5D
   1.105540 1  1D8             Rx   d 8 80 00 00 00 00 00 60 B9
   1.109463 1  266             Rx   d 8 00 00 2C 2C 00 00 00 00
   1.109717 1  118             Rx   d 8 14 82 F0 00 00 08 01 80
   1.115544 1  1D8             Rx   d 8 80 00 00 00 00 00 80 D9
   1.119440 1  266             Rx   d 8 00 00 2C 2C 00 00 00 00
   1.119721 1  118             Rx   d 8 15 83 F0 00 00 08 01 80
   1.124739 1  80              Rx   d 8 23 E9 E2 D5 17 55 EB DB
   1.125540 1  1D8             Rx   d 8 80 00 00 00 00 00 A0 F9
   1.129455 1  266             Rx   d 8 00 00 2C 2C 00 00 00 00
   1.129739 1  118             Rx   d 8 16 84 F0 00 00 08 01 80
   1.134756 1  81              Rx   d 8 1E D9 91 62 14 68 A7 C6
   1.135535 1  1D8             Rx   d 8 80 00 00 00 00 00 C0 19
   1.139436 1  266             Rx   d 8 00 00 2C 2C 00 00 00 00
   1.139722 1  118             Rx   d 8 17 85 F0 00 00 08 01 80
   1.140025 1  166             Rx   d 7 25 09 00 00 00 B6 03
   1.140259 1  1D6             Rx   d 8 40 08 08 00 28 2D 86 10
   1.140444 1  279             Rx   d 5 11 8A 0C 00 00
   1.140715 1  395             Rx   d 8 01 11 20 41 08 00 07 7D
   1.140962 1  108             Rx   d 8 1A 0A 00 02 00 00 00 05
   1.141093 1  2B6             Rx   d 2 88 01
   1.141355 1  397             Rx   d 8 00 00 00 00 3B 00 00 00
   1.141506 1  128             Rx   d 4 8B 48 38 02
   1.141705 1  268             Rx   d 5 2C 2C FF 01 FF
   1.145539 1  1D8             Rx   d 8 80 00 00 00 00 00 E0 39
   1.149441 1  266             Rx   d 8 00 00 2C 2C 00 00 00 00
   1.149725 1  118             Rx   d 8 18 86 F0 00 00 08 01 80
   1.149972 1  3D5             Rx   d 8 3C 3C 3C 3B 3A 2B 03 43
   1.150235 1  7D5             Rx   d 8 2B 00 00 00 00 00 00 00
   1.150454 1  315             Rx   d 8 18 39 38 3B 50 38 9E 7D
   1.150695 1  7D5             Rx   d 8 32 60 00 00 00 00 00 00
   1.150933 1  315             Rx   d 8 01 38 38 00 39 28 00 00
   1.151186 1  7D7             Rx   d 8 32 2C 00 00 00 00 00 00
   1.151425 1  315             Rx   d 8 02 FF FF FF FF 00 00 00
   1.151675 1  7D5             Rx   d 8 42 00 00 E4 00 E4 20 00
   1.151922 1  315             Rx   d 8 FB FF FF FF FB FF FB 0F
   1.152150 1  7D5             Rx   d 8 43 BD C1 B4 6B 3C 00 00
   1.152403 1  315             Rx   d 8 04 FF FF FF FF 00 00 00
   1.152612 1  7D5             Rx   d 8 44 2E 46 21 56 37 24 44
   1.152807 1  5D7             Rx   d 5 50 6E 00 00 00
   1.153044 1  7D5             Rx   d 8 46 28 28 28 28 28 28 28
   1.153214 1  3B6             Rx   d 4 FF FF FF FF
   1.153420 1  356             Rx   d 6 6D 0B 00 00 B4 00
   1.153655 1  335             Rx   d 8 0B 00 1E 5B 00 00 00 00
   1.153894 1  355             Rx   d 8 53 00 64 00 43 03 06 18
   1.154125 1  351             Rx   d 8 AC 0B 0A 00 D2 00 70 08
   1.154376 1  3A7             Rx   d 8 00 00 00 00 00 00 00 00
   1.154619 1  7D5             Rx   d 8 48 28 28 00 00 00 8A 93
   1.154873 1  3E5             Rx   d 8 00 00 00 00 00 00 00 00
   1.155109 1  367             Rx   d 8 00 00 00 00 00 00 00 00
   1.155357 1  368             Rx   d 8 00 00 00 00 00 00 00 00
   1.155609 1  1D8             Rx   d 8 80 00 00 00 00 00 00 59
   1.155857 1  36B             Rx   d 8 00 00 00 00 00 00 00 80
   1.156106 1  36E             Rx   d 8 00 00 00 00 00 00 00 00
   1.159445 1  266             Rx   d 8 00 00 2C 2C 00 00 00 00
   1.159726 1  118             Rx   d 8 19 87 F0 00 00 08 01 80
   1.165536 1  1D8             Rx   d 8 80 00 00 00 00 00 20 79
   1.165774 1  377             Rx   d 8 50 30 31 5F 30 38 00 00
   1.166012 1  76              Rx   d 8 04 0F 05 0F 06 11 00 BC
   1.169453 1  266             Rx   d 8 00 00 2C 2C 00 00 00 00
   1.169701 1  118             Rx   d 8 1A 88 F0 00 00 08 01 80
   1.175479 1  80              Rx   d 8 5C 1C 40 F9 E5 94 14 B2
   1.175731 1  1D8             Rx   d 8 80 00 00 00 00 00 40 99
   1.179433 1  266             Rx   d 8 00 00 2C 2C 00 00 00 00
   1.179720 1  118             Rx   d 8 1B 89 F0 00 00 08 01 80
   1.185530 1  1D8             Rx   d 8 80 00 00 00 00 00 60 B9
   1.189447 1  266             Rx   d 8 00 00 2C 2C 00 00 00 00
   1.189720 1  118             Rx   d 8 1C 8A F0 00 00 08 01 80
   1.195201 1  81              Rx   d 8 E4 82 C6 0C 47 4A D2 A4
   1.195538 1  1D8             Rx   d 8 80 00 00 00 00 00 80 D9
   1.199429 1  266             Rx   d 8 00 00 2C 2C 00 00 00 00
   1.199708 1  118             Rx   d 8 1D 8B F0 00 00 08 01 80
   1.202931 1  56              Rx   d 8 04 00 00 00 00 00 04 5E
   1.205533 1  1D8             Rx   d 8 80 00 00 00 00 00 A0 F9
   1.209444 1  266             Rx   d 8 00 00 2C 2C 00 00 00 00
   1.209719 1  118             Rx   d 8 1E 8C F0 00 00 08 01 80
   1.214475 1  554             Rx   d 7 00 21 04 17 23 C0 01
   1.214723 1  344             Rx   d 8 00 00 00 00 00 00 20 67
   1.214969 1  6D4             Rx   d 8 0B 00 1E 5B 00 00 00 00
   1.215223 1  384             Rx   d 8 00 00 30 00 00 00 00 04
   1.215467 1  380             Rx   d 8 02 00 00 00 63 00 00 00
   1.215718 1  1D8             Rx   d 8 80 00 00 00 00 00 C0 19
   1.215964 1  5A6             Rx   d 8 11 80 01 00 00 00 00 00
   1.216201 1  5A4             Rx   d 8 3B 80 01 00 00 00 00 00
   1.216444 1  386             Rx   d 8 00 02 01 00 00 00 90 00
   1.216696 1  3A0             Rx   d 8 00 00 00 00 00 00 00 00
   1.219427 1  266             Rx   d 8 00 00 2C 2C 00 00 00 00
   1.219711 1  118             Rx   d 8 1F 8D F0 00 00 08 01 80
   1.219945 1  527             Rx   d 8 69 80 01 00 00 00 00 00
   1.220192 1  5A5             Rx   d 8 6E 80 01 00 00 00 00 00
   1.220435 1  5A5             Rx   d 8 EA 80 01 00 00 00 00 00
   1.220728 1  527             Rx   d 8 E7 80 01 00 00 00 00 00
   1.220979 1  3B5             Rx   d 8 04 00 00 08 00 20 00 00
   1.221218 1  3E5             Rx   d 8 00 00 00 00 00 02 00 00
   1.221475 1  368             Rx   d 8 00 00 00 00 00 01 00 00
   1.221733 1  36E             Rx   d 8 00 00 00 00 40 00 00 00
   1.225531 1  1D8             Rx   d 8 80 00 00 00 00 00 E0 39
   1.226202 1  80              Rx   d 8 5E 70 61 9A 5A 8E E6 75
   1.229426 1  266             Rx   d 8 00 00 2C 2C 00 00 00 00
   1.229716 1  118             Rx   d 8 20 8E F0 00 00 08 01 80
   1.235525 1  1D8             Rx   d 8 80 00 00 00 00 00 00 59
   1.239417 1  266             Rx   d 8 00 00 2C 2C 00 00 00 00
   1.239702 1  118             Rx   d 8 21 8F F0 00 00 08 01 80
   1.240000 1  166             Rx   d 7 25 09 00 00 00 B6 03
   1.240242 1  1D6             Rx   d 8 40 08 08 00 28 2D 57 10
   1.240430 1  279             Rx   d 5 12 8B 0C 00 00
   1.240708 1  395             Rx   d 8 01 11 1D 41 12 00 06 7D
   1.240949 1  108             Rx   d 8 1D 0B 00 02 00 02 00 05
   1.241051 1  2B6             Rx   d 2 88 01
   1.241322 1  397             Rx   d 8 00 00 00 00 3B 00 00 00
   1.241477 1  128             Rx   d 4 8B 48 38 02
   1.241670 1  268             Rx   d 5 2C 2C FF 01 FF
   1.245534 1  1D8             Rx   d 8 80 00 00 00 00 00 20 79
   1.245761 1  81              Rx   d 8 8F 88 93 28 85 4B 61 E1
   1.249422 1  266             Rx   d 8 00 00 2C 2C 00 00 00 00
   1.249707 1  118             Rx   d 8 12 80 F0 00 00 08 01 80
   1.249951 1  7D5             Rx   d 8 2B 00 00 00 00 00 00 00
   1.250207 1  7D5             Rx   d 8 32 60 00 00 00 00 00 00
   1.250441 1  7D7             Rx   d 8 32 2C 00 00 00 00 00 00
   1.255524 1  1D8             Rx   d 8 80 00 00 00 00 00 40 99
   1.257479 1  351             Rx   d 8 AC 0B 0A 00 D2 00 70 08
   1.257688 1  356             Rx   d 6 6D 0B 00 00 B4 00
   1.257917 1  355             Rx   d 8 53 00 64 00 43 03 06 18
   1.259421 1  266             Rx   d 8 00 00 2C 2C 00 00 00 00
   1.259709 1  118             Rx   d 8 13 81 F0 00 00 08 01 80
   1.265527 1  1D8             Rx   d 8 80 00 00 00 00 00 60 B9
   1.265766 1  379             Rx   d 8 9C 00 00 00 00 00 00 00
   1.266004 1  76              Rx   d 8 07 12 00 0F 01 0F 00 B6
   1.269421 1  266             Rx   d 8 00 00 2C 2C 00 00 00 00
   1.269697 1  118             Rx   d 8 14 82 F0 00 00 08 01 80
   1.275524 1  1D8             Rx   d 8 80 00 00 00 00 00 80 D9
   1.275757 1  80              Rx   d 8 28 3B B4 E8 BA 46 F8 43
   1.279413 1  266             Rx   d 8 00 00 2C 2C 00 00 00 00
   1.279701 1  118             Rx   d 8 15 83 F0 00 00 08 01 80
   1.285118 1  81              Rx   d 8 3F 4C 1C DA E3 F2 D5 40
   1.285525 1  1D8             Rx   d 8 80 00 00 00 00 00 A0 F9
   1.289415 1  266             Rx   d 8 00 00 2C 2C 00 00 00 00
   1.289702 1  118             Rx   d 8 16 84 F0 00 00 08 01 80
   1.295519 1  1D8             Rx   d 8 80 00 00 00 00 00 C0 19
   1.299407 1  266             Rx   d 8 00 00 2C 2C 00 00 00 00
   1.299691 1  118             Rx   d 8 17 85 F0 00 00 08 01 80
   1.302022 1  56              Rx   d 8 04 00 00 00 00 00 05 5F
   1.305516 1  1D8             Rx   d 8 80 00 00 00 00 00 E0 39
   1.309410 1  266             Rx   d 8 00 00 2C 2C 00 00 00 00
   1.309692 1  118             Rx   d 8 18 86 F0 00 00 08 01 80
   1.315518 1  1D8             Rx   d 8 80 00 00 00 00 00 00 59
   1.319410 1  266             Rx   d 8 00 00 2C 2C 00 00 00 00
   1.319684 1  118             Rx   d 8 19 87 F0 00 00 08 01 80
   1.325520 1  1D8             Rx   d 8 80 00 00 00 00 00 20 79
   1.326358 1  80              Rx   d 8 61 6E 12 0C 89 85 22 1A
   1.329411 1  266             Rx   d 8 00 00 2C 2C 00 00 00 00
   1.329689 1  118             Rx   d 8 1A 88 F0 00 00 08 01 80
   1.335512 1  1D8             Rx   d 8 80 00 00 00 00 00 40 99
   1.339408 1  266             Rx   d 8 00 00 2C 2C 00 00 00 00
   1.339698 1  118             Rx   d 8 1B 89 F0 00 00 08 01 80
   1.339996 1  166             Rx   d 7 25 09 00 00 00 B6 03
   1.340224 1  1D6             Rx   d 8 40 08 08 00 28 2D 87 10
   1.340422 1  279             Rx   d 5 13 8C 0C 00 00
   1.340685 1  395             Rx   d 8 01 11 1B 41 16 00 05 7D
   1.340944 1  108             Rx   d 8 1C 0C 00 02 00 00 00 05
   1.341043 1  2B6             Rx   d 2 88 01
   1.341318 1  397             Rx   d 8 00 00 00 00 3B 00 00 00
   1.341482 1  128             Rx   d 4 8B 48 38 02
   1.341675 1  268             Rx   d 5 2C 2C FF 01 FF
   1.345518 1  1D8             Rx   d 8 80 00 00 00 00 00 60 B9
   1.345861 1  81              Rx   d 8 24 C2 D7 2D E0 B1 EB 7F
   1.349408 1  266             Rx   d 8 00 00 2C 2C 00 00 00 00
   1.349689 1  118             Rx   d 8 1C 8A F0 00 00 08 01 80
   1.349938 1  7D5             Rx   d 8 2B 00 00 00 00 00 00 00
   1.350194 1  7D5             Rx   d 8 32 60 00 00 00 00 00 00
   1.350435 1  7D7             Rx   d 8 32 2C 00 00 00 00 00 00
   1.355512 1  1D8             Rx   d 8 80 00 00 00 00 00 80 D9
   1.359402 1  266             Rx   d 8 00 00 2C 2C 00 00 00 00
   1.359679 1  118             Rx   d 8 1D 8B F0 00 00 08 01 80
   1.361405 1  351             Rx   d 8 AC 0B 0A 00 D2 00 70 08
   1.361608 1  356             Rx   d 6 6D 0B 00 00 B4 00
   1.361846 1  355             Rx   d 8 53 00 64 00 43 03 06 18
   1.365517 1  1D8             Rx   d 8 80 00 00 00 00 00 A0 F9
   1.365756 1  380             Rx   d 8 4C 35 41 41 36 34 30 33
   1.365983 1  76              Rx   d 8 02 0F 03 0F 04 0F 00 B4
   1.369410 1  266             Rx   d 8 00 00 2C 2C 00 00 00 00
   1.369679 1  118             Rx   d 8 1E 8C F0 00 00 08 01 80
   1.375509 1  1D8             Rx   d 8 80 00 00 00 00 00 C0 19
   1.375778 1  80              Rx   d 8 0A B3 0D D8 80 48 CC DC
   1.379401 1  266             Rx   d 8 00 00 2C 2C 00 00 00 00
   1.379690 1  118             Rx   d 8 1F 8D F0 00 00 08 01 80
   1.385378 1  81              Rx   d 8 C9 D3 30 25 99 7D A6 70
   1.385638 1  1D8             Rx   d 8 80 00 00 00 00 00 E0 39
   1.389404 1  266             Rx   d 8 00 00 2C 2C 00 00 00 00
   1.389691 1  118             Rx   d 8 20 8E F0 00 00 08 01 80
   1.395509 1  1D8             Rx   d 8 80 00 00 00 00 00 00 59
   1.399400 1  266             Rx   d 8 00 00 2C 2C 00 00 00 00
   1.399685 1  118             Rx   d 8 21 8F F0 00 00 08 01 80
   1.401108 1  56              Rx   d 8 04 00 00 00 00 00 06 60
   1.405509 1  1D8             Rx   d 8 80 00 00 00 00 00 20 79
   1.409401 1  266             Rx   d 8 00 00 2C 2C 00 00 00 00
   1.409693 1  118             Rx   d 8 12 80 F0 00 00 08 01 80
   1.415502 1  1D8             Rx   d 8 80 00 00 00 00 00 40 99
   1.419397 1  266             Rx   d 8 00 00 2C 2C 00 00 00 00
   1.419683 1  118             Rx   d 8 13 81 F0 00 00 08 01 80
   1.425506 1  1D8             Rx   d 8 80 00 00 00 00 00 60 B9
   1.426518 1  80              Rx   d 8 9C F5 91 D1 CC BE 1D B4
   1.429402 1  266             Rx   d 8 00 00 2C 2C 00 00 00 00
   1.429687 1  118             Rx   d 8 14 82 F0 00 00 08 01 80
   1.435507 1  1D8             Rx   d 8 80 00 00 00 00 00 80 D9
   1.439392 1  266             Rx   d 8 00 00 2C 2C 00 00 00 00
   1.439686 1  118             Rx   d 8 15 83 F0 00 00 08 01 80
   1.439990 1  166             Rx   d 7 25 09 00 00 00 B6 03
   1.440209 1  1D6             Rx   d 8 40 08 08 00 28 2D 6A 10
   1.440408 1  279             Rx   d 5 14 8D 0C 00 00
   1.440673 1  395             Rx   d 8 01 11 1B 41 18 00 05 7D
   1.440916 1  108             Rx   d 8 1D 0D 00 02 00 00 00 05
   1.441069 1  2B6             Rx   d 2 88 01
   1.441307 1  397             Rx   d 8 00 00 00 00 3B 00 00 00
   1.441464 1  128             Rx   d 4 8B 48 38 02
   1.441633 1  268             Rx   d 5 2C 2C FF 01 FF
   1.445525 1  1D8             Rx   d 8 80 00 00 00 00 00 A0 F9
   1.446208 1  81              Rx   d 8 2D 7C 53 2D B1 EF 06 4D
   1.449398 1  266             Rx   d 8 00 00 2C 2C 00 00 00 00
   1.449685 1  118             Rx   d 8 16 84 F0 00 00 08 01 80
   1.449930 1  7D5             Rx   d 8 2B 00 00 00 00 00 00 00
   1.450191 1  7D5             Rx   d 8 32 60 00 00 00 00 00 00
   1.450428 1  7D7             Rx   d 8 32 2C 00 00 00 00 00 00
   1.455512 1  1D8             Rx   d 8 80 00 00 00 00 00 C0 19
   1.459395 1  266             Rx   d 8 00 00 2C 2C 00 00 00 00
   1.459687 1  118             Rx   d 8 17 85 F0 00 00 08 01 80
   1.465412 1  351             Rx   d 8 AC 0B 0A 00 D2 00 70 08
   1.465673 1  1D8             Rx   d 8 80 00 00 00 00 00 E0 39
   1.465874 1  356             Rx   d 6 6D 0B 00 00 B4 00
   1.466097 1  355             Rx   d 8 53 00 64 00 43 03 06 18
   1.466365 1  381             Rx   d 8 FF FF FF 00 00 00 00 00
   1.466586 1  76              Rx   d 8 05 0F 06 11 07 12 00 C2
   1.469415 1  266             Rx   d 8 00 00 2C 2C 00 00 00 00
   1.469652 1  118             Rx   d 8 18 86 F0 00 00 08 01 80
   1.475514 1  1D8             Rx   d 8 80 00 00 00 00 00 00 59
   1.475944 1  80              Rx   d 8 9E 49 B2 72 40 B8 EF 77
   1.479392 1  266             Rx   d 8 00 00 2C 2C 00 00 00 00
   1.479667 1  118             Rx   d 8 19 87 F0 00 00 08 01 80
   1.485311 1  81              Rx   d 8 0B 76 44 C5 15 BD 19 81
   1.485578 1  1D8             Rx   d 8 80 00 00 00 00 00 20 79
   1.489406 1  266             Rx   d 8 00 00 2C 2C 00 00 00 00
   1.489646 1  118             Rx   d 8 1A 88 F0 00 00 08 01 80
   1.495507 1  1D8             Rx   d 8 80 00 00 00 00 00 40 99
   1.499389 1  266             Rx   d 8 00 00 2C 2C 00 00 00 00
   1.499667 1  118             Rx   d 8 1B 89 F0 00 00 08 01 80
   1.500196 1  56              Rx   d 8 04 00 00 00 00 00 07 61
   1.505508 1  1D8             Rx   d 8 80 00 00 00 00 00 60 B9
   1.509404 1  266             Rx   d 8 00 00 2C 2C 00 00 00 00
   1.509682 1  118             Rx   d 8 1C 8A F0 00 00 08 01 80
   1.515506 1  1D8             Rx   d 8 80 00 00 00 00 00 80 D9
   1.519388 1  266             Rx   d 8 00 00 2C 2C 00 00 00 00
   1.519675 1  118             Rx   d 8 1D 8B F0 00 00 08 01 80
   1.521325 1  35B             Rx   d 4 7B 09 05 00
   1.521495 1  35A             Rx   d 4 00 00 00 00
   1.525510 1  1D8             Rx   d 8 80 00 00 00 00 00 A0 F9
   1.526671 1  80              Rx   d 8 D7 7C 11 97 0F F7 19 4F
   1.529409 1  266             Rx   d 8 00 00 2C 2C 00 00 00 00
   1.529673 1  118             Rx   d 8 1E 8C F0 00 00 08 01 80
   1.535501 1  1D8             Rx   d 8 80 00 00 00 00 00 C0 19
   1.539386 1  266             Rx   d 8 00 00 2C 2C 00 00 00 00
   1.539683 1  118             Rx   d 8 1F 8D F0 00 00 08 01 80
   1.539966 1  166             Rx   d 7 25 09 00 00 00 B6 03
   1.540204 1  1D6             Rx   d 8 40 08 08 00 28 2D 54 10
   1.540392 1  279             Rx   d 5 15 8E 0C 00 00
   1.540662 1  395             Rx   d 8 01 11 19 41 18 00 05 7D
   1.540916 1  108             Rx   d 8 1E 0E 00 02 00 00 00 05
   1.541017 1  2B6             Rx   d 2 88 01
   1.541291 1  397             Rx   d 8 00 00 00 00 3B 00 00 00
   1.541446 1  128             Rx   d 4 8B 48 38 02
   1.541649 1  268             Rx   d 5 2C 2C FF 01 FF
   1.545502 1  1D8             Rx   d 8 80 00 00 00 00 00 E0 39
   1.546295 1  81              Rx   d 8 AF B8 75 36 C8 38 00 13
   1.549408 1  266             Rx   d 8 00 00 2C 2C 00 00 00 00
   1.549662 1  118             Rx   d 8 20 8E F0 00 00 08 01 80
   1.549912 1  7D5             Rx   d 8 2B 00 00 00 00 00 00 00
   1.550156 1  7D5             Rx   d 8 32 60 00 00 00 00 00 00
   1.550402 1  7D7             Rx   d 8 32 2C 00 00 00 00 00 00
   1.555506 1  1D8             Rx   d 8 80 00 00 00 00 00 00 59
   1.559382 1  266             Rx   d 8 00 00 2C 2C 00 00 00 00
   1.559668 1  118             Rx   d 8 21 8F F0 00 00 08 01 80
   1.565501 1  1D8             Rx   d 8 80 00 00 00 00 00 20 79
   1.565744 1  374             Rx   d 8 50 30 31 5F 30 37 30 00
   1.565982 1  76              Rx   d 8 00 0F 01 0F 02 0F 00 AE
   1.569393 1  266             Rx   d 8 00 00 2C 2C 00 00 00 00
   1.569599 1  356             Rx   d 6 6D 0B 00 00 B4 00
   1.569837 1  118             Rx   d 8 12 80 F0 00 00 08 01 80
   1.570073 1  355             Rx   d 8 53 00 64 00 43 03 06 18
   1.570327 1  351             Rx   d 8 AC 0B 0A 00 D2 00 70 08
   1.575504 1  1D8             Rx   d 8 80 00 00 00 00 00 40 99
   1.577406 1  80              Rx   d 8 D9 D0 31 38 83 F1 EB 12
   1.579073 1  36              Rx   d 8 08 9E B4 10 12 9E BC 14
   1.579405 1  266             Rx   d 8 00 00 2C 2C 00 00 00 00
   1.579673 1  118             Rx   d 8 13 81 F0 00 00 08 01 80
   1.585499 1  1D8             Rx   d 8 80 00 00 00 00 00 60 B9
   1.589406 1  266             Rx   d 8 00 00 2C 2C 00 00 00 00
   1.589656 1  118             Rx   d 8 14 82 F0 00 00 08 01 80
   1.595435 1  81              Rx   d 8 5D 5E E3 EF 90 A0 E5 D5
   1.595684 1  1D8             Rx   d 8 80 00 00 00 00 00 80 D9
   1.599281 1  56              Rx   d 8 04 00 00 00 00 00 08 62
   1.599527 1  266             Rx   d 8 00 00 2C 2C 00 00 00 00
   1.599777 1  118             Rx   d 8 15 83 F0 00 00 08 01 80
   1.605500 1  1D8             Rx   d 8 80 00 00 00 00 00 A0 F9
   1.609403 1  266             Rx   d 8 00 00 2C 2C 00 00 00 00
   1.609670 1  118             Rx   d 8 16 84 F0 00 00 08 01 80
   1.615495 1  1D8             Rx   d 8 80 00 00 00 00 00 C0 19
   1.619387 1  266             Rx   d 8 00 00 2C 2C 00 00 00 00
   1.619675 1  118             Rx   d 8 17 85 F0 00 00 08 01 80
   1.625492 1  1D8             Rx   d 8 80 00 00 00 00 00 E0 39
   1.628120 1  80              Rx   d 8 4A 8C 5E B0 66 72 D5 DE
   1.629398 1  266             Rx   d 8 00 00 2C 2C 00 00 00 00
   1.629670 1  118             Rx   d 8 18 86 F0 00 00 08 01 80
   1.635494 1  1D8             Rx   d 8 80 00 00 00 00 00 00 59
   1.639380 1  266             Rx   d 8 00 00 2C 2C 00 00 00 00
   1.639669 1  118             Rx   d 8 19 87 F0 00 00 08 01 80
   1.639958 1  166             Rx   d 7 25 09 00 00 00 B6 03
   1.640196 1  1D6             Rx   d 8 40 08 08 00 28 2D 5C 10
   1.640386 1  279             Rx   d 5 26 9F 0C 00 00
   1.640656 1  395             Rx   d 8 01 11 18 41 18 00 04 7D
   1.640898 1  108             Rx   d 8 20 0F 00 02 00 01 00 05
   1.641001 1  2B6             Rx   d 2 88 01
   1.641284 1  397             Rx   d 8 00 00 00 00 3B 00 00 00
   1.641444 1  128             Rx   d 4 8B 48 38 02
   1.641645 1  268             Rx   d 5 2C 2C FF 01 FF
   1.645499 1  1D8             Rx   d 8 80 00 00 00 00 00 20 79
   1.646387 1  81              Rx   d 8 25 2E E2 EE CF 26 16 B2
   1.649395 1  266             Rx   d 8 00 00 2C 2C 00 00 00 00
   1.649668 1  118             Rx   d 8 1A 88 F0 00 00 08 01 80
   1.649920 1  7D5             Rx   d 8 2B 00 00 00 00 00 00 00
   1.650158 1  7D5             Rx   d 8 32 60 00 00 00 00 00 00
   1.650407 1  7D7             Rx   d 8 32 2C 00 00 00 00 00 00
   1.655493 1  1D8             Rx   d 8 80 00 00 00 00 00 40 99
   1.659382 1  266             Rx   d 8 00 00 2C 2C 00 00 00 00
   1.659634 1  118             Rx   d 8 1B 89 F0 00 00 08 01 80
   1.665487 1  1D8             Rx   d 8 80 00 00 00 00 00 60 B9
   1.665722 1  375             Rx   d 8 50 30 31 5F 30 32 31 00
   1.665960 1  76              Rx   d 8 03 0F 04 0F 05 0F 00 B7
   1.666257 1  606             Rx   d 8 03 22 F0 13 00 00 00 00
   1.666873 1  616             Rx   d 8 10 11 62 F0 13 50 47 54
   1.669394 1  266             Rx   d 8 00 00 2C 2C 00 00 00 00
   1.669652 1  118             Rx   d 8 1C 8A F0 00 00 08 01 80
   1.673477 1  351             Rx   d 8 AC 0B 0A 00 D2 00 70 08
   1.673694 1  356             Rx   d 6 6D 0B 00 00 B4 00
   1.673920 1  355             Rx   d 8 53 00 64 00 43 03 06 18
   1.675491 1  1D8             Rx   d 8 80 00 00 00 00 00 80 D9
   1.676713 1  606             Rx   d 8 30 00 0A 00 00 00 00 00
   1.676980 1  616             Rx   d 8 21 32 31 32 35 38 30 35
   1.679382 1  266             Rx   d 8 00 00 2C 2C 00 00 00 00
   1.679620 1  118             Rx   d 8 1D 8B F0 00 00 08 01 80
   1.685492 1  1D8             Rx   d 8 80 00 00 00 00 00 A0 F9
   1.689395 1  266             Rx   d 8 00 00 2C 2C 00 00 00 00
   1.689656 1  118             Rx   d 8 1E 8C F0 00 00 08 01 80
   1.695486 1  1D8             Rx   d 8 80 00 00 00 00 00 C0 19
   1.696129 1  616             Rx   d 8 22 32 39 36 38 AA AA AA
   1.698366 1  56              Rx   d 8 04 00 00 00 00 00 09 63
   1.699384 1  266             Rx   d 8 00 00 2C 2C 00 00 00 00
   1.699672 1  118             Rx   d 8 1F 8D F0 00 00 08 01 80
   1.705484 1  1D8             Rx   d 8 80 00 00 00 00 00 E0 39
   1.709390 1  266             Rx   d 8 00 00 2C 2C 00 00 00 00
   1.709640 1  604             Rx   d 8 02 11 01 00 00 00 00 00
   1.709881 1  118             Rx   d 8 20 8E F0 00 00 08 01 80
   1.710125 1  614             Rx   d 8 02 51 01 AA AA AA AA AA
   1.710351 1  644             Rx   d 8 02 11 01 00 00 00 00 00
   1.714723 1  1D5             Rx   d 8 21 00 00 00 00 00 00 F7
   1.714966 1  2E5             Rx   d 8 00 00 00 00 00 00 DD 00
   1.715493 1  1D8             Rx   d 8 80 00 00 00 00 00 00 59
   1.719197 1  132             Rx   d 8 10 72 00 00 38 40 08 0E
   1.719708 1  55              Rx   d 8 00 00 00 00 00 00 01 56
   1.726631 1  1D5             Rx   d 8 21 00 00 00 00 00 20 17
   1.726885 1  2E5             Rx   d 8 00 00 00 00 00 00 DD 00
   1.730477 1  53              Rx   d 8 D4 30 84 C7 8F 38 46 15
   1.746150 1  132             Rx   d 8 10 72 00 00 38 40 08 0E
   1.746416 1  55              Rx   d 8 01 00 00 00 00 00 01 57
   1.746643 1  1D5             Rx   d 8 21 00 00 00 00 00 40 37
   1.746902 1  2E5             Rx   d 8 00 00 00 00 00 00 DD 00
   1.748654 1  39D             Rx   d 5 32 60 0A 28 00
   1.749756 1  132             Rx   d 8 10 72 00 00 38 40 08 0E
   1.750010 1  55              Rx   d 8 02 01 00 00 00 00 01 59
   1.750232 1  53              Rx   d 8 D4 30 84 C7 8F 38 46 15
   1.755742 1  1D5             Rx   d 8 21 00 00 00 00 00 60 57
   1.755996 1  2E5             Rx   d 8 00 00 00 00 00 00 DD 00
   1.757038 1  5F4             Rx   d 8 00 09 1E 5B 00 00 00 01
   1.758697 1  221             Rx   d 8 60 55 55 15 54 51 01 E8
   1.758932 1  3A1             Rx   d 8 88 4E 0B C8 00 00 00 B4
   1.759165 1  3C2             Rx   d 8 10 55 55 55 00 00 5D 19
   1.759402 1  441             Rx   d 8 46 65 22 20 DB 0E 00 90
   1.759779 1  132             Rx   d 8 10 72 00 00 38 40 08 0E
   1.760024 1  55              Rx   d 8 03 00 00 00 00 00 01 59
   1.765721 1  376             Rx   d 8 50 30 31 5F 30 31 00 00
   1.765953 1  76              Rx   d 8 06 11 07 12 00 0F 00 BD
   1.766202 1  1D5             Rx   d 8 21 00 00 00 00 00 80 77
   1.766443 1  2E5             Rx   d 8 00 00 00 00 00 00 DD 00
   1.769885 1  132             Rx   d 8 10 72 00 00 38 40 08 0E
   1.770135 1  55              Rx   d 8 00 00 00 00 00 00 02 57
   1.770361 1  53              Rx   d 8 D4 30 84 C7 8F 38 46 15
   1.770757 1  107D0x          Rx   d 8 21 64 64 8B 13 18 00 02
   1.775770 1  1D5             Rx   d 8 21 00 00 00 00 00 A0 97
   1.776027 1  2E5             Rx   d 8 00 00 00 00 00 00 DD 00
   1.777477 1  351             Rx   d 8 AC 0B 0A 00 D2 00 70 08
   1.777684 1  356             Rx   d 6 6D 0B 00 00 B4 00
   1.777921 1  355             Rx   d 8 53 00 64 00 43 03 06 18
   1.779783 1  132             Rx   d 8 10 72 00 00 38 40 08 0E
   1.780041 1  55              Rx   d 8 01 00 00 00 00 00 02 58
   1.785768 1  1D5             Rx   d 8 21 00 00 00 00 00 C0 B7
   1.786014 1  2E5             Rx   d 8 00 00 00 00 00 00 DD 00
   1.788658 1  39D             Rx   d 5 33 61 0A 28 00
   1.789816 1  132             Rx   d 8 10 72 00 00 38 40 08 0E
   1.790080 1  55              Rx   d 8 02 01 00 00 00 00 02 5A
   1.790291 1  53              Rx   d 8 D4 30 84 C7 8F 38 46 15
   1.795765 1  1D5             Rx   d 8 21 00 00 00 00 00 E0 D7
   1.796019 1  2E5             Rx   d 8 00 00 00 00 00 00 DD 00
   1.797466 1  56              Rx   d 8 04 00 00 00 00 00 0A 64
   1.799862 1  132             Rx   d 8 10 72 00 00 38 40 08 0E
   1.800112 1  55              Rx   d 8 03 00 00 00 00 00 02 5A
   1.805766 1  1D5             Rx   d 8 21 00 00 00 00 00 00 F7
   1.806020 1  2E5             Rx   d 8 00 00 00 00 00 00 DD 00
   1.808767 1  221             Rx   d 8 61 05 55 05 00 00 10 F3
   1.809020 1  3A1             Rx   d 8 03 00 98 6E BE 00 10 E2
   1.809233 1  3C2             Rx   d 8 01 55 15 15 00 00 55 09
   1.809482 1  441             Rx   d 8 00 00 00 00 00 00 05 BF
   1.809716 1  52              Rx   d 8 64 18 13 8B 64 31 20 00
   1.809958 1  339             Rx   d 8 41 44 FE 00 00 03 80 00
   1.810188 1  102             Rx   d 8 22 B3 48 04 00 00 A0 09
   1.810428 1  103             Rx   d 8 22 B3 88 44 00 00 20 32
   1.810686 1  207             Rx   d 8 00 00 00 00 00 28 28 00
   1.810923 1  224             Rx   d 8 04 08 00 40 19 01 10 08
   1.811143 1  241             Rx   d 7 3C 3C 16 0F 8F 55 00
   1.811388 1  247             Rx   d 8 10 0E FF 00 00 00 00 00
   1.811621 1  2A8             Rx   d 8 02 00 00 00 00 80 00 2C
   1.811866 1  2E8             Rx   d 8 02 00 00 00 00 80 00 6C
   1.812111 1  2E1             Rx   d 8 10 21 0B 9E E4 68 00 04
   1.812216 1  500             Rx   d 2 01 01
   1.812486 1  7FF             Rx   d 8 01 41 53 55 04 04 15 01
   1.812719 1  212             Rx   d 8 B9 04 A3 2F 01 38 00 01
   1.812964 1  252             Rx   d 8 00 00 CD 01 00 00 01 00
   1.813197 1  25D             Rx   d 8 34 41 01 2A 08 00 00 00
   1.813424 1  2D2             Rx   d 8 30 2A 34 3A 0A 00 8C 00
   1.813571 1  229             Rx   d 3 46 00 00
   1.813704 1  2D1             Rx   d 2 FF 01
   1.813893 1  333             Rx   d 5 00 30 84 07 02
   1.814136 1  125             Rx   d 8 0A 00 72 0B 00 00 00 00
   1.814384 1  126             Rx   d 8 00 C0 00 00 10 00 00 00
   1.814623 1  132             Rx   d 8 10 72 00 00 38 40 08 0E
   1.814872 1  55              Rx   d 8 00 00 00 00 00 00 03 58
   1.815102 1  53              Rx   d 8 D4 30 84 C3 8F 38 46 15
   1.815792 1  1D5             Rx   d 8 21 00 00 00 00 00 20 17
   1.816029 1  2E5             Rx   d 8 00 00 00 00 00 00 DD 00
   1.823818 1  132             Rx   d 8 10 72 00 00 38 40 08 0E
   1.824054 1  55              Rx   d 8 01 00 00 00 00 00 03 59
   1.825789 1  1D5             Rx   d 8 21 00 00 00 00 00 40 37
   1.826042 1  2E5             Rx   d 8 00 00 00 00 00 00 DD 00
   1.828693 1  39D             Rx   d 5 34 62 0A 28 00
   1.833844 1  132             Rx   d 8 10 72 00 00 38 40 08 0E
   1.834084 1  55              Rx   d 8 02 01 00 00 00 00 03 5B
   1.834312 1  53              Rx   d 8 D4 30 84 C3 8F 38 46 15
   1.835767 1  1D5             Rx   d 8 21 00 00 00 00 00 60 57
   1.836041 1  2E5             Rx   d 8 00 00 00 00 00 00 DD 00
   1.841868 1  1D8             Rx   d 8 00 00 00 00 00 00 00 D9
   1.843886 1  132             Rx   d 8 10 72 00 00 38 40 08 0E
   1.844146 1  55              Rx   d 8 03 00 00 00 00 00 03 5B
   1.845785 1  1D5             Rx   d 8 21 00 00 00 00 00 80 77
   1.846038 1  2E5             Rx   d 8 00 00 00 00 00 00 DD 00
   1.851919 1  1D8             Rx   d 8 00 00 00 00 00 00 20 F9
   1.852173 1  5A6             Rx   d 8 60 80 01 03 00 40 02 00
   1.852406 1  5A6             Rx   d 8 38 80 03 00 00 00 03 00
   1.852656 1  386             Rx   d 8 00 00 00 00 00 00 80 00
   1.853820 1  132             Rx   d 8 10 72 00 00 38 40 08 0E
   1.854072 1  55              Rx   d 8 00 00 00 00 00 00 04 59
   1.854295 1  53              Rx   d 8 D4 30 84 C3 8F 38 46 15
   1.855775 1  1D5             Rx   d 8 21 00 00 00 00 00 A0 97
   1.856026 1  266             Rx   d 8 00 00 2C 2C 00 00 00 00
   1.856268 1  118             Rx   d 8 12 80 F0 00 00 08 01 80
   1.856516 1  2E5             Rx   d 8 00 00 00 00 00 00 DD 00
   1.858735 1  221             Rx   d 8 00 55 55 15 54 51 21 A8
   1.858978 1  3A1             Rx   d 8 88 4E 0B C8 00 00 20 D4
   1.859208 1  3C2             Rx   d 8 10 55 55 55 00 00 5D 19
   1.859431 1  441             Rx   d 8 46 65 22 20 DB 0E 08 98
   1.861897 1  1D8             Rx   d 8 00 00 00 00 00 00 40 19
   1.863858 1  132             Rx   d 8 10 72 00 00 38 40 08 0E
   1.864109 1  55              Rx   d 8 01 00 00 00 00 00 04 5A
   1.865718 1  377             Rx   d 8 50 30 31 5F 30 38 00 00
   1.865962 1  76              Rx   d 8 01 0F 02 0F 03 0F 00 B1
   1.866207 1  1D5             Rx   d 8 21 00 00 00 00 00 C0 B7
   1.866450 1  266             Rx   d 8 00 00 2C 2C 00 00 00 00
   1.866685 1  166             Rx   d 7 A5 00 00 00 00 B6 03
   1.866929 1  118             Rx   d 8 13 81 F0 00 00 08 01 80
   1.867170 1  1D6             Rx   d 8 00 08 08 00 28 2D C0 10
   1.867414 1  2E5             Rx   d 8 00 00 00 00 00 00 DD 00
   1.867664 1  527             Rx   d 8 C0 80 00 00 00 00 00 00
   1.867847 1  279             Rx   d 5 17 90 0C 00 00
   1.868088 1  36B             Rx   d 8 00 00 00 00 00 00 00 80
   1.868330 1  395             Rx   d 8 F7 0D FF FF FF FF 00 7D
   1.868591 1  108             Rx   d 8 8E 00 00 04 00 00 80 01
   1.868691 1  2B6             Rx   d 2 88 01
   1.868891 1  39D             Rx   d 5 35 63 0A 28 00
   1.869141 1  397             Rx   d 8 00 00 00 00 3B 00 00 00
   1.869303 1  128             Rx   d 4 8B 00 EC 0A
   1.869487 1  268             Rx   d 5 2C 2C FF 01 FF
   1.871902 1  1D8             Rx   d 8 00 00 00 00 00 00 60 39
   1.874274 1  132             Rx   d 8 10 72 00 00 38 40 08 0E
   1.874516 1  55              Rx   d 8 02 01 00 00 00 00 04 5C
   1.874741 1  53              Rx   d 8 D4 30 84 C7 8F 38 46 15
   1.875802 1  266             Rx   d 8 00 00 2C 2C 00 00 00 00
   1.876088 1  118             Rx   d 8 14 82 F0 00 00 08 01 80
   1.876328 1  3D5             Rx   d 8 FF FF FF FF FF FF FF FF
   1.876585 1  7D5             Rx   d 8 2B 00 00 00 00 00 00 00
   1.876819 1  315             Rx   d 8 18 39 38 3B 50 38 9E 7D
   1.877063 1  7D5             Rx   d 8 32 60 00 00 00 00 00 00
   1.877316 1  315             Rx   d 8 01 38 38 00 38 28 00 00
   1.877543 1  1D5             Rx   d 8 21 00 00 00 00 00 E0 D7
   1.877794 1  2E5             Rx   d 8 00 00 00 00 00 00 DD 00
   1.878046 1  315             Rx   d 8 02 FF FF FF FF 00 00 00
   1.878283 1  7D7             Rx   d 8 32 2C 00 00 00 00 00 00
   1.878536 1  315             Rx   d 8 FB FF FF FF FB FF FB 0F
   1.878774 1  7D5             Rx   d 8 42 FD 00 FD 00 E5 19 00
   1.879029 1  315             Rx   d 8 04 FF FF FF FF 00 00 00
   1.879260 1  7D5             Rx   d 8 43 FD 00 FD 00 3C 00 00
   1.879440 1  5D7             Rx   d 5 8C 8C 00 00 00
   1.879677 1  7D5             Rx   d 8 44 2A 43 1D 56 37 24 46
   1.879840 1  3B6             Rx   d 4 FF FF FF FF
   1.880069 1  7D5             Rx   d 8 46 28 28 28 28 28 28 28
   1.880315 1  335             Rx   d 8 0A 01 05 33 FC 00 05 00
   1.880552 1  7D5             Rx   d 8 48 28 28 00 00 00 8A 93
   1.880803 1  3A7             Rx   d 8 00 00 00 00 00 00 00 00
   1.881058 1  3B5             Rx   d 8 00 00 00 00 00 00 00 00
   1.881305 1  3C5             Rx   d 8 00 00 00 00 00 00 00 00
   1.881512 1  356             Rx   d 6 6D 0B 00 00 B4 00
   1.881745 1  355             Rx   d 8 53 00 64 00 43 03 06 18
   1.881992 1  1D8             Rx   d 8 00 00 00 00 00 00 80 59
   1.882231 1  351             Rx   d 8 AC 0B 0A 00 D2 00 70 08
   1.882473 1  3E5             Rx   d 8 00 00 00 00 00 00 00 00
   1.882719 1  367             Rx   d 8 00 00 00 00 00 00 00 00
   1.882972 1  368             Rx   d 8 00 00 00 00 00 00 00 00
   1.883234 1  36E             Rx   d 8 00 00 00 00 00 00 00 00
   1.884297 1  132             Rx   d 8 10 72 00 00 38 40 08 0E
   1.884539 1  55              Rx   d 8 03 00 00 00 00 00 04 5C
   1.885788 1  266             Rx   d 8 00 00 2C 2C 00 00 00 00
   1.886067 1  118             Rx   d 8 15 83 F0 00 00 08 01 80
   1.887880 1  1D5             Rx   d 8 21 00 00 00 00 00 00 F7
   1.888139 1  2E5             Rx   d 8 00 00 00 00 00 00 DD 00
   1.891890 1  1D8             Rx   d 8 00 00 00 00 00 00 A0 79
   1.894301 1  132             Rx   d 8 10 72 00 00 38 40 08 0E
   1.894549 1  55              Rx   d 8 00 00 00 00 00 00 05 5A
   1.894772 1  53              Rx   d 8 D4 30 84 C7 8F 38 46 15
   1.895807 1  266             Rx   d 8 00 00 2C 2C 00 00 00 00
   1.896089 1  118             Rx   d 8 16 84 F0 00 00 08 01 80
   1.896537 1  56              Rx   d 8 04 00 00 00 00 00 0B 65
   1.897870 1  1D5             Rx   d 8 21 00 00 00 00 00 20 17
   1.898132 1  2E5             Rx   d 8 00 00 00 00 00 00 DD 00
   1.901890 1  1D8             Rx   d 8 00 00 00 00 00 00 C0 99
   1.904331 1  132             Rx   d 8 10 72 00 00 38 40 08 0E
   1.904581 1  55              Rx   d 8 01 00 00 00 00 00 05 5B
   1.905771 1  266             Rx   d 8 00 00 2C 2C 00 00 00 00
   1.906056 1  118             Rx   d 8 17 85 F0 00 00 08 01 80
   1.907920 1  1D5             Rx   d 8 21 00 00 00 00 00 40 37
   1.908184 1  2E5             Rx   d 8 00 00 00 00 00 00 DD 00
   1.908724 1  39D             Rx   d 5 36 64 0A 28 00
   1.908959 1  221             Rx   d 8 61 05 55 05 00 00 30 13
   1.909197 1  3A1             Rx   d 8 03 00 98 6E BE 00 30 02
   1.909433 1  3C2             Rx   d 8 01 55 15 15 00 00 55 09
   1.909680 1  441             Rx   d 8 00 00 00 00 00 00 0D C7
   1.909915 1  52              Rx   d 8 64 18 13 8B 64 31 20 00
   1.910155 1  339             Rx   d 8 41 44 FE 00 00 03 80 00
   1.910385 1  102             Rx   d 8 22 B3 48 04 00 00 A0 09
   1.910624 1  103             Rx   d 8 22 B3 88 44 00 00 20 32
   1.910877 1  207             Rx   d 8 00 00 00 00 00 28 28 00
   1.911112 1  224             Rx   d 8 04 08 00 40 19 01 10 08
   1.911333 1  241             Rx   d 7 3C 3C 16 0F 8F 55 00
   1.911576 1  247             Rx   d 8 10 0E FF 00 00 00 00 00
   1.911822 1  2A8             Rx   d 8 02 00 00 00 00 80 10 3C
   1.912064 1  1D8             Rx   d 8 00 00 00 00 00 00 E0 B9
   1.912305 1  2E8             Rx   d 8 02 00 00 00 00 80 10 7C
   1.912551 1  2E1             Rx   d 8 39 0D 00 70 0C 00 00 00
   1.912671 1  500             Rx   d 2 01 01
   1.912911 1  7FF             Rx   d 8 02 26 32 26 44 11 96 A2
   1.913142 1  212             Rx   d 8 B9 04 A3 2F 01 38 00 01
   1.913383 1  252             Rx   d 8 00 00 CD 01 00 00 01 00
   1.913630 1  25D             Rx   d 8 34 41 01 2A 08 00 00 00
   1.913863 1  2D2             Rx   d 8 30 2A 34 3A 0A 00 8C 00
   1.914008 1  229             Rx   d 3 44 01 00
   1.914138 1  2D1             Rx   d 2 FF 01
   1.914327 1  333             Rx   d 5 00 30 84 07 02
   1.914580 1  125             Rx   d 8 00 00 72 06 00 00 00 00
   1.914821 1  126             Rx   d 8 00 C0 34 F3 10 00 00 00
   1.915101 1  132             Rx   d 8 10 72 00 00 38 40 08 0E
   1.915339 1  55              Rx   d 8 02 01 00 00 00 00 05 5D
   1.915570 1  53              Rx   d 8 D4 30 84 C7 8F 38 46 15
   1.916559 1  266             Rx   d 8 00 00 2C 2C 00 00 00 00
   1.916797 1  7D7             Rx   d 8 02 F0 32 00 00 00 00 00
   1.917034 1  118             Rx   d 8 68 86 30 00 00 18 01 80
   1.917846 1  1D5             Rx   d 8 21 00 00 00 00 00 60 57
   1.918092 1  2E5             Rx   d 8 00 00 00 00 00 00 DD 00
   1.921981 1  1D8             Rx   d 8 00 00 00 00 00 00 00 D9
   1.924332 1  132             Rx   d 8 10 72 00 00 38 40 08 0E
   1.924583 1  55              Rx   d 8 03 00 00 00 00 00 05 5D
   1.926607 1  266             Rx   d 8 00 00 2C 2C 00 00 00 00
   1.926853 1  7D7             Rx   d 8 02 F0 32 00 00 00 00 00
   1.927088 1  118             Rx   d 8 59 87 30 00 00 08 01 80
   1.927331 1  297             Rx   d 8 72 44 1F 00 02 A0 0F 05
   1.927887 1  1D5             Rx   d 8 21 00 00 00 00 00 80 77
   1.928136 1  2E5             Rx   d 8 00 00 00 00 00 00 DD 00
   1.932007 1  1D8             Rx   d 8 00 00 00 00 00 00 20 F9
   1.934310 1  132             Rx   d 8 10 72 00 00 38 40 08 0E
   1.934554 1  55              Rx   d 8 00 01 00 00 00 00 06 5C
   1.934785 1  53              Rx   d 8 D4 30 84 C7 8F 38 46 15
   1.937214 1  266             Rx   d 8 00 00 2C 2C 00 00 00 00
   1.937474 1  7D7             Rx   d 8 02 F0 32 00 00 00 00 00
   1.937700 1  118             Rx   d 8 DA 88 30 00 00 08 01 00
   1.937945 1  1D5             Rx   d 8 21 00 00 00 00 00 A0 97
   1.938195 1  2E5             Rx   d 8 00 00 00 00 00 00 DD 00
   1.940810 1  554             Rx   d 7 00 21 04 17 23 C0 01
   1.941058 1  344             Rx   d 8 00 00 00 00 00 00 00 47
   1.941299 1  6D4             Rx   d 8 0A 01 05 33 FC 00 09 00
   1.941550 1  3A0             Rx   d 8 00 00 00 80 00 00 00 00
   1.941799 1  384             Rx   d 8 00 00 00 00 00 00 00 00
   1.942049 1  1D8             Rx   d 8 00 00 00 00 00 00 40 19
   1.942300 1  380             Rx   d 8 00 00 00 00 00 00 00 00
   1.944335 1  132             Rx   d 8 10 72 00 00 38 40 08 0E
   1.944593 1  55              Rx   d 8 01 00 00 00 00 00 06 5C
   1.946760 1  266             Rx   d 8 00 00 2C 2C 00 00 00 00
   1.946999 1  118             Rx   d 8 DB 89 30 00 00 08 01 00
   1.947247 1  7D7             Rx   d 8 02 F0 32 00 00 00 00 00
   1.947487 1  297             Rx   d 8 6F 45 1F 00 02 A0 0F 01
   1.947942 1  1D5             Rx   d 8 21 00 00 00 00 00 C0 B7
   1.948195 1  2E5             Rx   d 8 00 00 00 00 00 00 DD 00
   1.948754 1  39D             Rx   d 5 37 65 0A 28 00
   1.951998 1  1D8             Rx   d 8 00 00 00 00 00 00 60 39
   1.954345 1  132             Rx   d 8 10 72 00 00 38 40 08 0E
   1.954592 1  55              Rx   d 8 02 01 00 00 00 00 06 5E
   1.954830 1  53              Rx   d 8 D4 30 84 C7 8F 38 46 15
   1.957211 1  266             Rx   d 8 00 00 2C 2C 00 00 00 00
   1.957459 1  7D7             Rx   d 8 02 F0 32 00 00 00 00 00
   1.957708 1  118             Rx   d 8 DC 8A 30 00 00 08 01 00
   1.957987 1  1D5             Rx   d 8 21 00 00 00 00 00 E0 D7
   1.958247 1  2E5             Rx   d 8 00 00 00 00 00 00 DD 00
   1.958793 1  221             Rx   d 8 60 55 55 15 54 51 41 28
   1.959035 1  3A1             Rx   d 8 88 4E 0B C8 00 00 40 F4
   1.959267 1  3C2             Rx   d 8 10 55 55 55 00 00 5D 19
   1.959494 1  441             Rx   d 8 46 65 22 20 DB 0E 10 A0
   1.959732 1  55A             Rx   d 8 01 00 00 00 30 00 00 00
   1.961971 1  1D8             Rx   d 8 00 00 00 00 00 00 80 59
   1.964330 1  132             Rx   d 8 10 72 00 00 38 40 08 0E
   1.964579 1  55              Rx   d 8 03 00 00 00 00 00 06 5E
   1.965723 1  379             Rx   d 8 9C 00 00 00 00 00 00 00
   1.965971 1  76              Rx   d 8 04 0F 05 0F 06 11 00 BC
   1.966782 1  266             Rx   d 8 00 00 2C 2C 00 00 00 00
   1.967049 1  118             Rx   d 8 DD 8B 30 00 00 08 01 00
   1.967300 1  7D7             Rx   d 8 02 F0 32 00 00 00 00 00
   1.967526 1  297             Rx   d 8 70 46 1F 00 02 A0 0F 01
   1.967750 1  166             Rx   d 7 24 01 00 00 00 B6 03
   1.967990 1  1D5             Rx   d 8 21 00 00 00 00 00 00 F7
   1.968233 1  1D6             Rx   d 8 00 08 08 08 28 2D 67 10
   1.968400 1  279             Rx   d 5 08 81 0C 00 00
   1.968657 1  2E5             Rx   d 8 00 00 00 00 00 00 DD 00
   1.968896 1  395             Rx   d 8 F1 11 18 41 FF 02 04 7D
   1.969138 1  108             Rx   d 8 8F 01 00 04 00 00 80 01
   1.969270 1  2B6             Rx   d 2 02 1B
   1.969511 1  397             Rx   d 8 00 00 00 00 3B 00 00 00
   1.969685 1  128             Rx   d 4 8B 00 EC 0A
   1.969868 1  268             Rx   d 5 2C 2C FF 01 FF
   1.972005 1  1D8             Rx   d 8 00 00 00 00 00 00 A0 79
   1.974391 1  132             Rx   d 8 10 72 00 00 38 40 08 0E
   1.974646 1  55              Rx   d 8 00 01 00 00 00 00 07 5D
   1.974861 1  53              Rx   d 8 D4 30 84 C7 8F 38 46 15
   1.977263 1  266             Rx   d 8 00 00 2C 2C 00 00 00 00
   1.977512 1  7D7             Rx   d 8 02 F0 32 00 00 00 00 00
   1.977755 1  276             Rx   d 8 00 2F 00 56 01 E4 0B C0
   1.977996 1  1D5             Rx   d 8 21 00 00 00 00 00 20 17
   1.978236 1  118             Rx   d 8 7E 2C 30 00 00 08 01 00
   1.978488 1  2E5             Rx   d 8 00 00 00 00 00 00 DD 00
   1.978733 1  7D5             Rx   d 8 20 FF 00 00 00 00 00 00
   1.978985 1  7D5             Rx   d 8 21 00 00 00 00 00 E0 15
   1.979230 1  7D5             Rx   d 8 22 61 00 00 00 00 00 00
   1.979474 1  7D5             Rx   d 8 23 FA 00 00 00 00 10 27
   1.979723 1  7D5             Rx   d 8 24 FA 00 00 00 00 00 00
   1.979964 1  7D5             Rx   d 8 25 AB 00 00 00 00 1B 25
   1.980209 1  7D5             Rx   d 8 26 00 25 21 00 00 00 00
   1.980461 1  7D5             Rx   d 8 27 00 00 00 FA FA 00 00
   1.980711 1  7D5             Rx   d 8 28 00 00 00 00 00 FA 00
   1.980956 1  7D5             Rx   d 8 29 00 00 00 79 10 00 00
   1.981202 1  7D5             Rx   d 8 2A 00 00 FA 43 00 00 00
   1.981448 1  7D5             Rx   d 8 2B 00 00 00 00 00 00 00
   1.981689 1  7D5             Rx   d 8 2E CD FF 1B 04 00 00 00
   1.981931 1  7D5             Rx   d 8 2F 00 00 00 00 00 46 00
   1.982179 1  1D8             Rx   d 8 00 00 00 00 00 00 C0 99
   1.982419 1  7D5             Rx   d 8 30 6E 6E 35 66 00 00 00
   1.982670 1  7D5             Rx   d 8 31 00 00 00 00 00 00 00
   1.982922 1  7D5             Rx   d 8 32 60 00 00 00 00 00 00
   1.983169 1  7D5             Rx   d 8 34 00 00 00 00 00 00 00
   1.983428 1  7D5             Rx   d 8 3F 00 00 00 00 00 00 00
   1.983665 1  7D7             Rx   d 8 20 01 00 FA FA FA FA 01
   1.983911 1  7D7             Rx   d 8 21 FF 0F 00 FA FA 00 00
   1.984151 1  7D7             Rx   d 8 22 90 65 00 00 00 00 00
   1.984391 1  132             Rx   d 8 10 72 00 00 38 40 08 0E
   1.984642 1  55              Rx   d 8 01 00 00 00 00 00 07 5D
   1.984890 1  7D7             Rx   d 8 23 00 00 00 00 00 00 00
   1.985158 1  7D7             Rx   d 8 24 00 00 00 00 00 00 00
   1.985406 1  7D7             Rx   d 8 25 00 00 00 00 00 00 00
   1.985607 1  356             Rx   d 6 6D 0B 00 00 B4 00
   1.985848 1  355             Rx   d 8 53 00 64 00 43 03 06 18
   1.986079 1  351             Rx   d 8 AC 0B 0A 00 D2 00 70 08
   1.986330 1  7D7             Rx   d 8 26 00 00 00 00 00 00 00
   1.986583 1  7D7             Rx   d 8 27 00 40 00 00 00 00 00
   1.986830 1  7D7             Rx   d 8 2D 00 00 00 00 0D 00 00
   1.987084 1  266             Rx   d 8 00 00 2C 2C 00 00 00 00
   1.987322 1  7D7             Rx   d 8 32 2C 00 00 00 00 00 00
   1.987563 1  276             Rx   d 8 00 2F 00 56 01 E4 0B C0
   1.987812 1  7D7             Rx   d 8 35 90 65 00 00 00 00 00
   1.988046 1  118             Rx   d 8 7F 2D 30 00 00 08 01 00
   1.988290 1  7D7             Rx   d 8 02 F0 32 00 00 00 00 00
   1.988523 1  297             Rx   d 8 71 47 1F 00 02 A0 0F 01
   1.990504 1  1D5             Rx   d 8 21 00 00 00 00 00 40 37
   1.990745 1  2E5             Rx   d 8 00 00 00 00 00 00 DD 00
   1.990930 1  39D             Rx   d 5 38 66 0A 28 00
   1.991998 1  1D8             Rx   d 8 00 00 00 00 00 00 E0 B9
   1.994365 1  132             Rx   d 8 10 72 00 00 38 40 08 0E
   1.994611 1  55              Rx   d 8 02 01 00 00 00 00 07 5F
   1.994846 1  53              Rx   d 8 D4 30 84 C7 8F 38 46 15
   1.995618 1  56              Rx   d 8 04 00 00 00 00 00 0C 66
   1.997260 1  266             Rx   d 8 00 00 2C 2C 00 00 00 00
   1.997514 1  7D7             Rx   d 8 02 F0 32 00 00 00 00 00
   1.997745 1  276             Rx   d 8 00 2F 00 56 01 E4 0B C0
   1.997991 1  118             Rx   d 8 80 2E 30 00 00 08 01 00
   1.999882 1  1D5             Rx   d 8 21 00 00 00 00 00 60 57
   2.000129 1  2E5             Rx   d 8 00 00 00 00 00 00 DD 00
   2.001978 1  1D8             Rx   d 8 00 00 00 00 00 00 00 D9
   2.004343 1  132             Rx   d 8 10 72 00 00 38 40 08 0E
   2.004588 1  55              Rx   d 8 03 00 00 00 00 00 07 5F
   2.006777 1  266             Rx   d 8 00 00 2C 2C 00 00 00 00
   2.007022 1  276             Rx   d 8 00 2F 00 56 01 E4 0B C0
   2.007277 1  7D7             Rx   d 8 02 F0 32 00 00 00 00 00
   2.007511 1  118             Rx   d 8 81 2F 30 00 00 08 01 00
   2.007761 1  297             Rx   d 8 72 48 1F 00 02 A0 0F 01
   2.008826 1  221             Rx   d 8 61 05 55 05 00 00 50 33
   2.009068 1  3A1             Rx   d 8 03 00 98 6E BE 00 50 22
   2.009291 1  3C2             Rx   d 8 01 55 15 15 00 00 55 09
   2.009540 1  441             Rx   d 8 00 00 00 00 00 00 15 CF
   2.009783 1  52              Rx   d 8 64 18 13 8B 64 31 20 00
   2.010011 1  339             Rx   d 8 41 44 FE 00 00 03 80 00
   2.010260 1  102             Rx   d 8 22 B3 48 04 00 00 A0 09
   2.010490 1  103             Rx   d 8 22 B3 88 44 00 00 20 32
   2.010737 1  207             Rx   d 8 00 00 00 00 00 28 28 00
   2.010982 1  224             Rx   d 8 04 08 00 40 19 01 10 08
   2.011190 1  241             Rx   d 7 3C 3C 16 0F 8F 55 00
   2.011437 1  247             Rx   d 8 10 0E FF 00 00 00 00 00
   2.011686 1  2A8             Rx   d 8 04 00 00 00 00 80 20 4E
   2.011931 1  2E8             Rx   d 8 04 00 00 00 00 80 20 8E
   2.012174 1  1D8             Rx   d 8 00 00 00 00 00 00 20 F9
   2.012417 1  2E1             Rx   d 8 02 00 00 00 FF 00 02 00
   2.012546 1  500             Rx   d 2 01 01
   2.012794 1  6B4             Rx   d 8 01 63 00 01 00 15 00 00
   2.013041 1  6B3             Rx   d 8 00 12 00 00 00 0F 00 00
   2.013283 1  6B2             Rx   d 8 00 46 00 7B 9E 61 00 C0
   2.013520 1  6B1             Rx   d 8 00 15 00 00 9E C2 00 2E
   2.013770 1  6B0             Rx   d 8 00 A7 00 48 72 43 00 5C
   2.013989 1  7FF             Rx   d 8 03 30 08 68 E1 41 00 82
   2.014227 1  212             Rx   d 8 B9 04 A3 2F 01 38 00 01
   2.014467 1  252             Rx   d 8 00 00 CD 01 00 00 01 00
   2.014705 1  25D             Rx   d 8 34 41 01 2A 08 00 00 00
   2.014940 1  2D2             Rx   d 8 30 2A 34 3A 0A 00 8C 00
   2.015082 1  229             Rx   d 3 52 02 00
   2.015217 1  2D1             Rx   d 2 FF 01
   2.015400 1  333             Rx   d 5 00 30 84 07 02
   2.015652 1  125             Rx   d 8 00 00 68 0B 00 00 00 00
   2.015893 1  126             Rx   d 8 00 C2 34 F3 10 00 00 00
   2.016106 1  3D9             Rx   d 8 71 38 53 69 2E 08 68 AF
   2.016348 1  132             Rx   d 8 10 72 00 00 38 40 08 0E
   2.016596 1  55              Rx   d 8 00 01 00 00 00 00 08 5E
   2.016834 1  1D5             Rx   d 8 21 00 00 00 00 00 80 77
   2.017083 1  2E5             Rx   d 8 00 00 00 00 00 00 DD 00
   2.017311 1  53              Rx   d 8 D4 30 84 C7 8F 38 46 15
   2.017557 1  266             Rx   d 8 00 00 2C 2C 00 00 00 00
   2.017797 1  7D7             Rx   d 8 02 F0 32 00 00 00 00 00
   2.018044 1  276             Rx   d 8 00 2F 00 56 01 E4 0B C0
   2.018271 1  118             Rx   d 8 92 40 30 00 00 08 01 00
   2.021990 1  1D8             Rx   d 8 00 00 00 00 00 00 40 19
   2.025330 1  35B             Rx   d 4 6A 09 05 00
   2.025497 1  35A             Rx   d 4 00 00 00 00
   2.026376 1  132             Rx   d 8 10 72 00 00 38 40 08 0E
   2.026633 1  55              Rx   d 8 01 00 00 00 00 00 08 5E
   2.026870 1  1D5             Rx   d 8 21 00 00 00 00 00 A0 97
   2.027123 1  2E5             Rx   d 8 00 00 00 00 00 00 DD 00
   2.027362 1  266             Rx   d 8 00 00 2C 2C 00 00 00 00
   2.027609 1  7D7             Rx   d 8 02 F0 32 00 00 00 00 00
   2.027847 1  118             Rx   d 8 93 41 30 00 00 08 01 00
   2.028081 1  297             Rx   d 8 73 49 1F 00 02 A0 0F 01
   2.029794 1  39D             Rx   d 5 39 67 0A 28 00
   2.032001 1  1D8             Rx   d 8 00 00 00 00 00 00 60 39
   2.036363 1  132             Rx   d 8 10 72 00 00 38 40 08 0E
   2.036607 1  55              Rx   d 8 02 01 00 00 00 00 08 60
   2.036859 1  1D5             Rx   d 8 21 00 00 00 00 00 C0 B7
   2.037105 1  2E5             Rx   d 8 00 00 00 00 00 00 DD 00
   2.037332 1  53              Rx   d 8 D4 30 84 C7 8F 38 46 15
   2.037577 1  266             Rx   d 8 00 00 2C 2C 00 00 00 00
   2.037833 1  7D7             Rx   d 8 02 F0 32 00 00 00 00 00
   2.038056 1  118             Rx   d 8 B4 62 30 00 00 08 01 00
   2.041978 1  1D8             Rx   d 8 00 00 00 00 00 00 80 59
   2.046371 1  132             Rx   d 8 10 72 00 00 38 40 08 0E
   2.046616 1  55              Rx   d 8 03 00 00 00 00 00 08 60
   2.046853 1  1D5             Rx   d 8 21 00 00 00 00 00 E0 D7
   2.047104 1  2E5             Rx   d 8 00 00 00 00 00 00 DD 00
   2.047352 1  266             Rx   d 8 00 00 2C 2C 00 00 00 00
   2.047610 1  7D7             Rx   d 8 02 F0 32 00 00 00 00 00
   2.047838 1  118             Rx   d 8 B5 63 30 00 00 08 01 00
   2.048079 1  297             Rx   d 8 74 4A 1F 00 02 A0 0F 01
   2.051993 1  1D8             Rx   d 8 00 00 00 00 00 00 A0 79
   2.056411 1  132             Rx   d 8 10 72 00 00 38 40 08 0E
   2.056656 1  55              Rx   d 8 00 01 00 00 00 00 09 5F
   2.056898 1  1D5             Rx   d 8 21 00 00 00 00 00 00 F7
   2.057158 1  2E5             Rx   d 8 00 00 00 00 00 00 DD 00
   2.057373 1  53              Rx   d 8 D4 30 84 C7 8F 38 46 15
   2.057619 1  266             Rx   d 8 00 00 2C 2C 00 00 00 00
   2.057874 1  7D7             Rx   d 8 02 F0 32 00 00 00 00 00
   2.058108 1  118             Rx   d 8 B6 64 30 00 00 08 01 00
   2.058954 1  221             Rx   d 8 60 55 55 15 54 51 61 48
   2.059190 1  3A1             Rx   d 8 88 4E 0B C8 00 00 60 14
   2.059420 1  3C2             Rx   d 8 10 55 55 55 00 00 5D 19
   2.059647 1  441             Rx   d 8 46 65 22 20 DB 0E 18 A8
   2.061975 1  1D8             Rx   d 8 00 00 00 00 00 00 C0 99
   2.065710 1  380             Rx   d 8 4C 35 41 41 36 34 30 33
   2.065951 1  76              Rx   d 8 07 12 00 0F 01 0F 00 B6
   2.066397 1  132             Rx   d 8 10 72 00 00 38 40 08 0E
   2.066644 1  55              Rx   d 8 01 00 00 00 00 00 09 5F
   2.066890 1  1D5             Rx   d 8 21 00 00 00 00 00 20 17
   2.067138 1  266             Rx   d 8 00 00 2C 2C 00 00 00 00
   2.067381 1  2E5             Rx   d 8 00 00 00 00 00 00 DD 00
   2.067622 1  118             Rx   d 8 B7 65 30 00 00 08 01 00
   2.067852 1  166             Rx   d 7 25 09 00 00 00 B6 03
   2.068079 1  297             Rx   d 8 75 4B 1F 00 02 A0 0F 01
   2.068320 1  1D6             Rx   d 8 00 08 08 00 28 2D 5C 10
   2.068565 1  7D7             Rx   d 8 02 F0 32 00 00 00 00 00
   2.068752 1  279             Rx   d 5 09 82 0C 00 00
   2.068990 1  395             Rx   d 8 F1 11 18 41 FF 02 04 7D
   2.069246 1  108             Rx   d 8 90 02 00 04 00 00 80 01
   2.069349 1  2B6             Rx   d 2 02 1B
   2.069619 1  397             Rx   d 8 00 00 00 00 3B 00 00 00
   2.069781 1  128             Rx   d 4 83 00 38 02
   2.069963 1  39D             Rx   d 5 3A 68 0A 28 00
   2.070149 1  268             Rx   d 5 2C 2C FF 01 FF
   2.072009 1  1D8             Rx   d 8 00 00 00 00 00 00 E0 B9
   2.076420 1  132             Rx   d 8 10 72 00 00 38 40 08 0E
   2.076680 1  55              Rx   d 8 02 01 00 00 00 00 09 61
   2.076910 1  1D5             Rx   d 8 21 00 00 00 00 00 40 37
   2.077152 1  2E5             Rx   d 8 00 00 00 00 00 00 DD 00
   2.077388 1  53              Rx   d 8 D4 30 84 C7 8F 38 46 15
   2.077641 1  266             Rx   d 8 00 00 2C 2C 00 00 00 00
   2.077879 1  7D7             Rx   d 8 02 F0 32 00 00 00 00 00
   2.078111 1  118             Rx   d 8 B8 66 30 00 00 08 01 00
   2.078364 1  7D5             Rx   d 8 20 FD 00 00 00 00 00 00
   2.078603 1  7D5             Rx   d 8 21 FF 00 00 00 00 E0 15
   2.078853 1  7D5             Rx   d 8 22 61 00 00 00 00 00 00
   2.079097 1  36              Rx   d 8 09 9E B6 10 12 9E C1 1C
   2.079325 1  7D5             Rx   d 8 23 FA 00 00 00 00 10 27
   2.079570 1  7D5             Rx   d 8 24 FA 00 00 00 00 00 00
   2.079821 1  7D5             Rx   d 8 25 AB 00 00 00 00 AA 4A
   2.080060 1  7D5             Rx   d 8 26 00 25 21 00 00 00 00
   2.080305 1  7D5             Rx   d 8 27 25 00 00 FA FA 00 00
   2.080554 1  7D5             Rx   d 8 28 00 00 00 00 00 FA 00
   2.080802 1  7D5             Rx   d 8 29 00 00 00 56 10 00 00
   2.081041 1  7D5             Rx   d 8 2A 00 00 FA 43 00 00 00
   2.081291 1  7D5             Rx   d 8 2B 00 00 00 00 00 00 00
   2.081533 1  7D5             Rx   d 8 2E CD FF 1B 04 00 00 00
   2.081777 1  7D5             Rx   d 8 2F 00 00 00 00 00 46 00
   2.082025 1  1D8             Rx   d 8 00 00 00 00 00 00 00 D9
   2.082260 1  7D5             Rx   d 8 30 6E 6E 35 66 00 00 00
   2.082511 1  7D5             Rx   d 8 31 00 00 00 00 00 00 00
   2.082757 1  7D5             Rx   d 8 32 60 00 00 00 00 00 00
   2.083014 1  7D5             Rx   d 8 34 00 00 00 00 00 00 00
   2.083266 1  7D5             Rx   d 8 3F 00 00 00 00 00 00 00
   2.083506 1  7D7             Rx   d 8 20 01 00 FA FA FA FA 01
   2.083759 1  7D7             Rx   d 8 21 FF 0F 00 FA FA 00 00
   2.084001 1  7D7             Rx   d 8 22 90 65 00 00 00 00 00
   2.084250 1  7D7             Rx   d 8 23 00 00 00 00 00 00 00
   2.084501 1  7D7             Rx   d 8 24 00 00 00 00 00 00 00
   2.084765 1  7D7             Rx   d 8 25 00 00 00 00 00 00 00
   2.085013 1  7D7             Rx   d 8 26 00 00 00 00 00 00 00
   2.085262 1  7D7             Rx   d 8 27 00 40 00 00 00 00 00
   2.085506 1  7D7             Rx   d 8 2D 00 00 00 00 04 00 00
   2.085758 1  7D7             Rx   d 8 32 2C 00 00 00 00 00 00
   2.086004 1  7D7             Rx   d 8 35 90 65 00 00 00 00 00
   2.086415 1  132             Rx   d 8 10 72 00 00 38 40 08 0E
   2.086650 1  55              Rx   d 8 03 00 00 00 00 00 09 61
   2.086895 1  1D5             Rx   d 8 21 00 00 00 00 00 60 57
   2.087147 1  266             Rx   d 8 00 00 2C 2C 00 00 00 00
   2.087395 1  2E5             Rx   d 8 00 00 00 00 00 00 DD 00
   2.087629 1  118             Rx   d 8 B9 67 30 00 00 08 01 00
   2.087877 1  7D7             Rx   d 8 02 F0 32 00 00 00 00 00
   2.088111 1  297             Rx   d 8 76 4C 1F 00 02 A0 0F 01
   2.089504 1  351             Rx   d 8 AC 0B 0A 00 D2 00 70 08
   2.089683 1  356             Rx   d 6 6D 0B 00 00 B4 00
   2.089932 1  355             Rx   d 8 53 00 64 00 43 03 06 18
   2.092019 1  1D8             Rx   d 8 00 00 00 00 00 00 20 F9
   2.094769 1  56              Rx   d 8 04 00 00 00 00 00 0D 67
   2.096424 1  132             Rx   d 8 10 72 00 00 38 40 08 0E
   2.096666 1  55              Rx   d 8 00 01 00 00 00 00 0A 60
   2.096911 1  1D5             Rx   d 8 21 00 00 00 00 00 80 77
   2.097161 1  2E5             Rx   d 8 00 00 00 00 00 00 DD 00
   2.097390 1  53              Rx   d 8 D4 30 84 C7 8F 38 46 15
   2.097631 1  266             Rx   d 8 00 00 2C 2C 00 00 00 00
   2.097876 1  7D7             Rx   d 8 02 F0 32 00 00 00 00 00
   2.098127 1  118             Rx   d 8 BA 68 30 00 00 08 01 00
   2.101968 1  1D8             Rx   d 8 00 00 00 00 00 00 40 19
   2.106464 1  132             Rx   d 8 10 72 00 00 38 40 08 0E
   2.106711 1  55              Rx   d 8 01 00 00 00 00 00 0A 60
   2.106965 1  1D5             Rx   d 8 21 00 00 00 00 00 A0 97
   2.107199 1  266             Rx   d 8 00 00 2C 2C 00 00 00 00
   2.107448 1  2E5             Rx   d 8 00 00 00 00 00 00 DD 00
   2.107694 1  118             Rx   d 8 BB 69 30 00 00 08 01 00
   2.107935 1  7D7             Rx   d 8 02 F0 32 00 00 00 00 00
   2.108167 1  297             Rx   d 8 77 4D 1F 00 02 A0 0F 01
   2.108900 1  221             Rx   d 8 61 05 55 05 00 00 70 53
   2.109143 1  3A1             Rx   d 8 03 00 98 6E BE 00 70 42
   2.109366 1  3C2             Rx   d 8 01 55 15 15 00 00 55 09
   2.109621 1  441             Rx   d 8 00 00 00 00 00 00 1D D7
   2.109842 1  52              Rx   d 8 64 18 13 8B 64 31 20 00
   2.110088 1  339             Rx   d 8 41 44 FE 00 00 03 80 00
   2.110326 1  102             Rx   d 8 22 B3 48 04 00 00 A0 09
   2.110560 1  103             Rx   d 8 22 B3 88 44 00 00 20 32
   2.110808 1  207             Rx   d 8 00 00 00 00 00 28 28 00
   2.111056 1  224             Rx   d 8 04 08 00 40 19 01 10 08
   2.111266 1  241             Rx   d 7 3C 3C 16 0F 8F 55 00
   2.111510 1  247             Rx   d 8 10 0E FF 00 00 00 00 00
   2.111753 1  2A8             Rx   d 8 04 00 00 00 00 80 30 5E
   2.112001 1  2E8             Rx   d 8 04 00 00 00 00 80 30 9E
   2.112247 1  1D8             Rx   d 8 00 00 00 00 00 00 60 39
   2.112476 1  2E1             Rx   d 8 03 6D 99 02 19 4F 00 00
   2.112612 1  500             Rx   d 2 01 01
   2.112856 1  7FF             Rx   d 8 04 77 00 00 00 00 00 00
   2.113088 1  212             Rx   d 8 B9 04 A3 2F 01 38 00 01
   2.113333 1  252             Rx   d 8 00 00 CD 01 00 00 01 00
   2.113575 1  25D             Rx   d 8 34 41 01 2A 08 00 00 00
   2.113805 1  2D2             Rx   d 8 30 2A 34 3A 0A 00 8C 00
   2.113953 1  229             Rx   d 3 6D 03 00
   2.114085 1  2D1             Rx   d 2 FF 01
   2.114273 1  333             Rx   d 5 00 30 84 07 02
   2.114513 1  125             Rx   d 8 0A 00 72 0B 00 00 00 00
   2.114751 1  126             Rx   d 8 00 C2 34 F3 10 00 00 00
   2.114976 1  3D9             Rx   d 8 71 38 53 69 2E 08 68 AF
   2.115359 1  39D             Rx   d 5 3B 69 0A 28 00
   2.116417 1  132             Rx   d 8 10 72 00 00 38 40 08 0E
   2.116658 1  55              Rx   d 8 02 01 00 00 00 00 0A 62
   2.116916 1  1D5             Rx   d 8 21 00 00 00 00 00 C0 B7
   2.117155 1  2E5             Rx   d 8 00 00 00 00 00 00 DD 00
   2.117379 1  53              Rx   d 8 D4 30 84 C7 8F 38 46 15
   2.117629 1  266             Rx   d 8 00 00 2C 2C 00 00 00 00
   2.117879 1  7D7             Rx   d 8 02 F0 32 00 00 00 00 00
   2.118115 1  118             Rx   d 8 BC 6A 30 00 00 08 01 00
   2.121978 1  1D8             Rx   d 8 00 00 00 00 00 00 80 59
   2.126443 1  132             Rx   d 8 10 72 00 00 38 40 08 0E
   2.126686 1  55              Rx   d 8 03 00 00 00 00 00 0A 62
   2.126927 1  1D5             Rx   d 8 21 00 00 00 00 00 E0 D7
   2.127175 1  266             Rx   d 8 00 00 2C 2C 00 00 00 00
   2.127427 1  2E5             Rx   d 8 00 00 00 00 00 00 DD 00
   2.127658 1  118             Rx   d 8 BD 6B 30 00 00 08 01 00
   2.127902 1  7D7             Rx   d 8 02 F0 32 00 00 00 00 00
   2.128141 1  297             Rx   d 8 78 4E 1F 00 02 A0 0F 01
   2.131984 1  1D8             Rx   d 8 00 00 00 00 00 00 A0 79
   2.136445 1  132             Rx   d 8 10 72 00 00 38 40 08 0E
   2.136686 1  55              Rx   d 8 00 01 00 00 00 00 0B 61
   2.136932 1  1D5             Rx   d 8 21 00 00 00 00 00 00 F7
   2.137181 1  2E5             Rx   d 8 00 00 00 00 00 00 DD 00
   2.137411 1  53              Rx   d 8 D4 30 84 C7 8F 38 46 15
   2.137654 1  266             Rx   d 8 00 00 2C 2C 00 00 00 00
   2.137904 1  7D7             Rx   d 8 02 F0 32 00 00 00 00 00
   2.138143 1  118             Rx   d 8 BE 6C 30 00 00 08 01 00
   2.141963 1  1D8             Rx   d 8 00 00 00 00 00 00 C0 99
   2.146451 1  132             Rx   d 8 10 72 00 00 38 40 08 0E
   2.146714 1  55              Rx   d 8 01 00 00 00 00 00 0B 61
   2.146938 1  1D5             Rx   d 8 21 00 00 00 00 00 20 17
   2.147190 1  266             Rx   d 8 00 00 2C 2C 00 00 00 00
   2.147430 1  2E5             Rx   d 8 00 00 00 00 00 00 DD 00
   2.147679 1  118             Rx   d 8 BF 6D 30 00 00 08 01 00
   2.147921 1  7D7             Rx   d 8 02 F0 32 00 00 00 00 00
   2.148153 1  297             Rx   d 8 79 4F 1F 00 02 A0 0F 01
   2.151983 1  1D8             Rx   d 8 00 00 00 00 00 00 E0 B9
   2.154862 1  39D             Rx   d 5 3C 6A 0A 28 00
   2.156456 1  132             Rx   d 8 10 72 00 00 38 40 08 0E
   2.156707 1  55              Rx   d 8 02 01 00 00 00 00 0B 63
   2.156944 1  1D5             Rx   d 8 21 00 00 00 00 00 40 37
   2.157195 1  2E5             Rx   d 8 00 00 00 00 00 00 DD 00
   2.157417 1  53              Rx   d 8 D4 30 84 C7 8F 38 46 15
   2.157664 1  266             Rx   d 8 00 00 2C 2C 00 00 00 00
   2.157912 1  7D7             Rx   d 8 02 F0 32 00 00 00 00 00
   2.158161 1  118             Rx   d 8 C0 6E 30 00 00 08 01 00
   2.158989 1  221             Rx   d 8 60 55 55 15 54 51 81 68
   2.159225 1  3A1             Rx   d 8 88 4E 0B C8 00 00 80 34
   2.159461 1  3C2             Rx   d 8 10 55 55 55 00 00 5D 19
   2.159690 1  441             Rx   d 8 46 65 22 20 DB 0E 20 B0
   2.161961 1  1D8             Rx   d 8 00 00 00 00 00 00 00 D9
   2.165729 1  381             Rx   d 8 FF FF FF 00 00 00 00 00
   2.165971 1  76              Rx   d 8 02 0F 03 0F 04 0F 00 B4
   2.166435 1  132             Rx   d 8 10 72 00 00 38 40 08 0E
   2.166682 1  55              Rx   d 8 03 00 00 00 00 00 0B 63
   2.166929 1  1D5             Rx   d 8 21 00 00 00 00 00 60 57
   2.167171 1  266             Rx   d 8 00 00 2C 2C 00 00 00 00
   2.167420 1  2E5             Rx   d 8 00 00 00 00 00 00 DD 00
   2.167661 1  118             Rx   d 8 C1 6F 30 00 00 08 01 00
   2.167878 1  166             Rx   d 7 25 09 00 00 00 B6 03
   2.168121 1  297             Rx   d 8 6A 40 1F 00 02 A0 0F 01
   2.168353 1  1D6             Rx   d 8 00 08 08 00 28 2D 59 10
   2.168605 1  7D7             Rx   d 8 02 F0 32 00 00 00 00 00
   2.168787 1  279             Rx   d 5 0A 83 0C 00 00
   2.169023 1  395             Rx   d 8 F1 11 18 41 FF 02 04 7D
   2.169270 1  108             Rx   d 8 91 03 00 04 00 00 80 01
   2.169399 1  2B6             Rx   d 2 02 1B
   2.169643 1  397             Rx   d 8 00 00 00 00 3B 00 00 00
   2.169807 1  128             Rx   d 4 83 00 38 02
   2.170008 1  268             Rx   d 5 2C 2C FF 01 FF
   2.171981 1  1D8             Rx   d 8 00 00 00 00 00 00 20 F9
   2.176470 1  132             Rx   d 8 10 72 00 00 38 40 08 0E
   2.176730 1  55              Rx   d 8 00 01 00 00 00 00 0C 62
   2.176959 1  1D5             Rx   d 8 21 00 00 00 00 00 80 77
   2.177200 1  2E5             Rx   d 8 00 00 00 00 00 00 DD 00
   2.177434 1  53              Rx   d 8 D4 30 84 C7 8F 38 46 15
   2.177675 1  266             Rx   d 8 00 00 2C 2C 00 00 00 00
   2.177924 1  7D7             Rx   d 8 02 F0 32 00 00 00 00 00
   2.178167 1  118             Rx   d 8 B2 60 30 00 00 08 01 00
   2.178416 1  7D5             Rx   d 8 20 FB 00 00 00 00 00 00
   2.178660 1  7D5             Rx   d 8 21 FF 00 00 00 00 E0 15
   2.178914 1  7D5             Rx   d 8 22 61 00 00 00 00 00 00
   2.179163 1  7D5             Rx   d 8 23 FA 00 00 00 00 10 27
   2.179398 1  7D5             Rx   d 8 24 FA 00 00 00 00 00 00
   2.179651 1  7D5             Rx   d 8 25 AB 00 00 00 00 89 18
   2.179886 1  7D5             Rx   d 8 26 00 25 21 00 00 00 00
   2.180135 1  7D5             Rx   d 8 27 5E 00 00 FA FA 00 00
   2.180379 1  7D5             Rx   d 8 28 00 00 00 00 00 FA 00
   2.180635 1  7D5             Rx   d 8 29 00 00 00 75 10 00 00
   2.180879 1  7D5             Rx   d 8 2A 00 00 FA 43 00 00 00
   2.181126 1  7D5             Rx   d 8 2B 00 00 00 00 00 00 00
   2.181375 1  7D5             Rx   d 8 2E CD FF 1B 04 00 00 00
   2.181617 1  7D5             Rx   d 8 2F 00 00 00 00 00 46 00
   2.181862 1  7D5             Rx   d 8 30 6E 6E 35 66 00 00 00
   2.182101 1  1D8             Rx   d 8 00 00 00 00 00 00 40 19
   2.182358 1  7D5             Rx   d 8 31 00 00 00 00 00 00 00
   2.182597 1  7D5             Rx   d 8 32 60 00 00 00 00 00 00
   2.182855 1  7D5             Rx   d 8 34 00 00 00 00 00 00 00
   2.183102 1  7D5             Rx   d 8 3F 00 00 00 00 00 00 00
   2.183346 1  7D7             Rx   d 8 20 01 00 FA FA FA FA 01
