(1762375445.149900) can0 1FFFFFF0#0119000708000043
(1762375445.151907) can0 1FFFFFF0#010000050C000063
(1762375445.180697) can0 5F4#00091E5B00000001
(1762375445.215633) can0 381#FFFFFF0000000000
(1762375445.215864) can0 076#030F040F050F00B7
(1762375445.263301) can0 351#AC0B000000007008
(1762375445.263568) can0 356#6D0B0000B400
(1762375445.263813) can0 355#5300640043030618
(1762375445.265527) can0 1D8#00000000000000D9
(1762375445.275558) can0 1D8#00000000000020F9
(1762375445.279434) can0 266#00002C2C00000000
(1762375445.279674) can0 118#1280F00000080180
(1762375445.285553) can0 1D8#0000000000004019
(1762375445.285797) can0 5A6#3880030000000300
(1762375445.286042) can0 386#0000000000008000
(1762375445.289424) can0 266#00002C2C00000000
(1762375445.289720) can0 118#1381F00000080180
(1762375445.289952) can0 166#0000000000B603
(1762375445.290189) can0 1D6#00080800282DAB10
(1762375445.290377) can0 279#07800C0000
(1762375445.290617) can0 395#F70DFFFFFFFF007D
(1762375445.290875) can0 108#8E00000400008001
(1762375445.290991) can0 2B6#8A01
(1762375445.291253) can0 397#000000003B000000
(1762375445.291407) can0 128#8F00EC0A
(1762375445.291642) can0 268#2C2CFF01FF
(1762375445.295558) can0 1D8#0000000000006039
(1762375445.299431) can0 266#00002C2C00000000
(1762375445.299690) can0 118#1482F00000080180
(1762375445.299928) can0 3D5#FFFFFFFFFFFFFFFF
(1762375445.300167) can0 527#C080000000000000
(1762375445.300414) can0 315#1839383B50389E7D
(1762375445.300647) can0 5A5#4380000003000000
(1762375445.300887) can0 315#0138380038280000
(1762375445.301142) can0 3B5#0400000000000000
(1762375445.301383) can0 315#02FFFFFFFF000000
(1762375445.301628) can0 36B#0000000000000080
(1762375445.301870) can0 315#FBFFFFFFFBFFFB0F
(1762375445.302128) can0 7D5#2B00000000000000
(1762375445.302376) can0 315#04FFFFFFFF000000
(1762375445.302619) can0 7D5#3260000000000000
(1762375445.302796) can0 5D7#8C8C000000
(1762375445.303050) can0 7D7#322C000000000000
(1762375445.303215) can0 3B6#FFFFFFFF
(1762375445.303456) can0 7D5#42FD00FD00E62000
(1762375445.303700) can0 335#0A010533FC000500
(1762375445.303938) can0 7D5#43FD00FD003C0000
(1762375445.304186) can0 3A7#0000000000000000
(1762375445.304413) can0 7D5#442A421D56372444
(1762375445.304660) can0 3C5#0000000000000000
(1762375445.304901) can0 7D5#4628282828282828
(1762375445.305153) can0 3E5#0000000000000000
(1762375445.305389) can0 7D5#4828280000004A00
(1762375445.305638) can0 1D8#0000000000008059
(1762375445.305884) can0 367#0000000000000000
(1762375445.306141) can0 368#0000000000000000
(1762375445.306392) can0 36E#0000000000000000
(1762375445.309448) can0 266#00002C2C00000000
(1762375445.309731) can0 118#1583F00000080180
(1762375445.315561) can0 1D8#000000000000A079
(1762375445.315806) can0 374#5030315F30303100
(1762375445.316030) can0 076#06110712000F00BD
(1762375445.319429) can0 266#00002C2C00000000
(1762375445.319730) can0 118#1684F00000080180
(1762375445.325551) can0 1D8#000000000000C099
(1762375445.329417) can0 266#00002C2C00000000
(1762375445.329716) can0 118#1785F00000080180
(1762375445.335550) can0 1D8#000000000000E0B9
(1762375445.339425) can0 266#00002C2C00000000
(1762375445.339720) can0 118#1886F00000080180
(1762375445.345547) can0 1D8#00000000000000D9
(1762375445.349417) can0 266#00002C2C00000000
(1762375445.349723) can0 118#1987F00000080180
(1762375445.355544) can0 1D8#00000000000020F9
(1762375445.359418) can0 266#00002C2C00000000
(1762375445.359719) can0 118#1A88F00000080180
(1762375445.364463) can0 554#0021041723C001
(1762375445.364716) can0 344#0000000000000047
(1762375445.364957) can0 6D4#0A010533FC000900
(1762375445.365206) can0 3A0#0000000000000000
(1762375445.365454) can0 384#0000000000000000
(1762375445.365703) can0 1D8#0000000000004019
(1762375445.365959) can0 380#0000000000000000
(1762375445.367294) can0 351#AC0B0A00D2007008
(1762375445.367509) can0 356#6D0B0000B400
(1762375445.367739) can0 355#5300640043030618
(1762375445.369411) can0 266#00002C2C00000000
(1762375445.369655) can0 118#1B89F00000080180
(1762375445.375541) can0 1D8#0000000000006039
(1762375445.375791) can0 5A4#4280010000000000
(1762375445.376033) can0 5A4#1580020000000000
(1762375445.376285) can0 3A0#0000000000000000
(1762375445.379415) can0 266#00002C2C00000000
(1762375445.379699) can0 118#1C8AF00000080180
(1762375445.379951) can0 5A5#5C80040000000000
(1762375445.380189) can0 5A5#5A80080000000000
(1762375445.380436) can0 3B5#0400000A00000000
(1762375445.385539) can0 1D8#0000000000008059
(1762375445.389409) can0 266#00002C2C00000000
(1762375445.389705) can0 118#1D8BF00000080180
(1762375445.389934) can0 166#0000000000B603
(1762375445.390169) can0 1D6#40080808282D9A10
(1762375445.390355) can0 279#38B10C0000
(1762375445.390596) can0 395#F0110040FF00007D
(1762375445.390830) can0 108#8F01000400008001
(1762375445.390965) can0 2B6#8A01
(1762375445.391216) can0 397#000000003B000000
(1762375445.391374) can0 128#8708EC0A
(1762375445.391634) can0 268#2C2CFF01FF
(1762375445.395541) can0 1D8#000000000000A079
(1762375445.399412) can0 266#00002C2C00000000
(1762375445.399655) can0 118#1E8CF00000080180
(1762375445.399908) can0 7D5#2B00000000000000
(1762375445.400155) can0 7D5#3260000000000000
(1762375445.400397) can0 7D7#322C000000000000
(1762375445.405540) can0 1D8#000000000000C099
(1762375445.409415) can0 266#00002C2C00000000
(1762375445.409720) can0 118#1F8DF00000080180
(1762375445.415538) can0 1D8#000000000000E0B9
(1762375445.415769) can0 375#5030315F30323100
(1762375445.416021) can0 076#010F020F030F00B1
(1762375445.419414) can0 266#00002C2C00000000
(1762375445.419657) can0 118#208EF00000080180
(1762375445.425538) can0 1D8#00000000000000D9
(1762375445.429413) can0 266#00002C2C00000000
(1762375445.429708) can0 118#218FF00000080180
(1762375445.435536) can0 1D8#00000000000020F9
(1762375445.439407) can0 266#00002C2C00000000
(1762375445.439652) can0 118#1280F00000080180
(1762375445.445535) can0 1D8#0000000000004019
(1762375445.449407) can0 266#00002C2C00000000
(1762375445.449717) can0 118#1381F00000080180
(1762375445.455535) can0 1D8#0000000000006039
(1762375445.459406) can0 266#00002C2C00000000
(1762375445.459649) can0 118#1482F00000080180
(1762375445.465531) can0 1D8#0000000000008059
(1762375445.469419) can0 266#00002C2C00000000
(1762375445.469709) can0 118#1583F00000080180
(1762375445.471285) can0 351#AC0B0A00D2007008
(1762375445.471497) can0 356#6C0B0000B400
(1762375445.471724) can0 355#5300640043030618
(1762375445.475537) can0 1D8#000000000000A079
(1762375445.479409) can0 266#00002C2C00000000
(1762375445.479650) can0 118#1684F00000080180
(1762375445.485533) can0 1D8#000000000000C099
(1762375445.485789) can0 5A6#0A80480140000000
(1762375445.486033) can0 386#0002000000008000
(1762375445.489406) can0 266#00002C2C00000000
(1762375445.489705) can0 118#1785F00000080180
(1762375445.489918) can0 166#9108000000B603
(1762375445.490163) can0 1D6#40080800282D7010
(1762375445.490343) can0 279#19920C0000
(1762375445.490582) can0 395#F0110040FF00007D
(1762375445.490833) can0 108#9002000400008001
(1762375445.490951) can0 2B6#8A01
(1762375445.491219) can0 397#000000003B000000
(1762375445.491378) can0 128#8F483802
(1762375445.491629) can0 268#2C2CFF01FF
(1762375445.495536) can0 1D8#000000000000E0B9
(1762375445.499407) can0 266#00002C2C00000000
(1762375445.499647) can0 118#1886F00000080180
(1762375445.499905) can0 7D5#2B00000000000000
(1762375445.500157) can0 7D5#3260000000000000
(1762375445.500396) can0 7D7#322C000000000000
(1762375445.505532) can0 1D8#00000000000000D9
(1762375445.509414) can0 266#00002C2C00000000
(1762375445.509699) can0 118#1987F00000080180
(1762375445.515530) can0 1D8#00000000000020F9
(1762375445.515778) can0 376#5030315F30310000
(1762375445.516002) can0 076#040F050F061100BC
(1762375445.519412) can0 266#00002C2C00000000
(1762375445.519653) can0 118#1A88F00000080180
(1762375445.525532) can0 1D8#0000000000004019
(1762375445.529412) can0 266#00002C2C00000000
(1762375445.529693) can0 118#1B89F00000080180
(1762375445.535526) can0 1D8#0000000000006039
(1762375445.539398) can0 266#00002C2C00000000
(1762375445.539648) can0 118#1C8AF00000080180
(1762375445.545526) can0 1D8#0000000000008059
(1762375445.549410) can0 266#00002C2C00000000
(1762375445.549694) can0 118#1D8BF00000080180
(1762375445.555527) can0 1D8#000000000000A079
(1762375445.559408) can0 266#00002C2C00000000
(1762375445.559652) can0 118#1E8CF00000080180
(1762375445.565522) can0 1D8#000000000000C099
(1762375445.569404) can0 266#00002C2C00000000
(1762375445.569698) can0 118#1F8DF00000080180
(1762375445.575286) can0 351#AC0B0A00D2007008
(1762375445.575541) can0 1D8#000000000000E0B9
(1762375445.575745) can0 356#6C0B0000B400
(1762375445.575990) can0 355#5300640043030618
(1762375445.579411) can0 266#00002C2C00000000
(1762375445.579665) can0 118#208EF00000080180
(1762375445.585522) can0 1D8#00000000000000D9
(1762375445.589402) can0 266#00002C2C00000000
(1762375445.589689) can0 118#218FF00000080180
(1762375445.589911) can0 166#2309000000B603
(1762375445.590136) can0 1D6#40080800282D7610
(1762375445.590328) can0 279#0A830C0000
(1762375445.590566) can0 395#F0110040FF00007D
(1762375445.590813) can0 108#9103000400008001
(1762375445.590917) can0 2B6#8A01
(1762375445.591183) can0 397#000000003B000000
(1762375445.591341) can0 128#8B483802
(1762375445.591611) can0 268#2C2CFF01FF
(1762375445.595526) can0 1D8#00000000000020F9
(1762375445.599401) can0 266#00002C2C00000000
(1762375445.599649) can0 118#1280F00000080180
(1762375445.599901) can0 7D5#2B00000000000000
(1762375445.600151) can0 7D5#3260000000000000
(1762375445.600388) can0 7D7#322C000000000000
(1762375445.605524) can0 1D8#0000000000004019
(1762375445.609402) can0 266#00002C2C00000000
(1762375445.609695) can0 118#1381F00000080180
(1762375445.615517) can0 1D8#0000000000006039
(1762375445.615759) can0 377#5030315F30380000
(1762375445.616003) can0 076#0712000F010F00B6
(1762375445.619403) can0 266#00002C2C00000000
(1762375445.619654) can0 118#1482F00000080180
(1762375445.625515) can0 1D8#0000000000008059
(1762375445.629398) can0 266#00002C2C00000000
(1762375445.629681) can0 118#1583F00000080180
(1762375445.635516) can0 1D8#000000000000A079
(1762375445.639396) can0 266#00002C2C00000000
(1762375445.639643) can0 118#1684F00000080180
(1762375445.645515) can0 1D8#000000000000C099
(1762375445.649400) can0 266#00002C2C00000000
(1762375445.649688) can0 118#1785F00000080180
(1762375445.655516) can0 1D8#000000000000E0B9
(1762375445.659400) can0 266#00002C2C00000000
(1762375445.659653) can0 118#1886F00000080180
(1762375445.663284) can0 35B#72100500
(1762375445.663473) can0 35A#00000000
(1762375445.665515) can0 1D8#00000000000000D9
(1762375445.669397) can0 266#00002C2C00000000
(1762375445.669688) can0 118#1987F00000080180
(1762375445.675513) can0 1D8#00000000000020F9
(1762375445.679290) can0 351#AC0B0A00D2007008
(1762375445.679539) can0 266#00002C2C00000000
(1762375445.679785) can0 118#1A88F00000080180
(1762375445.679979) can0 356#6D0B0000B400
(1762375445.680221) can0 355#5300640043030618
(1762375445.685519) can0 1D8#0000000000004019
(1762375445.689397) can0 266#00002C2C00000000
(1762375445.689651) can0 118#1B89F00000080180
(1762375445.689895) can0 166#2509000000B603
(1762375445.690126) can0 1D6#40080800282D6610
(1762375445.690309) can0 279#0B840C0000
(1762375445.690551) can0 395#F0110040FF00007D
(1762375445.690796) can0 108#1404000200000005
(1762375445.690924) can0 2B6#8A01
(1762375445.691184) can0 397#000000003B000000
(1762375445.691345) can0 128#8B483802
(1762375445.691617) can0 268#2C2CFF01FF
(1762375445.695515) can0 1D8#0000000000006039
(1762375445.699413) can0 266#00002C2C00000000
(1762375445.699673) can0 118#1C8AF00000080180
(1762375445.699931) can0 7D5#2B00000000000000
(1762375445.700177) can0 7D5#3260000000000000
(1762375445.700425) can0 7D7#322C000000000000
(1762375445.705512) can0 1D8#0000000000008059
(1762375445.709410) can0 266#00002C2C00000000
(1762375445.709679) can0 118#1D8BF00000080180
(1762375445.715505) can0 1D8#000000000000A079
(1762375445.715763) can0 379#9C00000000000000
(1762375445.715989) can0 076#020F030F040F00B4
(1762375445.719411) can0 266#00002C2C00000000
(1762375445.719684) can0 118#1E8CF00000080180
(1762375445.725504) can0 1D8#000000000000C099
(1762375445.728959) can0 036#069EB210129EB206
(1762375445.729406) can0 266#00002C2C00000000
(1762375445.729675) can0 118#1F8DF00000080180
(1762375445.735504) can0 1D8#000000000000E0B9
(1762375445.739410) can0 266#00002C2C00000000
(1762375445.739667) can0 118#208EF00000080180
(1762375445.745505) can0 1D8#00000000000000D9
(1762375445.749405) can0 266#00002C2C00000000
(1762375445.749677) can0 118#218FF00000080180
(1762375445.755505) can0 1D8#00000000000020F9
(1762375445.759405) can0 266#00002C2C00000000
(1762375445.759672) can0 118#1280F00000080180
(1762375445.765499) can0 1D8#0000000000004019
(1762375445.769402) can0 266#00002C2C00000000
(1762375445.769664) can0 118#1381F00000080180
(1762375445.775501) can0 1D8#0000000000006039
(1762375445.779652) can0 266#00002C2C00000000
(1762375445.779907) can0 118#1482F00000080180
(1762375445.783293) can0 351#AC0B0A00D2007008
(1762375445.783495) can0 356#6D0B0000B400
(1762375445.783747) can0 355#5300640043030618
(1762375445.785504) can0 1D8#0000000000008059
(1762375445.789411) can0 266#00002C2C00000000
(1762375445.789676) can0 118#1583F00000080180
(1762375445.789947) can0 166#2509000000B603
(1762375445.790187) can0 1D6#40080800282D5610
(1762375445.790354) can0 279#0C850C0000
(1762375445.790674) can0 395#F0110041FF00007D
(1762375445.790909) can0 108#1505000200000005
(1762375445.791049) can0 2B6#8A01
(1762375445.791304) can0 397#000000003B000000
(1762375445.791458) can0 128#8B483802
(1762375445.791645) can0 268#2C2CFF01FF
(1762375445.795503) can0 1D8#000000000000A079
(1762375445.799414) can0 266#00002C2C00000000
(1762375445.799675) can0 118#1684F00000080180
(1762375445.799918) can0 7D5#2B00000000000000
(1762375445.800169) can0 7D5#3260000000000000
(1762375445.800413) can0 7D7#322C000000000000
(1762375445.805499) can0 1D8#000000000000C099
(1762375445.809408) can0 266#00002C2C00000000
(1762375445.809668) can0 118#1785F00000080180
(1762375445.815494) can0 1D8#000000000000E0B9
(1762375445.815733) can0 380#4C35414136343033
(1762375445.815962) can0 076#050F0611071200C2
(1762375445.816213) can0 5A6#3580010000000000
(1762375445.816453) can0 386#0002000000009000
(1762375445.819648) can0 266#00002C2C00000000
(1762375445.819895) can0 118#1886F00000080180
(1762375445.820143) can0 5A5#9B80040000000000
(1762375445.820395) can0 3C5#0000000400000000
(1762375445.825493) can0 1D8#00000000000000D9
(1762375445.829405) can0 266#00002C2C00000000
(1762375445.829662) can0 118#1987F00000080180
(1762375445.835490) can0 1D8#00000000000020F9
(1762375445.839406) can0 266#00002C2C00000000
(1762375445.839665) can0 118#1A88F00000080180
(1762375445.845489) can0 1D8#0000000000004019
(1762375445.849395) can0 266#00002C2C00000000
(1762375445.849681) can0 118#1B89F00000080180
(1762375445.855487) can0 1D8#0000000000006039
(1762375445.859643) can0 266#00002C2C00000000
(1762375445.859890) can0 118#1C8AF00000080180
(1762375445.865488) can0 1D8#0000000000008059
(1762375445.869396) can0 266#00002C2C00000000
(1762375445.869652) can0 118#1D8BF00000080180
(1762375445.875484) can0 1D8#800000000000A0F9
(1762375445.875745) can0 5A4#1680040000000000
(1762375445.875986) can0 3A0#0000000000000000
(1762375445.879644) can0 266#00002C2C00000000
(1762375445.879900) can0 118#1E8CF00000080180
(1762375445.885481) can0 1D8#800000000000C019
(1762375445.887299) can0 351#AC0B0A00D2007008
(1762375445.887503) can0 356#6D0B0000B400
(1762375445.887749) can0 355#5300640043030618
(1762375445.889396) can0 266#00002C2C00000000
(1762375445.889660) can0 118#1F8DF00000080180
(1762375445.889930) can0 166#2509000000B603
(1762375445.890170) can0 1D6#40080800282D6810
(1762375445.890355) can0 279#0D860C0000
(1762375445.890658) can0 395#011100410000007D
(1762375445.890898) can0 108#1606000200000005
(1762375445.891042) can0 2B6#8A01
(1762375445.891284) can0 397#000000003B000000
(1762375445.891459) can0 128#8B483802
(1762375445.891622) can0 268#2C2CFF01FF
(1762375445.895487) can0 1D8#800000000000E039
(1762375445.899640) can0 266#00002C2C00000000
(1762375445.899904) can0 7D5#2B00000000000000
(1762375445.900150) can0 118#208EF00000080180
(1762375445.900385) can0 7D5#3260000000000000
(1762375445.900635) can0 7D7#322C000000000000
(1762375445.905486) can0 1D8#8000000000000059
(1762375445.909396) can0 266#00002C2C00000000
(1762375445.909663) can0 118#218FF00000080180
(1762375445.914270) can0 078#1000000000000000
(1762375445.915068) can0 078#1000000000000000
(1762375445.915498) can0 1D8#8000000000002079
(1762375445.915747) can0 381#FFFFFF0000000000
(1762375445.915983) can0 076#000F010F020F00AE
(1762375445.916236) can0 078#1000000000000000
(1762375445.917060) can0 078#1000000000000000
(1762375445.919671) can0 266#00002C2C00000000
(1762375445.919912) can0 118#1280F00000080180
(1762375445.925493) can0 1D8#8000000000004099
(1762375445.929389) can0 266#00002C2C00000000
(1762375445.929664) can0 118#1381F00000080180
(1762375445.935475) can0 1D8#80000000000060B9
(1762375445.939634) can0 266#00002C2C00000000
(1762375445.939879) can0 118#1482F00000080180
(1762375445.945475) can0 1D8#80000000000080D9
(1762375445.949384) can0 266#00002C2C00000000
(1762375445.949660) can0 118#1583F00000080180
(1762375445.955476) can0 1D8#800000000000A0F9
(1762375445.959400) can0 266#00002C2C00000000
(1762375445.959657) can0 118#1684F00000080180
(1762375445.965470) can0 1D8#800000000000C019
(1762375445.967718) can0 079#0B00000000000000
(1762375445.969384) can0 266#00002C2C00000000
(1762375445.969668) can0 118#1785F00000080180
(1762375445.975472) can0 1D8#800000000000E039
(1762375445.977566) can0 079#0B00000000000000
(1762375445.979629) can0 266#00002C2C00000000
(1762375445.979883) can0 118#1886F00000080180
(1762375445.985473) can0 1D8#8000000000000059
(1762375445.987221) can0 079#0B00000000000000
(1762375445.989382) can0 266#00002C2C00000000
(1762375445.989660) can0 118#1987F00000080180
(1762375445.989970) can0 166#2509000000B603
(1762375445.990204) can0 1D6#40080800282D9010
(1762375445.990383) can0 279#0E870C0000
(1762375445.990660) can0 395#011100410000007D
(1762375445.990905) can0 108#1707000200000005
(1762375445.991006) can0 2B6#8801
(1762375445.991283) can0 397#000000003B000000
(1762375445.991442) can0 128#8B483802
(1762375445.991630) can0 268#2C2CFF01FF
(1762375445.991832) can0 356#6D0B0000B400
(1762375445.992075) can0 355#5300640043030618
(1762375445.992321) can0 351#AC0B0A00D2007008
(1762375445.995478) can0 1D8#8000000000002079
(1762375445.997274) can0 079#0B00000000000000
(1762375445.999400) can0 266#00002C2C00000000
(1762375445.999645) can0 118#1A88F00000080180
(1762375445.999901) can0 7D5#2B00000000000000
(1762375446.000143) can0 7D5#3260000000000000
(1762375446.000414) can0 7D7#322C000000000000
(1762375446.005472) can0 1D8#8000000000004099
(1762375446.007085) can0 079#0B00000000000000
(1762375446.009396) can0 266#00002C2C00000000
(1762375446.009687) can0 118#1B89F00000080180
(1762375446.015465) can0 1D8#80000000000060B9
(1762375446.015703) can0 374#5030315F30373000
(1762375446.015936) can0 076#030F040F050F00B7
(1762375446.017114) can0 079#0B00000000000000
(1762375446.019626) can0 266#00002C2C00000000
(1762375446.019874) can0 118#1C8AF00000080180
(1762375446.023600) can0 080#FD472F80D81E2E54
(1762375446.025469) can0 1D8#80000000000080D9
(1762375446.027129) can0 079#0B00000000000000
(1762375446.029393) can0 266#00002C2C00000000
(1762375446.029666) can0 118#1D8BF00000080180
(1762375446.035470) can0 1D8#800000000000A0F9
(1762375446.039623) can0 266#00002C2C00000000
(1762375446.039879) can0 118#1E8CF00000080180
(1762375446.044470) can0 081#143E4EFD0AEA83A6
(1762375446.045464) can0 1D8#800000000000C019
(1762375446.049377) can0 266#00002C2C00000000
(1762375446.049661) can0 118#1F8DF00000080180
(1762375446.055462) can0 1D8#800000000000E039
(1762375446.055715) can0 056#040000000000015B
(1762375446.059387) can0 266#00002C2C00000000
(1762375446.059645) can0 118#208EF00000080180
(1762375446.065459) can0 1D8#8000000000000059
(1762375446.069371) can0 266#00002C2C00000000
(1762375446.069672) can0 118#218FF00000080180
(1762375446.074323) can0 080#ADDAE44A91E4F4A6
(1762375446.075459) can0 1D8#8000000000002079
(1762375446.079387) can0 266#00002C2C00000000
(1762375446.079645) can0 118#1280F00000080180
(1762375446.084849) can0 081#15CB8B926F39FD37
(1762375446.085457) can0 1D8#8000000000004099
(1762375446.089366) can0 266#00002C2C00000000
(1762375446.089658) can0 118#1381F00000080180
(1762375446.089962) can0 166#2509000000B603
(1762375446.090187) can0 1D6#40080800282D6510
(1762375446.090377) can0 279#0F880C0000
(1762375446.090647) can0 395#011100410000007D
(1762375446.090907) can0 108#1808000200000005
(1762375446.091010) can0 2B6#8801
(1762375446.091297) can0 397#000000003B000000
(1762375446.091441) can0 128#8B483802
(1762375446.091632) can0 268#2C2CFF01FF
(1762375446.095361) can0 351#AC0B0A00D2007008
(1762375446.095606) can0 1D8#80000000000060B9
(1762375446.095808) can0 356#6D0B0000B400
(1762375446.096053) can0 355#5300640043030618
(1762375446.099390) can0 266#00002C2C00000000
(1762375446.099646) can0 118#1482F00000080180
(1762375446.099898) can0 7D5#2B00000000000000
(1762375446.100154) can0 7D5#3260000000000000
(1762375446.100387) can0 7D7#322C000000000000
(1762375446.105465) can0 1D8#80000000000080D9
(1762375446.109369) can0 266#00002C2C00000000
(1762375446.109656) can0 118#1583F00000080180
(1762375446.115458) can0 1D8#800000000000A0F9
(1762375446.115691) can0 375#5030315F30323100
(1762375446.115929) can0 076#06110712000F00BD
(1762375446.119382) can0 266#00002C2C00000000
(1762375446.119655) can0 118#1684F00000080180
(1762375446.125065) can0 080#E60D426F5F221D7D
(1762375446.125460) can0 1D8#800000000000C019
(1762375446.129364) can0 266#00002C2C00000000
(1762375446.129652) can0 118#1785F00000080180
(1762375446.135452) can0 1D8#800000000000E039
(1762375446.139379) can0 266#00002C2C00000000
(1762375446.139634) can0 118#1886F00000080180
(1762375446.144916) can0 081#B18F633D3A0FF50C
(1762375446.145451) can0 1D8#8000000000000059
(1762375446.149360) can0 266#00002C2C00000000
(1762375446.149652) can0 118#1987F00000080180
(1762375446.154661) can0 056#040000000000025C
(1762375446.155453) can0 1D8#8000000000002079
(1762375446.159254) can0 6B0#00A700487243005C
(1762375446.159517) can0 266#00002C2C00000000
(1762375446.159753) can0 118#1A88F00000080180
(1762375446.160003) can0 6B4#0163000100150000
(1762375446.160246) can0 6B3#00120000000F0000
(1762375446.160477) can0 6B2#004600799E6100BE
(1762375446.160712) can0 6B1#001500009EC2002E
(1762375446.165456) can0 1D8#8000000000004099
(1762375446.167231) can0 35B#72100500
(1762375446.167417) can0 35A#00000000
(1762375446.169365) can0 266#00002C2C00000000
(1762375446.169655) can0 118#1B89F00000080180
(1762375446.174494) can0 080#E8616310D41CEF41
(1762375446.175447) can0 1D8#80000000000060B9
(1762375446.179375) can0 266#00002C2C00000000
(1762375446.179645) can0 118#1C8AF00000080180
(1762375446.184818) can0 081#2C3C672E614E43D8
(1762375446.185449) can0 1D8#80000000000080D9
(1762375446.189355) can0 266#00002C2C00000000
(1762375446.189634) can0 118#1D8BF00000080180
(1762375446.189939) can0 166#2509000000B603
(1762375446.190175) can0 1D6#40080800282D6010
(1762375446.190366) can0 279#10890C0000
(1762375446.190638) can0 395#011100410000007D
(1762375446.190884) can0 108#1909000200000005
(1762375446.190995) can0 2B6#8801
(1762375446.191267) can0 397#000000003B000000
(1762375446.191446) can0 128#8B483802
(1762375446.191614) can0 268#2C2CFF01FF
(1762375446.195456) can0 1D8#800000000000A0F9
(1762375446.199319) can0 351#AC0B0A00D2007008
(1762375446.199561) can0 266#00002C2C00000000
(1762375446.199763) can0 356#6D0B0000B400
(1762375446.200008) can0 118#1E8CF00000080180
(1762375446.200238) can0 355#5300640043030618
(1762375446.200497) can0 7D5#2B00000000000000
(1762375446.200748) can0 7D5#3260000000000000
(1762375446.200989) can0 7D7#322C000000000000
(1762375446.205455) can0 1D8#800000000000C019
(1762375446.209355) can0 266#00002C2C00000000
(1762375446.209647) can0 118#1F8DF00000080180
(1762375446.215447) can0 1D8#800000000000E039
(1762375446.215683) can0 376#5030315F30310000
(1762375446.215923) can0 076#010F020F030F00B1
(1762375446.219370) can0 266#00002C2C00000000
(1762375446.219639) can0 118#208EF00000080180
(1762375446.225213) can0 080#2195C134A25B1918
(1762375446.225465) can0 1D8#8000000000000059
(1762375446.228966) can0 036#079EB510129EBC14
(1762375446.229352) can0 266#00002C2C00000000
(1762375446.229637) can0 118#218FF00000080180
(1762375446.235447) can0 1D8#8000000000002079
(1762375446.239364) can0 266#00002C2C00000000
(1762375446.239655) can0 118#1280F00000080180
(1762375446.245052) can0 081#E86BD87CC0EE6E30
(1762375446.245442) can0 1D8#8000000000004099
(1762375446.249347) can0 266#00002C2C00000000
(1762375446.249651) can0 118#1381F00000080180
(1762375446.253747) can0 056#040000000000035D
(1762375446.255440) can0 1D8#80000000000060B9
(1762375446.259363) can0 266#00002C2C00000000
(1762375446.259617) can0 118#1482F00000080180
(1762375446.265444) can0 1D8#80000000000080D9
(1762375446.269340) can0 266#00002C2C00000000
(1762375446.269621) can0 118#1583F00000080180
(1762375446.274639) can0 080#23E9E2D51755EBDB
(1762375446.275440) can0 1D8#800000000000A0F9
(1762375446.279355) can0 266#00002C2C00000000
(1762375446.279639) can0 118#1684F00000080180
(1762375446.284656) can0 081#1ED991621468A7C6
(1762375446.285435) can0 1D8#800000000000C019
(1762375446.289336) can0 266#00002C2C00000000
(1762375446.289622) can0 118#1785F00000080180
(1762375446.289925) can0 166#2509000000B603
(1762375446.290159) can0 1D6#40080800282D8610
(1762375446.290344) can0 279#118A0C0000
(1762375446.290615) can0 395#011120410800077D
(1762375446.290862) can0 108#1A0A000200000005
(1762375446.290993) can0 2B6#8801
(1762375446.291255) can0 397#000000003B000000
(1762375446.291406) can0 128#8B483802
(1762375446.291605) can0 268#2C2CFF01FF
(1762375446.295439) can0 1D8#800000000000E039
(1762375446.299341) can0 266#00002C2C00000000
(1762375446.299625) can0 118#1886F00000080180
(1762375446.299872) can0 3D5#3C3C3C3B3A2B0343
(1762375446.300135) can0 7D5#2B00000000000000
(1762375446.300354) can0 315#1839383B50389E7D
(1762375446.300595) can0 7D5#3260000000000000
(1762375446.300833) can0 315#0138380039280000
(1762375446.301086) can0 7D7#322C000000000000
(1762375446.301325) can0 315#02FFFFFFFF000000
(1762375446.301575) can0 7D5#420000E400E42000
(1762375446.301822) can0 315#FBFFFFFFFBFFFB0F
(1762375446.302050) can0 7D5#43BDC1B46B3C0000
(1762375446.302303) can0 315#04FFFFFFFF000000
(1762375446.302512) can0 7D5#442E462156372444
(1762375446.302707) can0 5D7#506E000000
(1762375446.302944) can0 7D5#4628282828282828
(1762375446.303114) can0 3B6#FFFFFFFF
(1762375446.303320) can0 356#6D0B0000B400
(1762375446.303555) can0 335#0B001E5B00000000
(1762375446.303794) can0 355#5300640043030618
(1762375446.304025) can0 351#AC0B0A00D2007008
(1762375446.304276) can0 3A7#0000000000000000
(1762375446.304519) can0 7D5#4828280000008A93
(1762375446.304773) can0 3E5#0000000000000000
(1762375446.305009) can0 367#0000000000000000
(1762375446.305257) can0 368#0000000000000000
(1762375446.305509) can0 1D8#8000000000000059
(1762375446.305757) can0 36B#0000000000000080
(1762375446.306006) can0 36E#0000000000000000
(1762375446.309345) can0 266#00002C2C00000000
(1762375446.309626) can0 118#1987F00000080180
(1762375446.315436) can0 1D8#8000000000002079
(1762375446.315674) can0 377#5030315F30380000
(1762375446.315912) can0 076#040F050F061100BC
(1762375446.319353) can0 266#00002C2C00000000
(1762375446.319601) can0 118#1A88F00000080180
(1762375446.325379) can0 080#5C1C40F9E59414B2
(1762375446.325631) can0 1D8#8000000000004099
(1762375446.329333) can0 266#00002C2C00000000
(1762375446.329620) can0 118#1B89F00000080180
(1762375446.335430) can0 1D8#80000000000060B9
(1762375446.339347) can0 266#00002C2C00000000
(1762375446.339620) can0 118#1C8AF00000080180
(1762375446.345101) can0 081#E482C60C474AD2A4
(1762375446.345438) can0 1D8#80000000000080D9
(1762375446.349329) can0 266#00002C2C00000000
(1762375446.349608) can0 118#1D8BF00000080180
(1762375446.352831) can0 056#040000000000045E
(1762375446.355433) can0 1D8#800000000000A0F9
(1762375446.359344) can0 266#00002C2C00000000
(1762375446.359619) can0 118#1E8CF00000080180
(1762375446.364375) can0 554#0021041723C001
(1762375446.364623) can0 344#0000000000002067
(1762375446.364869) can0 6D4#0B001E5B00000000
(1762375446.365123) can0 384#0000300000000004
(1762375446.365367) can0 380#0200000063000000
(1762375446.365618) can0 1D8#800000000000C019
(1762375446.365864) can0 5A6#1180010000000000
(1762375446.366101) can0 5A4#3B80010000000000
(1762375446.366344) can0 386#0002010000009000
(1762375446.366596) can0 3A0#0000000000000000
(1762375446.369327) can0 266#00002C2C00000000
(1762375446.369611) can0 118#1F8DF00000080180
(1762375446.369845) can0 527#6980010000000000
(1762375446.370092) can0 5A5#6E80010000000000
(1762375446.370335) can0 5A5#EA80010000000000
(1762375446.370628) can0 527#E780010000000000
(1762375446.370879) can0 3B5#0400000800200000
(1762375446.371118) can0 3E5#0000000000020000
(1762375446.371375) can0 368#0000000000010000
(1762375446.371633) can0 36E#0000000040000000
(1762375446.375431) can0 1D8#800000000000E039
(1762375446.376102) can0 080#5E70619A5A8EE675
(1762375446.379326) can0 266#00002C2C00000000
(1762375446.379616) can0 118#208EF00000080180
(1762375446.385425) can0 1D8#8000000000000059
(1762375446.389317) can0 266#00002C2C00000000
(1762375446.389602) can0 118#218FF00000080180
(1762375446.389900) can0 166#2509000000B603
(1762375446.390142) can0 1D6#40080800282D5710
(1762375446.390330) can0 279#128B0C0000
(1762375446.390608) can0 395#01111D411200067D
(1762375446.390849) can0 108#1D0B000200020005
(1762375446.390951) can0 2B6#8801
(1762375446.391222) can0 397#000000003B000000
(1762375446.391377) can0 128#8B483802
(1762375446.391570) can0 268#2C2CFF01FF
(1762375446.395434) can0 1D8#8000000000002079
(1762375446.395661) can0 081#8F889328854B61E1
(1762375446.399322) can0 266#00002C2C00000000
(1762375446.399607) can0 118#1280F00000080180
(1762375446.399851) can0 7D5#2B00000000000000
(1762375446.400107) can0 7D5#3260000000000000
(1762375446.400341) can0 7D7#322C000000000000
(1762375446.405424) can0 1D8#8000000000004099
(1762375446.407379) can0 351#AC0B0A00D2007008
(1762375446.407588) can0 356#6D0B0000B400
(1762375446.407817) can0 355#5300640043030618
(1762375446.409321) can0 266#00002C2C00000000
(1762375446.409609) can0 118#1381F00000080180
(1762375446.415427) can0 1D8#80000000000060B9
(1762375446.415666) can0 379#9C00000000000000
(1762375446.415904) can0 076#0712000F010F00B6
(1762375446.419321) can0 266#00002C2C00000000
(1762375446.419597) can0 118#1482F00000080180
(1762375446.425424) can0 1D8#80000000000080D9
(1762375446.425657) can0 080#283BB4E8BA46F843
(1762375446.429313) can0 266#00002C2C00000000
(1762375446.429601) can0 118#1583F00000080180
(1762375446.435018) can0 081#3F4C1CDAE3F2D540
(1762375446.435425) can0 1D8#800000000000A0F9
(1762375446.439315) can0 266#00002C2C00000000
(1762375446.439602) can0 118#1684F00000080180
(1762375446.445419) can0 1D8#800000000000C019
(1762375446.449307) can0 266#00002C2C00000000
(1762375446.449591) can0 118#1785F00000080180
(1762375446.451922) can0 056#040000000000055F
(1762375446.455416) can0 1D8#800000000000E039
(1762375446.459310) can0 266#00002C2C00000000
(1762375446.459592) can0 118#1886F00000080180
(1762375446.465418) can0 1D8#8000000000000059
(1762375446.469310) can0 266#00002C2C00000000
(1762375446.469584) can0 118#1987F00000080180
(1762375446.475420) can0 1D8#8000000000002079
(1762375446.476258) can0 080#616E120C8985221A
(1762375446.479311) can0 266#00002C2C00000000
(1762375446.479589) can0 118#1A88F00000080180
(1762375446.485412) can0 1D8#8000000000004099
(1762375446.489308) can0 266#00002C2C00000000
(1762375446.489598) can0 118#1B89F00000080180
(1762375446.489896) can0 166#2509000000B603
(1762375446.490124) can0 1D6#40080800282D8710
(1762375446.490322) can0 279#138C0C0000
(1762375446.490585) can0 395#01111B411600057D
(1762375446.490844) can0 108#1C0C000200000005
(1762375446.490943) can0 2B6#8801
(1762375446.491218) can0 397#000000003B000000
(1762375446.491382) can0 128#8B483802
(1762375446.491575) can0 268#2C2CFF01FF
(1762375446.495418) can0 1D8#80000000000060B9
(1762375446.495761) can0 081#24C2D72DE0B1EB7F
(1762375446.499308) can0 266#00002C2C00000000
(1762375446.499589) can0 118#1C8AF00000080180
(1762375446.499838) can0 7D5#2B00000000000000
(1762375446.500094) can0 7D5#3260000000000000
(1762375446.500335) can0 7D7#322C000000000000
(1762375446.505412) can0 1D8#80000000000080D9
(1762375446.509302) can0 266#00002C2C00000000
(1762375446.509579) can0 118#1D8BF00000080180
(1762375446.511305) can0 351#AC0B0A00D2007008
(1762375446.511508) can0 356#6D0B0000B400
(1762375446.511746) can0 355#5300640043030618
(1762375446.515417) can0 1D8#800000000000A0F9
(1762375446.515656) can0 380#4C35414136343033
(1762375446.515883) can0 076#020F030F040F00B4
(1762375446.519310) can0 266#00002C2C00000000
(1762375446.519579) can0 118#1E8CF00000080180
(1762375446.525409) can0 1D8#800000000000C019
(1762375446.525678) can0 080#0AB30DD88048CCDC
(1762375446.529301) can0 266#00002C2C00000000
(1762375446.529590) can0 118#1F8DF00000080180
(1762375446.535278) can0 081#C9D33025997DA670
(1762375446.535538) can0 1D8#800000000000E039
(1762375446.539304) can0 266#00002C2C00000000
(1762375446.539591) can0 118#208EF00000080180
(1762375446.545409) can0 1D8#8000000000000059
(1762375446.549300) can0 266#00002C2C00000000
(1762375446.549585) can0 118#218FF00000080180
(1762375446.551008) can0 056#0400000000000660
(1762375446.555409) can0 1D8#8000000000002079
(1762375446.559301) can0 266#00002C2C00000000
(1762375446.559593) can0 118#1280F00000080180
(1762375446.565402) can0 1D8#8000000000004099
(1762375446.569297) can0 266#00002C2C00000000
(1762375446.569583) can0 118#1381F00000080180
(1762375446.575406) can0 1D8#80000000000060B9
(1762375446.576418) can0 080#9CF591D1CCBE1DB4
(1762375446.579302) can0 266#00002C2C00000000
(1762375446.579587) can0 118#1482F00000080180
(1762375446.585407) can0 1D8#80000000000080D9
(1762375446.589292) can0 266#00002C2C00000000
(1762375446.589586) can0 118#1583F00000080180
(1762375446.589890) can0 166#2509000000B603
(1762375446.590109) can0 1D6#40080800282D6A10
(1762375446.590308) can0 279#148D0C0000
(1762375446.590573) can0 395#01111B411800057D
(1762375446.590816) can0 108#1D0D000200000005
(1762375446.590969) can0 2B6#8801
(1762375446.591207) can0 397#000000003B000000
(1762375446.591364) can0 128#8B483802
(1762375446.591533) can0 268#2C2CFF01FF
(1762375446.595425) can0 1D8#800000000000A0F9
(1762375446.596108) can0 081#2D7C532DB1EF064D
(1762375446.599298) can0 266#00002C2C00000000
(1762375446.599585) can0 118#1684F00000080180
(1762375446.599830) can0 7D5#2B00000000000000
(1762375446.600091) can0 7D5#3260000000000000
(1762375446.600328) can0 7D7#322C000000000000
(1762375446.605412) can0 1D8#800000000000C019
(1762375446.609295) can0 266#00002C2C00000000
(1762375446.609587) can0 118#1785F00000080180
(1762375446.615312) can0 351#AC0B0A00D2007008
(1762375446.615573) can0 1D8#800000000000E039
(1762375446.615774) can0 356#6D0B0000B400
(1762375446.615997) can0 355#5300640043030618
(1762375446.616265) can0 381#FFFFFF0000000000
(1762375446.616486) can0 076#050F0611071200C2
(1762375446.619315) can0 266#00002C2C00000000
(1762375446.619552) can0 118#1886F00000080180
(1762375446.625414) can0 1D8#8000000000000059
(1762375446.625844) can0 080#9E49B27240B8EF77
(1762375446.629292) can0 266#00002C2C00000000
(1762375446.629567) can0 118#1987F00000080180
(1762375446.635211) can0 081#0B7644C515BD1981
(1762375446.635478) can0 1D8#8000000000002079
(1762375446.639306) can0 266#00002C2C00000000
(1762375446.639546) can0 118#1A88F00000080180
(1762375446.645407) can0 1D8#8000000000004099
(1762375446.649289) can0 266#00002C2C00000000
(1762375446.649567) can0 118#1B89F00000080180
(1762375446.650096) can0 056#0400000000000761
(1762375446.655408) can0 1D8#80000000000060B9
(1762375446.659304) can0 266#00002C2C00000000
(1762375446.659582) can0 118#1C8AF00000080180
(1762375446.665406) can0 1D8#80000000000080D9
(1762375446.669288) can0 266#00002C2C00000000
(1762375446.669575) can0 118#1D8BF00000080180
(1762375446.671225) can0 35B#7B090500
(1762375446.671395) can0 35A#00000000
(1762375446.675410) can0 1D8#800000000000A0F9
(1762375446.676571) can0 080#D77C11970FF7194F
(1762375446.679309) can0 266#00002C2C00000000
(1762375446.679573) can0 118#1E8CF00000080180
(1762375446.685401) can0 1D8#800000000000C019
(1762375446.689286) can0 266#00002C2C00000000
(1762375446.689583) can0 118#1F8DF00000080180
(1762375446.689866) can0 166#2509000000B603
(1762375446.690104) can0 1D6#40080800282D5410
(1762375446.690292) can0 279#158E0C0000
(1762375446.690562) can0 395#011119411800057D
(1762375446.690816) can0 108#1E0E000200000005
(1762375446.690917) can0 2B6#8801
(1762375446.691191) can0 397#000000003B000000
(1762375446.691346) can0 128#8B483802
(1762375446.691549) can0 268#2C2CFF01FF
(1762375446.695402) can0 1D8#800000000000E039
(1762375446.696195) can0 081#AFB87536C8380013
(1762375446.699308) can0 266#00002C2C00000000
(1762375446.699562) can0 118#208EF00000080180
(1762375446.699812) can0 7D5#2B00000000000000
(1762375446.700056) can0 7D5#3260000000000000
(1762375446.700302) can0 7D7#322C000000000000
(1762375446.705406) can0 1D8#8000000000000059
(1762375446.709282) can0 266#00002C2C00000000
(1762375446.709568) can0 118#218FF00000080180
(1762375446.715401) can0 1D8#8000000000002079
(1762375446.715644) can0 374#5030315F30373000
(1762375446.715882) can0 076#000F010F020F00AE
(1762375446.719293) can0 266#00002C2C00000000
(1762375446.719499) can0 356#6D0B0000B400
(1762375446.719737) can0 118#1280F00000080180
(1762375446.719973) can0 355#5300640043030618
(1762375446.720227) can0 351#AC0B0A00D2007008
(1762375446.725404) can0 1D8#8000000000004099
(1762375446.727306) can0 080#D9D0313883F1EB12
(1762375446.728973) can0 036#089EB410129EBC14
(1762375446.729305) can0 266#00002C2C00000000
(1762375446.729573) can0 118#1381F00000080180
(1762375446.735399) can0 1D8#80000000000060B9
(1762375446.739306) can0 266#00002C2C00000000
(1762375446.739556) can0 118#1482F00000080180
(1762375446.745335) can0 081#5D5EE3EF90A0E5D5
(1762375446.745584) can0 1D8#80000000000080D9
(1762375446.749181) can0 056#0400000000000862
(1762375446.749427) can0 266#00002C2C00000000
(1762375446.749677) can0 118#1583F00000080180
(1762375446.755400) can0 1D8#800000000000A0F9
(1762375446.759303) can0 266#00002C2C00000000
(1762375446.759570) can0 118#1684F00000080180
(1762375446.765395) can0 1D8#800000000000C019
(1762375446.769287) can0 266#00002C2C00000000
(1762375446.769575) can0 118#1785F00000080180
(1762375446.775392) can0 1D8#800000000000E039
(1762375446.778020) can0 080#4A8C5EB06672D5DE
(1762375446.779298) can0 266#00002C2C00000000
(1762375446.779570) can0 118#1886F00000080180
(1762375446.785394) can0 1D8#8000000000000059
(1762375446.789280) can0 266#00002C2C00000000
(1762375446.789569) can0 118#1987F00000080180
(1762375446.789858) can0 166#2509000000B603
(1762375446.790096) can0 1D6#40080800282D5C10
(1762375446.790286) can0 279#269F0C0000
(1762375446.790556) can0 395#011118411800047D
(1762375446.790798) can0 108#200F000200010005
(1762375446.790901) can0 2B6#8801
(1762375446.791184) can0 397#000000003B000000
(1762375446.791344) can0 128#8B483802
(1762375446.791545) can0 268#2C2CFF01FF
(1762375446.795399) can0 1D8#8000000000002079
(1762375446.796287) can0 081#252EE2EECF2616B2
(1762375446.799295) can0 266#00002C2C00000000
(1762375446.799568) can0 118#1A88F00000080180
(1762375446.799820) can0 7D5#2B00000000000000
(1762375446.800058) can0 7D5#3260000000000000
(1762375446.800307) can0 7D7#322C000000000000
(1762375446.805393) can0 1D8#8000000000004099
(1762375446.809282) can0 266#00002C2C00000000
(1762375446.809534) can0 118#1B89F00000080180
(1762375446.815387) can0 1D8#80000000000060B9
(1762375446.815622) can0 375#5030315F30323100
(1762375446.815860) can0 076#030F040F050F00B7
(1762375446.816157) can0 606#0322F01300000000
(1762375446.816773) can0 616#101162F013504754
(1762375446.819294) can0 266#00002C2C00000000
(1762375446.819552) can0 118#1C8AF00000080180
(1762375446.823377) can0 351#AC0B0A00D2007008
(1762375446.823594) can0 356#6D0B0000B400
(1762375446.823820) can0 355#5300640043030618
(1762375446.825391) can0 1D8#80000000000080D9
(1762375446.826613) can0 606#30000A0000000000
(1762375446.826880) can0 616#2132313235383035
(1762375446.829282) can0 266#00002C2C00000000
(1762375446.829520) can0 118#1D8BF00000080180
(1762375446.835392) can0 1D8#800000000000A0F9
(1762375446.839295) can0 266#00002C2C00000000
(1762375446.839556) can0 118#1E8CF00000080180
(1762375446.845386) can0 1D8#800000000000C019
(1762375446.846029) can0 616#2232393638AAAAAA
(1762375446.848266) can0 056#0400000000000963
(1762375446.849284) can0 266#00002C2C00000000
(1762375446.849572) can0 118#1F8DF00000080180
(1762375446.855384) can0 1D8#800000000000E039
(1762375446.859290) can0 266#00002C2C00000000
(1762375446.859540) can0 604#0211010000000000
(1762375446.859781) can0 118#208EF00000080180
(1762375446.860025) can0 614#025101AAAAAAAAAA
(1762375446.860251) can0 644#0211010000000000
(1762375446.864623) can0 1D5#21000000000000F7
(1762375446.864866) can0 2E5#000000000000DD00
(1762375446.865393) can0 1D8#8000000000000059
(1762375446.869097) can0 132#107200003840080E
(1762375446.869608) can0 055#0000000000000156
(1762375446.876531) can0 1D5#2100000000002017
(1762375446.876785) can0 2E5#000000000000DD00
(1762375446.880377) can0 053#D43084C78F384615
(1762375446.896050) can0 132#107200003840080E
(1762375446.896316) can0 055#0100000000000157
(1762375446.896543) can0 1D5#2100000000004037
(1762375446.896802) can0 2E5#000000000000DD00
(1762375446.898554) can0 39D#32600A2800
(1762375446.899656) can0 132#107200003840080E
(1762375446.899910) can0 055#0201000000000159
(1762375446.900132) can0 053#D43084C78F384615
(1762375446.905642) can0 1D5#2100000000006057
(1762375446.905896) can0 2E5#000000000000DD00
(1762375446.906938) can0 5F4#00091E5B00000001
(1762375446.908597) can0 221#60555515545101E8
(1762375446.908832) can0 3A1#884E0BC8000000B4
(1762375446.909065) can0 3C2#1055555500005D19
(1762375446.909302) can0 441#46652220DB0E0090
(1762375446.909679) can0 132#107200003840080E
(1762375446.909924) can0 055#0300000000000159
(1762375446.915621) can0 376#5030315F30310000
(1762375446.915853) can0 076#06110712000F00BD
(1762375446.916102) can0 1D5#2100000000008077
(1762375446.916343) can0 2E5#000000000000DD00
(1762375446.919785) can0 132#107200003840080E
(1762375446.920035) can0 055#0000000000000257
(1762375446.920261) can0 053#D43084C78F384615
(1762375446.920657) can0 000107D0#2164648B13180002
(1762375446.925670) can0 1D5#210000000000A097
(1762375446.925927) can0 2E5#000000000000DD00
(1762375446.927377) can0 351#AC0B0A00D2007008
(1762375446.927584) can0 356#6D0B0000B400
(1762375446.927821) can0 355#5300640043030618
(1762375446.929683) can0 132#107200003840080E
(1762375446.929941) can0 055#0100000000000258
(1762375446.935668) can0 1D5#210000000000C0B7
(1762375446.935914) can0 2E5#000000000000DD00
(1762375446.938558) can0 39D#33610A2800
(1762375446.939716) can0 132#107200003840080E
(1762375446.939980) can0 055#020100000000025A
(1762375446.940191) can0 053#D43084C78F384615
(1762375446.945665) can0 1D5#210000000000E0D7
(1762375446.945919) can0 2E5#000000000000DD00
(1762375446.947366) can0 056#0400000000000A64
(1762375446.949762) can0 132#107200003840080E
(1762375446.950012) can0 055#030000000000025A
(1762375446.955666) can0 1D5#21000000000000F7
(1762375446.955920) can0 2E5#000000000000DD00
(1762375446.958667) can0 221#61055505000010F3
(1762375446.958920) can0 3A1#0300986EBE0010E2
(1762375446.959133) can0 3C2#0155151500005509
(1762375446.959382) can0 441#00000000000005BF
(1762375446.959616) can0 052#6418138B64312000
(1762375446.959858) can0 339#4144FE0000038000
(1762375446.960088) can0 102#22B348040000A009
(1762375446.960328) can0 103#22B3884400002032
(1762375446.960586) can0 207#0000000000282800
(1762375446.960823) can0 224#0408004019011008
(1762375446.961043) can0 241#3C3C160F8F5500
(1762375446.961288) can0 247#100EFF0000000000
(1762375446.961521) can0 2A8#020000000080002C
(1762375446.961766) can0 2E8#020000000080006C
(1762375446.962011) can0 2E1#10210B9EE4680004
(1762375446.962116) can0 500#0101
(1762375446.962386) can0 7FF#0141535504041501
(1762375446.962619) can0 212#B904A32F01380001
(1762375446.962864) can0 252#0000CD0100000100
(1762375446.963097) can0 25D#3441012A08000000
(1762375446.963324) can0 2D2#302A343A0A008C00
(1762375446.963471) can0 229#460000
(1762375446.963604) can0 2D1#FF01
(1762375446.963793) can0 333#0030840702
(1762375446.964036) can0 125#0A00720B00000000
(1762375446.964284) can0 126#00C0000010000000
(1762375446.964523) can0 132#107200003840080E
(1762375446.964772) can0 055#0000000000000358
(1762375446.965002) can0 053#D43084C38F384615
(1762375446.965692) can0 1D5#2100000000002017
(1762375446.965929) can0 2E5#000000000000DD00
(1762375446.973718) can0 132#107200003840080E
(1762375446.973954) can0 055#0100000000000359
(1762375446.975689) can0 1D5#2100000000004037
(1762375446.975942) can0 2E5#000000000000DD00
(1762375446.978593) can0 39D#34620A2800
(1762375446.983744) can0 132#107200003840080E
(1762375446.983984) can0 055#020100000000035B
(1762375446.984212) can0 053#D43084C38F384615
(1762375446.985667) can0 1D5#2100000000006057
(1762375446.985941) can0 2E5#000000000000DD00
(1762375446.991768) can0 1D8#00000000000000D9
(1762375446.993786) can0 132#107200003840080E
(1762375446.994046) can0 055#030000000000035B
(1762375446.995685) can0 1D5#2100000000008077
(1762375446.995938) can0 2E5#000000000000DD00
(1762375447.001819) can0 1D8#00000000000020F9
(1762375447.002073) can0 5A6#6080010300400200
(1762375447.002306) can0 5A6#3880030000000300
(1762375447.002556) can0 386#0000000000008000
(1762375447.003720) can0 132#107200003840080E
(1762375447.003972) can0 055#0000000000000459
(1762375447.004195) can0 053#D43084C38F384615
(1762375447.005675) can0 1D5#210000000000A097
(1762375447.005926) can0 266#00002C2C00000000
(1762375447.006168) can0 118#1280F00000080180
(1762375447.006416) can0 2E5#000000000000DD00
(1762375447.008635) can0 221#00555515545121A8
(1762375447.008878) can0 3A1#884E0BC8000020D4
(1762375447.009108) can0 3C2#1055555500005D19
(1762375447.009331) can0 441#46652220DB0E0898
(1762375447.011797) can0 1D8#0000000000004019
(1762375447.013758) can0 132#107200003840080E
(1762375447.014009) can0 055#010000000000045A
(1762375447.015618) can0 377#5030315F30380000
(1762375447.015862) can0 076#010F020F030F00B1
(1762375447.016107) can0 1D5#210000000000C0B7
(1762375447.016350) can0 266#00002C2C00000000
(1762375447.016585) can0 166#A500000000B603
(1762375447.016829) can0 118#1381F00000080180
(1762375447.017070) can0 1D6#00080800282DC010
(1762375447.017314) can0 2E5#000000000000DD00
(1762375447.017564) can0 527#C080000000000000
(1762375447.017747) can0 279#17900C0000
(1762375447.017988) can0 36B#0000000000000080
(1762375447.018230) can0 395#F70DFFFFFFFF007D
(1762375447.018491) can0 108#8E00000400008001
(1762375447.018591) can0 2B6#8801
(1762375447.018791) can0 39D#35630A2800
(1762375447.019041) can0 397#000000003B000000
(1762375447.019203) can0 128#8B00EC0A
(1762375447.019387) can0 268#2C2CFF01FF
(1762375447.021802) can0 1D8#0000000000006039
(1762375447.024174) can0 132#107200003840080E
(1762375447.024416) can0 055#020100000000045C
(1762375447.024641) can0 053#D43084C78F384615
(1762375447.025702) can0 266#00002C2C00000000
(1762375447.025988) can0 118#1482F00000080180
(1762375447.026228) can0 3D5#FFFFFFFFFFFFFFFF
(1762375447.026485) can0 7D5#2B00000000000000
(1762375447.026719) can0 315#1839383B50389E7D
(1762375447.026963) can0 7D5#3260000000000000
(1762375447.027216) can0 315#0138380038280000
(1762375447.027443) can0 1D5#210000000000E0D7
(1762375447.027694) can0 2E5#000000000000DD00
(1762375447.027946) can0 315#02FFFFFFFF000000
(1762375447.028183) can0 7D7#322C000000000000
(1762375447.028436) can0 315#FBFFFFFFFBFFFB0F
(1762375447.028674) can0 7D5#42FD00FD00E51900
(1762375447.028929) can0 315#04FFFFFFFF000000
(1762375447.029160) can0 7D5#43FD00FD003C0000
(1762375447.029340) can0 5D7#8C8C000000
(1762375447.029577) can0 7D5#442A431D56372446
(1762375447.029740) can0 3B6#FFFFFFFF
(1762375447.029969) can0 7D5#4628282828282828
(1762375447.030215) can0 335#0A010533FC000500
(1762375447.030452) can0 7D5#4828280000008A93
(1762375447.030703) can0 3A7#0000000000000000
(1762375447.030958) can0 3B5#0000000000000000
(1762375447.031205) can0 3C5#0000000000000000
(1762375447.031412) can0 356#6D0B0000B400
(1762375447.031645) can0 355#5300640043030618
(1762375447.031892) can0 1D8#0000000000008059
(1762375447.032131) can0 351#AC0B0A00D2007008
(1762375447.032373) can0 3E5#0000000000000000
(1762375447.032619) can0 367#0000000000000000
(1762375447.032872) can0 368#0000000000000000
(1762375447.033134) can0 36E#0000000000000000
(1762375447.034197) can0 132#107200003840080E
(1762375447.034439) can0 055#030000000000045C
(1762375447.035688) can0 266#00002C2C00000000
(1762375447.035967) can0 118#1583F00000080180
(1762375447.037780) can0 1D5#21000000000000F7
(1762375447.038039) can0 2E5#000000000000DD00
(1762375447.041790) can0 1D8#000000000000A079
(1762375447.044201) can0 132#107200003840080E
(1762375447.044449) can0 055#000000000000055A
(1762375447.044672) can0 053#D43084C78F384615
(1762375447.045707) can0 266#00002C2C00000000
(1762375447.045989) can0 118#1684F00000080180
(1762375447.046437) can0 056#0400000000000B65
(1762375447.047770) can0 1D5#2100000000002017
(1762375447.048032) can0 2E5#000000000000DD00
(1762375447.051790) can0 1D8#000000000000C099
(1762375447.054231) can0 132#107200003840080E
(1762375447.054481) can0 055#010000000000055B
(1762375447.055671) can0 266#00002C2C00000000
(1762375447.055956) can0 118#1785F00000080180
(1762375447.057820) can0 1D5#2100000000004037
(1762375447.058084) can0 2E5#000000000000DD00
(1762375447.058624) can0 39D#36640A2800
(1762375447.058859) can0 221#6105550500003013
(1762375447.059097) can0 3A1#0300986EBE003002
(1762375447.059333) can0 3C2#0155151500005509
(1762375447.059580) can0 441#0000000000000DC7
(1762375447.059815) can0 052#6418138B64312000
(1762375447.060055) can0 339#4144FE0000038000
(1762375447.060285) can0 102#22B348040000A009
(1762375447.060524) can0 103#22B3884400002032
(1762375447.060777) can0 207#0000000000282800
(1762375447.061012) can0 224#0408004019011008
(1762375447.061233) can0 241#3C3C160F8F5500
(1762375447.061476) can0 247#100EFF0000000000
(1762375447.061722) can0 2A8#020000000080103C
(1762375447.061964) can0 1D8#000000000000E0B9
(1762375447.062205) can0 2E8#020000000080107C
(1762375447.062451) can0 2E1#390D00700C000000
(1762375447.062571) can0 500#0101
(1762375447.062811) can0 7FF#02263226441196A2
(1762375447.063042) can0 212#B904A32F01380001
(1762375447.063283) can0 252#0000CD0100000100
(1762375447.063530) can0 25D#3441012A08000000
(1762375447.063763) can0 2D2#302A343A0A008C00
(1762375447.063908) can0 229#440100
(1762375447.064038) can0 2D1#FF01
(1762375447.064227) can0 333#0030840702
(1762375447.064480) can0 125#0000720600000000
(1762375447.064721) can0 126#00C034F310000000
(1762375447.065001) can0 132#107200003840080E
(1762375447.065239) can0 055#020100000000055D
(1762375447.065470) can0 053#D43084C78F384615
(1762375447.066459) can0 266#00002C2C00000000
(1762375447.066697) can0 7D7#02F0320000000000
(1762375447.066934) can0 118#6886300000180180
(1762375447.067746) can0 1D5#2100000000006057
(1762375447.067992) can0 2E5#000000000000DD00
(1762375447.071881) can0 1D8#00000000000000D9
(1762375447.074232) can0 132#107200003840080E
(1762375447.074483) can0 055#030000000000055D
(1762375447.076507) can0 266#00002C2C00000000
(1762375447.076753) can0 7D7#02F0320000000000
(1762375447.076988) can0 118#5987300000080180
(1762375447.077231) can0 297#72441F0002A00F05
(1762375447.077787) can0 1D5#2100000000008077
(1762375447.078036) can0 2E5#000000000000DD00
(1762375447.081907) can0 1D8#00000000000020F9
(1762375447.084210) can0 132#107200003840080E
(1762375447.084454) can0 055#000100000000065C
(1762375447.084685) can0 053#D43084C78F384615
(1762375447.087114) can0 266#00002C2C00000000
(1762375447.087374) can0 7D7#02F0320000000000
(1762375447.087600) can0 118#DA88300000080100
(1762375447.087845) can0 1D5#210000000000A097
(1762375447.088095) can0 2E5#000000000000DD00
(1762375447.090710) can0 554#0021041723C001
(1762375447.090958) can0 344#0000000000000047
(1762375447.091199) can0 6D4#0A010533FC000900
(1762375447.091450) can0 3A0#0000008000000000
(1762375447.091699) can0 384#0000000000000000
(1762375447.091949) can0 1D8#0000000000004019
(1762375447.092200) can0 380#0000000000000000
(1762375447.094235) can0 132#107200003840080E
(1762375447.094493) can0 055#010000000000065C
(1762375447.096660) can0 266#00002C2C00000000
(1762375447.096899) can0 118#DB89300000080100
(1762375447.097147) can0 7D7#02F0320000000000
(1762375447.097387) can0 297#6F451F0002A00F01
(1762375447.097842) can0 1D5#210000000000C0B7
(1762375447.098095) can0 2E5#000000000000DD00
(1762375447.098654) can0 39D#37650A2800
(1762375447.101898) can0 1D8#0000000000006039
(1762375447.104245) can0 132#107200003840080E
(1762375447.104492) can0 055#020100000000065E
(1762375447.104730) can0 053#D43084C78F384615
(1762375447.107111) can0 266#00002C2C00000000
(1762375447.107359) can0 7D7#02F0320000000000
(1762375447.107608) can0 118#DC8A300000080100
(1762375447.107887) can0 1D5#210000000000E0D7
(1762375447.108147) can0 2E5#000000000000DD00
(1762375447.108693) can0 221#6055551554514128
(1762375447.108935) can0 3A1#884E0BC8000040F4
(1762375447.109167) can0 3C2#1055555500005D19
(1762375447.109394) can0 441#46652220DB0E10A0
(1762375447.109632) can0 55A#0100000030000000
(1762375447.111871) can0 1D8#0000000000008059
(1762375447.114230) can0 132#107200003840080E
(1762375447.114479) can0 055#030000000000065E
(1762375447.115623) can0 379#9C00000000000000
(1762375447.115871) can0 076#040F050F061100BC
(1762375447.116682) can0 266#00002C2C00000000
(1762375447.116949) can0 118#DD8B300000080100
(1762375447.117200) can0 7D7#02F0320000000000
(1762375447.117426) can0 297#70461F0002A00F01
(1762375447.117650) can0 166#2401000000B603
(1762375447.117890) can0 1D5#21000000000000F7
(1762375447.118133) can0 1D6#00080808282D6710
(1762375447.118300) can0 279#08810C0000
(1762375447.118557) can0 2E5#000000000000DD00
(1762375447.118796) can0 395#F1111841FF02047D
(1762375447.119038) can0 108#8F01000400008001
(1762375447.119170) can0 2B6#021B
(1762375447.119411) can0 397#000000003B000000
(1762375447.119585) can0 128#8B00EC0A
(1762375447.119768) can0 268#2C2CFF01FF
(1762375447.121905) can0 1D8#000000000000A079
(1762375447.124291) can0 132#107200003840080E
(1762375447.124546) can0 055#000100000000075D
(1762375447.124761) can0 053#D43084C78F384615
(1762375447.127163) can0 266#00002C2C00000000
(1762375447.127412) can0 7D7#02F0320000000000
(1762375447.127655) can0 276#002F005601E40BC0
(1762375447.127896) can0 1D5#2100000000002017
(1762375447.128136) can0 118#7E2C300000080100
(1762375447.128388) can0 2E5#000000000000DD00
(1762375447.128633) can0 7D5#20FF000000000000
(1762375447.128885) can0 7D5#210000000000E015
(1762375447.129130) can0 7D5#2261000000000000
(1762375447.129374) can0 7D5#23FA000000001027
(1762375447.129623) can0 7D5#24FA000000000000
(1762375447.129864) can0 7D5#25AB000000001B25
(1762375447.130109) can0 7D5#2600252100000000
(1762375447.130361) can0 7D5#27000000FAFA0000
(1762375447.130611) can0 7D5#280000000000FA00
(1762375447.130856) can0 7D5#2900000079100000
(1762375447.131102) can0 7D5#2A0000FA43000000
(1762375447.131348) can0 7D5#2B00000000000000
(1762375447.131589) can0 7D5#2ECDFF1B04000000
(1762375447.131831) can0 7D5#2F00000000004600
(1762375447.132079) can0 1D8#000000000000C099
(1762375447.132319) can0 7D5#306E6E3566000000
(1762375447.132570) can0 7D5#3100000000000000
(1762375447.132822) can0 7D5#3260000000000000
(1762375447.133069) can0 7D5#3400000000000000
(1762375447.133328) can0 7D5#3F00000000000000
(1762375447.133565) can0 7D7#200100FAFAFAFA01
(1762375447.133811) can0 7D7#21FF0F00FAFA0000
(1762375447.134051) can0 7D7#2290650000000000
(1762375447.134291) can0 132#107200003840080E
(1762375447.134542) can0 055#010000000000075D
(1762375447.134790) can0 7D7#2300000000000000
(1762375447.135058) can0 7D7#2400000000000000
(1762375447.135306) can0 7D7#2500000000000000
(1762375447.135507) can0 356#6D0B0000B400
(1762375447.135748) can0 355#5300640043030618
(1762375447.135979) can0 351#AC0B0A00D2007008
(1762375447.136230) can0 7D7#2600000000000000
(1762375447.136483) can0 7D7#2700400000000000
(1762375447.136730) can0 7D7#2D000000000D0000
(1762375447.136984) can0 266#00002C2C00000000
(1762375447.137222) can0 7D7#322C000000000000
(1762375447.137463) can0 276#002F005601E40BC0
(1762375447.137712) can0 7D7#3590650000000000
(1762375447.137946) can0 118#7F2D300000080100
(1762375447.138190) can0 7D7#02F0320000000000
(1762375447.138423) can0 297#71471F0002A00F01
(1762375447.140404) can0 1D5#2100000000004037
(1762375447.140645) can0 2E5#000000000000DD00
(1762375447.140830) can0 39D#38660A2800
(1762375447.141898) can0 1D8#000000000000E0B9
(1762375447.144265) can0 132#107200003840080E
(1762375447.144511) can0 055#020100000000075F
(1762375447.144746) can0 053#D43084C78F384615
(1762375447.145518) can0 056#0400000000000C66
(1762375447.147160) can0 266#00002C2C00000000
(1762375447.147414) can0 7D7#02F0320000000000
(1762375447.147645) can0 276#002F005601E40BC0
(1762375447.147891) can0 118#802E300000080100
(1762375447.149782) can0 1D5#2100000000006057
(1762375447.150029) can0 2E5#000000000000DD00
(1762375447.151878) can0 1D8#00000000000000D9
(1762375447.154243) can0 132#107200003840080E
(1762375447.154488) can0 055#030000000000075F
(1762375447.156677) can0 266#00002C2C00000000
(1762375447.156922) can0 276#002F005601E40BC0
(1762375447.157177) can0 7D7#02F0320000000000
(1762375447.157411) can0 118#812F300000080100
(1762375447.157661) can0 297#72481F0002A00F01
(1762375447.158726) can0 221#6105550500005033
(1762375447.158968) can0 3A1#0300986EBE005022
(1762375447.159191) can0 3C2#0155151500005509
(1762375447.159440) can0 441#00000000000015CF
(1762375447.159683) can0 052#6418138B64312000
(1762375447.159911) can0 339#4144FE0000038000
(1762375447.160160) can0 102#22B348040000A009
(1762375447.160390) can0 103#22B3884400002032
(1762375447.160637) can0 207#0000000000282800
(1762375447.160882) can0 224#0408004019011008
(1762375447.161090) can0 241#3C3C160F8F5500
(1762375447.161337) can0 247#100EFF0000000000
(1762375447.161586) can0 2A8#040000000080204E
(1762375447.161831) can0 2E8#040000000080208E
(1762375447.162074) can0 1D8#00000000000020F9
(1762375447.162317) can0 2E1#02000000FF000200
(1762375447.162446) can0 500#0101
(1762375447.162694) can0 6B4#0163000100150000
(1762375447.162941) can0 6B3#00120000000F0000
(1762375447.163183) can0 6B2#0046007B9E6100C0
(1762375447.163420) can0 6B1#001500009EC2002E
(1762375447.163670) can0 6B0#00A700487243005C
(1762375447.163889) can0 7FF#03300868E1410082
(1762375447.164127) can0 212#B904A32F01380001
(1762375447.164367) can0 252#0000CD0100000100
(1762375447.164605) can0 25D#3441012A08000000
(1762375447.164840) can0 2D2#302A343A0A008C00
(1762375447.164982) can0 229#520200
(1762375447.165117) can0 2D1#FF01
(1762375447.165300) can0 333#0030840702
(1762375447.165552) can0 125#0000680B00000000
(1762375447.165793) can0 126#00C234F310000000
(1762375447.166006) can0 3D9#713853692E0868AF
(1762375447.166248) can0 132#107200003840080E
(1762375447.166496) can0 055#000100000000085E
(1762375447.166734) can0 1D5#2100000000008077
(1762375447.166983) can0 2E5#000000000000DD00
(1762375447.167211) can0 053#D43084C78F384615
(1762375447.167457) can0 266#00002C2C00000000
(1762375447.167697) can0 7D7#02F0320000000000
(1762375447.167944) can0 276#002F005601E40BC0
(1762375447.168171) can0 118#9240300000080100
(1762375447.171890) can0 1D8#0000000000004019
(1762375447.175230) can0 35B#6A090500
(1762375447.175397) can0 35A#00000000
(1762375447.176276) can0 132#107200003840080E
(1762375447.176533) can0 055#010000000000085E
(1762375447.176770) can0 1D5#210000000000A097
(1762375447.177023) can0 2E5#000000000000DD00
(1762375447.177262) can0 266#00002C2C00000000
(1762375447.177509) can0 7D7#02F0320000000000
(1762375447.177747) can0 118#9341300000080100
(1762375447.177981) can0 297#73491F0002A00F01
(1762375447.179694) can0 39D#39670A2800
(1762375447.181901) can0 1D8#0000000000006039
(1762375447.186263) can0 132#107200003840080E
(1762375447.186507) can0 055#0201000000000860
(1762375447.186759) can0 1D5#210000000000C0B7
(1762375447.187005) can0 2E5#000000000000DD00
(1762375447.187232) can0 053#D43084C78F384615
(1762375447.187477) can0 266#00002C2C00000000
(1762375447.187733) can0 7D7#02F0320000000000
(1762375447.187956) can0 118#B462300000080100
(1762375447.191878) can0 1D8#0000000000008059
(1762375447.196271) can0 132#107200003840080E
(1762375447.196516) can0 055#0300000000000860
(1762375447.196753) can0 1D5#210000000000E0D7
(1762375447.197004) can0 2E5#000000000000DD00
(1762375447.197252) can0 266#00002C2C00000000
(1762375447.197510) can0 7D7#02F0320000000000
(1762375447.197738) can0 118#B563300000080100
(1762375447.197979) can0 297#744A1F0002A00F01
(1762375447.201893) can0 1D8#000000000000A079
(1762375447.206311) can0 132#107200003840080E
(1762375447.206556) can0 055#000100000000095F
(1762375447.206798) can0 1D5#21000000000000F7
(1762375447.207058) can0 2E5#000000000000DD00
(1762375447.207273) can0 053#D43084C78F384615
(1762375447.207519) can0 266#00002C2C00000000
(1762375447.207774) can0 7D7#02F0320000000000
(1762375447.208008) can0 118#B664300000080100
(1762375447.208854) can0 221#6055551554516148
(1762375447.209090) can0 3A1#884E0BC800006014
(1762375447.209320) can0 3C2#1055555500005D19
(1762375447.209547) can0 441#46652220DB0E18A8
(1762375447.211875) can0 1D8#000000000000C099
(1762375447.215610) can0 380#4C35414136343033
(1762375447.215851) can0 076#0712000F010F00B6
(1762375447.216297) can0 132#107200003840080E
(1762375447.216544) can0 055#010000000000095F
(1762375447.216790) can0 1D5#2100000000002017
(1762375447.217038) can0 266#00002C2C00000000
(1762375447.217281) can0 2E5#000000000000DD00
(1762375447.217522) can0 118#B765300000080100
(1762375447.217752) can0 166#2509000000B603
(1762375447.217979) can0 297#754B1F0002A00F01
(1762375447.218220) can0 1D6#00080800282D5C10
(1762375447.218465) can0 7D7#02F0320000000000
(1762375447.218652) can0 279#09820C0000
(1762375447.218890) can0 395#F1111841FF02047D
(1762375447.219146) can0 108#9002000400008001
(1762375447.219249) can0 2B6#021B
(1762375447.219519) can0 397#000000003B000000
(1762375447.219681) can0 128#83003802
(1762375447.219863) can0 39D#3A680A2800
(1762375447.220049) can0 268#2C2CFF01FF
(1762375447.221909) can0 1D8#000000000000E0B9
(1762375447.226320) can0 132#107200003840080E
(1762375447.226580) can0 055#0201000000000961
(1762375447.226810) can0 1D5#2100000000004037
(1762375447.227052) can0 2E5#000000000000DD00
(1762375447.227288) can0 053#D43084C78F384615
(1762375447.227541) can0 266#00002C2C00000000
(1762375447.227779) can0 7D7#02F0320000000000
(1762375447.228011) can0 118#B866300000080100
(1762375447.228264) can0 7D5#20FD000000000000
(1762375447.228503) can0 7D5#21FF00000000E015
(1762375447.228753) can0 7D5#2261000000000000
(1762375447.228997) can0 036#099EB610129EC11C
(1762375447.229225) can0 7D5#23FA000000001027
(1762375447.229470) can0 7D5#24FA000000000000
(1762375447.229721) can0 7D5#25AB00000000AA4A
(1762375447.229960) can0 7D5#2600252100000000
(1762375447.230205) can0 7D5#27250000FAFA0000
(1762375447.230454) can0 7D5#280000000000FA00
(1762375447.230702) can0 7D5#2900000056100000
(1762375447.230941) can0 7D5#2A0000FA43000000
(1762375447.231191) can0 7D5#2B00000000000000
(1762375447.231433) can0 7D5#2ECDFF1B04000000
(1762375447.231677) can0 7D5#2F00000000004600
(1762375447.231925) can0 1D8#00000000000000D9
(1762375447.232160) can0 7D5#306E6E3566000000
(1762375447.232411) can0 7D5#3100000000000000
(1762375447.232657) can0 7D5#3260000000000000
(1762375447.232914) can0 7D5#3400000000000000
(1762375447.233166) can0 7D5#3F00000000000000
(1762375447.233406) can0 7D7#200100FAFAFAFA01
(1762375447.233659) can0 7D7#21FF0F00FAFA0000
(1762375447.233901) can0 7D7#2290650000000000
(1762375447.234150) can0 7D7#2300000000000000
(1762375447.234401) can0 7D7#2400000000000000
(1762375447.234665) can0 7D7#2500000000000000
(1762375447.234913) can0 7D7#2600000000000000
(1762375447.235162) can0 7D7#2700400000000000
(1762375447.235406) can0 7D7#2D00000000040000
(1762375447.235658) can0 7D7#322C000000000000
(1762375447.235904) can0 7D7#3590650000000000
(1762375447.236315) can0 132#107200003840080E
(1762375447.236550) can0 055#0300000000000961
(1762375447.236795) can0 1D5#2100000000006057
(1762375447.237047) can0 266#00002C2C00000000
(1762375447.237295) can0 2E5#000000000000DD00
(1762375447.237529) can0 118#B967300000080100
(1762375447.237777) can0 7D7#02F0320000000000
(1762375447.238011) can0 297#764C1F0002A00F01
(1762375447.239404) can0 351#AC0B0A00D2007008
(1762375447.239583) can0 356#6D0B0000B400
(1762375447.239832) can0 355#5300640043030618
(1762375447.241919) can0 1D8#00000000000020F9
(1762375447.244669) can0 056#0400000000000D67
(1762375447.246324) can0 132#107200003840080E
(1762375447.246566) can0 055#0001000000000A60
(1762375447.246811) can0 1D5#2100000000008077
(1762375447.247061) can0 2E5#000000000000DD00
(1762375447.247290) can0 053#D43084C78F384615
(1762375447.247531) can0 266#00002C2C00000000
(1762375447.247776) can0 7D7#02F0320000000000
(1762375447.248027) can0 118#BA68300000080100
(1762375447.251868) can0 1D8#0000000000004019
(1762375447.256364) can0 132#107200003840080E
(1762375447.256611) can0 055#0100000000000A60
(1762375447.256865) can0 1D5#210000000000A097
(1762375447.257099) can0 266#00002C2C00000000
(1762375447.257348) can0 2E5#000000000000DD00
(1762375447.257594) can0 118#BB69300000080100
(1762375447.257835) can0 7D7#02F0320000000000
(1762375447.258067) can0 297#774D1F0002A00F01
(1762375447.258800) can0 221#6105550500007053
(1762375447.259043) can0 3A1#0300986EBE007042
(1762375447.259266) can0 3C2#0155151500005509
(1762375447.259521) can0 441#0000000000001DD7
(1762375447.259742) can0 052#6418138B64312000
(1762375447.259988) can0 339#4144FE0000038000
(1762375447.260226) can0 102#22B348040000A009
(1762375447.260460) can0 103#22B3884400002032
(1762375447.260708) can0 207#0000000000282800
(1762375447.260956) can0 224#0408004019011008
(1762375447.261166) can0 241#3C3C160F8F5500
(1762375447.261410) can0 247#100EFF0000000000
(1762375447.261653) can0 2A8#040000000080305E
(1762375447.261901) can0 2E8#040000000080309E
(1762375447.262147) can0 1D8#0000000000006039
(1762375447.262376) can0 2E1#036D9902194F0000
(1762375447.262512) can0 500#0101
(1762375447.262756) can0 7FF#0477000000000000
(1762375447.262988) can0 212#B904A32F01380001
(1762375447.263233) can0 252#0000CD0100000100
(1762375447.263475) can0 25D#3441012A08000000
(1762375447.263705) can0 2D2#302A343A0A008C00
(1762375447.263853) can0 229#6D0300
(1762375447.263985) can0 2D1#FF01
(1762375447.264173) can0 333#0030840702
(1762375447.264413) can0 125#0A00720B00000000
(1762375447.264651) can0 126#00C234F310000000
(1762375447.264876) can0 3D9#713853692E0868AF
(1762375447.265259) can0 39D#3B690A2800
(1762375447.266317) can0 132#107200003840080E
(1762375447.266558) can0 055#0201000000000A62
(1762375447.266816) can0 1D5#210000000000C0B7
(1762375447.267055) can0 2E5#000000000000DD00
(1762375447.267279) can0 053#D43084C78F384615
(1762375447.267529) can0 266#00002C2C00000000
(1762375447.267779) can0 7D7#02F0320000000000
(1762375447.268015) can0 118#BC6A300000080100
(1762375447.271878) can0 1D8#0000000000008059
(1762375447.276343) can0 132#107200003840080E
(1762375447.276586) can0 055#0300000000000A62
(1762375447.276827) can0 1D5#210000000000E0D7
(1762375447.277075) can0 266#00002C2C00000000
(1762375447.277327) can0 2E5#000000000000DD00
(1762375447.277558) can0 118#BD6B300000080100
(1762375447.277802) can0 7D7#02F0320000000000
(1762375447.278041) can0 297#784E1F0002A00F01
(1762375447.281884) can0 1D8#000000000000A079
(1762375447.286345) can0 132#107200003840080E
(1762375447.286586) can0 055#0001000000000B61
(1762375447.286832) can0 1D5#21000000000000F7
(1762375447.287081) can0 2E5#000000000000DD00
(1762375447.287311) can0 053#D43084C78F384615
(1762375447.287554) can0 266#00002C2C00000000
(1762375447.287804) can0 7D7#02F0320000000000
(1762375447.288043) can0 118#BE6C300000080100
(1762375447.291863) can0 1D8#000000000000C099
(1762375447.296351) can0 132#107200003840080E
(1762375447.296614) can0 055#0100000000000B61
(1762375447.296838) can0 1D5#2100000000002017
(1762375447.297090) can0 266#00002C2C00000000
(1762375447.297330) can0 2E5#000000000000DD00
(1762375447.297579) can0 118#BF6D300000080100
(1762375447.297821) can0 7D7#02F0320000000000
(1762375447.298053) can0 297#794F1F0002A00F01
(1762375447.301883) can0 1D8#000000000000E0B9
(1762375447.304762) can0 39D#3C6A0A2800
(1762375447.306356) can0 132#107200003840080E
(1762375447.306607) can0 055#0201000000000B63
(1762375447.306844) can0 1D5#2100000000004037
(1762375447.307095) can0 2E5#000000000000DD00
(1762375447.307317) can0 053#D43084C78F384615
(1762375447.307564) can0 266#00002C2C00000000
(1762375447.307812) can0 7D7#02F0320000000000
(1762375447.308061) can0 118#C06E300000080100
(1762375447.308889) can0 221#6055551554518168
(1762375447.309125) can0 3A1#884E0BC800008034
(1762375447.309361) can0 3C2#1055555500005D19
(1762375447.309590) can0 441#46652220DB0E20B0
(1762375447.311861) can0 1D8#00000000000000D9
(1762375447.315629) can0 381#FFFFFF0000000000
(1762375447.315871) can0 076#020F030F040F00B4
(1762375447.316335) can0 132#107200003840080E
(1762375447.316582) can0 055#0300000000000B63
(1762375447.316829) can0 1D5#2100000000006057
(1762375447.317071) can0 266#00002C2C00000000
(1762375447.317320) can0 2E5#000000000000DD00
(1762375447.317561) can0 118#C16F300000080100
(1762375447.317778) can0 166#2509000000B603
(1762375447.318021) can0 297#6A401F0002A00F01
(1762375447.318253) can0 1D6#00080800282D5910
(1762375447.318505) can0 7D7#02F0320000000000
(1762375447.318687) can0 279#0A830C0000
(1762375447.318923) can0 395#F1111841FF02047D
(1762375447.319170) can0 108#9103000400008001
(1762375447.319299) can0 2B6#021B
(1762375447.319543) can0 397#000000003B000000
(1762375447.319707) can0 128#83003802
(1762375447.319908) can0 268#2C2CFF01FF
(1762375447.321881) can0 1D8#00000000000020F9
(1762375447.326370) can0 132#107200003840080E
(1762375447.326630) can0 055#0001000000000C62
(1762375447.326859) can0 1D5#2100000000008077
(1762375447.327100) can0 2E5#000000000000DD00
(1762375447.327334) can0 053#D43084C78F384615
(1762375447.327575) can0 266#00002C2C00000000
(1762375447.327824) can0 7D7#02F0320000000000
(1762375447.328067) can0 118#B260300000080100
(1762375447.328316) can0 7D5#20FB000000000000
(1762375447.328560) can0 7D5#21FF00000000E015
(1762375447.328814) can0 7D5#2261000000000000
(1762375447.329063) can0 7D5#23FA000000001027
(1762375447.329298) can0 7D5#24FA000000000000
(1762375447.329551) can0 7D5#25AB000000008918
(1762375447.329786) can0 7D5#2600252100000000
(1762375447.330035) can0 7D5#275E0000FAFA0000
(1762375447.330279) can0 7D5#280000000000FA00
(1762375447.330535) can0 7D5#2900000075100000
(1762375447.330779) can0 7D5#2A0000FA43000000
(1762375447.331026) can0 7D5#2B00000000000000
(1762375447.331275) can0 7D5#2ECDFF1B04000000
(1762375447.331517) can0 7D5#2F00000000004600
(1762375447.331762) can0 7D5#306E6E3566000000
(1762375447.332001) can0 1D8#0000000000004019
(1762375447.332258) can0 7D5#3100000000000000
(1762375447.332497) can0 7D5#3260000000000000
(1762375447.332755) can0 7D5#3400000000000000
(1762375447.333002) can0 7D5#3F00000000000000
(1762375447.333246) can0 7D7#200100FAFAFAFA01
(1762375447.333491) can0 7D7#21FF0F00FAFA0000
(1762375447.333740) can0 7D7#2290650000000000
(1762375447.333985) can0 7D7#2300000000000000
(1762375447.334239) can0 7D7#2400000000000000
(1762375447.334503) can0 7D7#2500000000000000
(1762375447.334746) can0 7D7#2600000000000000
(1762375447.334989) can0 7D7#2700400000000000
(1762375447.335241) can0 7D7#2D00000000040000
(1762375447.335487) can0 7D7#322C000000000000
(1762375447.335730) can0 7D7#3590650000000000
(1762375447.336372) can0 132#107200003840080E
(1762375447.336615) can0 055#0100000000000C62
(1762375447.336851) can0 1D5#210000000000A097
(1762375447.337095) can0 266#00002C2C00000000
(1762375447.337356) can0 2E5#000000000000DD00
(1762375447.337588) can0 118#B361300000080100
(1762375447.337831) can0 7D7#02F0320000000000
(1762375447.338073) can0 297#6B411F0002A00F01
(1762375447.341875) can0 1D8#0000000000006039
(1762375447.343303) can0 351#AC0B0A00D2007008
(1762375447.343507) can0 356#6D0B0000B400
(1762375447.343745) can0 355#5300640043030618
(1762375447.343995) can0 056#0400000000000E68
(1762375447.345038) can0 39D#3D6B0A2800
(1762375447.346357) can0 132#107200003840080E
(1762375447.346605) can0 055#0201000000000C64
(1762375447.346848) can0 1D5#210000000000C0B7
(1762375447.347097) can0 2E5#000000000000DD00
(1762375447.347324) can0 053#D43084C78F384615
(1762375447.347567) can0 266#00002C2C00000000
(1762375447.347812) can0 7D7#02F0320000000000
(1762375447.348054) can0 118#B462300000080100
(1762375447.351855) can0 1D8#0000000000008059
(1762375447.356360) can0 132#107200003840080E
(1762375447.356610) can0 055#0300000000000C64
(1762375447.356847) can0 1D5#210000000000E0D7
(1762375447.357091) can0 266#00002C2C00000000
(1762375447.357339) can0 2E5#000000000000DD00
(1762375447.357589) can0 118#B563300000080100
(1762375447.357825) can0 7D7#02F0320000000000
(1762375447.358058) can0 297#6C421F0002A00F01
(1762375447.358886) can0 221#6105550500009073
(1762375447.359126) can0 3A1#0300986EBE009062
(1762375447.359360) can0 3C2#0155151500005509
(1762375447.359616) can0 441#00000000000025DF
(1762375447.359840) can0 052#6418138B64312000
(1762375447.360091) can0 339#4144FE0000038000
(1762375447.360320) can0 102#22B348040000A009
(1762375447.360553) can0 103#22B3884400002032
(1762375447.360799) can0 207#0000000000282800
(1762375447.361043) can0 224#0408004019011008
(1762375447.361259) can0 241#3C3C160F8F5500
(1762375447.361503) can0 247#100EFF0000000000
(1762375447.361750) can0 2A8#040000000080406E
(1762375447.361993) can0 1D8#000000000000A079
(1762375447.362245) can0 2E8#04000000008040AE
(1762375447.362476) can0 2E1#FC1FAFD998B51900
(1762375447.362612) can0 500#0101
(1762375447.362853) can0 7FF#050000002000C002
(1762375447.363090) can0 212#B904A32F01380001
(1762375447.363334) can0 252#0000CD0100000100
(1762375447.363577) can0 25D#3441012A08000000
(1762375447.363808) can0 2D2#302A343A0A008C00
(1762375447.363943) can0 229#430400
(1762375447.364092) can0 2D1#FF01
(1762375447.364274) can0 333#0030840702
(1762375447.364515) can0 125#0A00720B00000000
(1762375447.364752) can0 126#00C234F310000000
(1762375447.364975) can0 3D9#713853692E0868AF
(1762375447.365232) can0 55A#0100000030000000
(1762375447.365328) can0 213#0015
(1762375447.365609) can0 284#10000000C0000000
(1762375447.365839) can0 293#9608000021100367
(1762375447.366082) can0 313#0200C807000000E7
(1762375447.366320) can0 334#3F7F1402F023001E
(1762375447.366547) can0 3B3#9080052280009825
(1762375447.367150) can0 266#00002C2C00000000
(1762375447.367393) can0 7D7#02F0320000000000
(1762375447.367625) can0 118#BB643000000D0100
(1762375447.367869) can0 132#107200003840080E
(1762375447.368133) can0 055#0001000000000D63
(1762375447.368423) can0 1D5#21000000000000F7
(1762375447.368671) can0 2E5#000000000000DD00
(1762375447.369785) can0 053#D43084C78F384615
(1762375447.371870) can0 1D8#000000000000C099
(1762375447.376517) can0 266#00002C2C00000000
(1762375447.376772) can0 7D7#02F0320000000000
(1762375447.377007) can0 118#3C653000000D0180
(1762375447.377236) can0 297#71431F0002A00F05
(1762375447.377562) can0 132#107200003840080E
(1762375447.377811) can0 055#0100000000000D63
(1762375447.378901) can0 1D5#2100000000002017
(1762375447.379150) can0 2E5#000000000000DD00
(1762375447.381876) can0 1D8#000000000000E0B9
(1762375447.384834) can0 39D#3E6C0A2800
(1762375447.386929) can0 266#00002C2C00000000
(1762375447.387182) can0 7D7#02F0320000000000
(1762375447.387421) can0 118#3C663000000D0080
(1762375447.387661) can0 132#107200003840080E
(1762375447.387904) can0 055#0201000000000D65
(1762375447.388581) can0 1D5#2100000000004037
(1762375447.388829) can0 2E5#000000000000DD00
(1762375447.389669) can0 053#D43084C78F384615
(1762375447.391854) can0 1D8#00000000000000D9
(1762375447.396530) can0 266#00002C2C00000000
(1762375447.396776) can0 7D7#02F0320000000000
(1762375447.397021) can0 118#3D673000000D0080
(1762375447.397262) can0 297#72441F0002A00F05
(1762375447.397774) can0 132#107200003840080E
(1762375447.398425) can0 055#0300000000000D65
(1762375447.399628) can0 1D5#2100000000006057
(1762375447.399878) can0 2E5#000000000000DD00
(1762375447.401877) can0 1D8#00000000000020F9
(1762375447.406940) can0 266#00002C2C00000000
(1762375447.407188) can0 7D7#02F0320000000000
(1762375447.407425) can0 118#3E683000000D0080
(1762375447.407669) can0 132#107200003840080E
(1762375447.407915) can0 055#0001000000000E64
(1762375447.409260) can0 1D5#2100000000008077
(1762375447.409507) can0 2E5#000000000000DD00
(1762375447.409733) can0 053#D43084C78F384615
(1762375447.410855) can0 221#605555155451A188
(1762375447.411096) can0 3A1#884E0BC80000A054
(1762375447.411320) can0 3C2#1055555500005D19
(1762375447.411550) can0 441#46652220DB0E28B8
(1762375447.411860) can0 1D8#0000000000004019
(1762375447.415612) can0 374#5030315F30373000
(1762375447.415850) can0 076#050F0611071200C2
(1762375447.416535) can0 266#00002C2C00000000
(1762375447.416781) can0 7D7#02F0320000000000
(1762375447.417018) can0 118#3F693000000D0080
(1762375447.417259) can0 297#73451F0002A00F05
(1762375447.417475) can0 166#2509000000B603
(1762375447.417726) can0 1D6#00080800282D5810
(1762375447.417954) can0 132#107200003840080E
(1762375447.418147) can0 279#0B840C0000
(1762375447.418391) can0 055#0100000000000E64
(1762375447.418630) can0 395#F1111841FF02047D
(1762375447.418869) can0 1D5#210000000000A097
(1762375447.419111) can0 108#1504000200010005
(1762375447.419248) can0 2B6#DA19
(1762375447.419493) can0 2E5#000000000000DD00
(1762375447.419736) can0 397#000000003B000000
(1762375447.419898) can0 128#83003802
(1762375447.420095) can0 268#2C2CFF01FF
(1762375447.421902) can0 1D8#0800000000006041
(1762375447.424824) can0 39D#3F6D0A2800
(1762375447.427073) can0 266#00002C2C00000000
(1762375447.427315) can0 7D7#02F0320000000000
(1762375447.427557) can0 118#406A3000000D0080
(1762375447.427794) can0 132#107200003840080E
(1762375447.428043) can0 055#0201000000000E66
(1762375447.428284) can0 527#A980000000000000
(1762375447.428533) can0 1D5#210000000000C0B7
(1762375447.428781) can0 2E5#000000000000DD00
(1762375447.429026) can0 527#B580000000000000
(1762375447.429274) can0 7D5#20FB000000000000
(1762375447.429517) can0 36B#0000000000011080
(1762375447.429762) can0 7D5#21FF00000000E015
(1762375447.429989) can0 053#D43084C78F384615
(1762375447.430239) can0 7D5#2261000000000000
(1762375447.430483) can0 7D5#23FA000000001027
(1762375447.430740) can0 7D5#24FA000000000000
(1762375447.430981) can0 7D5#25AB000000004F4C
(1762375447.431221) can0 7D5#2660522100000000
(1762375447.431468) can0 7D5#27730000FAFA0000
(1762375447.431717) can0 7D5#280000000000FA00
(1762375447.431964) can0 1D8#0800000000008061
(1762375447.432206) can0 7D5#2900000086100000
(1762375447.432448) can0 7D5#2A0001FA43000000
(1762375447.432706) can0 7D5#2B00000000000000
(1762375447.432944) can0 7D5#2ECDFF1B04000000
(1762375447.433189) can0 7D5#2F00000000004600
(1762375447.433428) can0 7D5#306E6E3566010000
(1762375447.433673) can0 7D5#3100000000000000
(1762375447.433931) can0 7D5#3206000000000000
(1762375447.434183) can0 7D5#3400000000000000
(1762375447.434436) can0 7D5#3F00000000000000
(1762375447.434689) can0 7D7#200100FAFAFAFA01
(1762375447.434926) can0 7D7#21FF0F00FAFA0000
(1762375447.435169) can0 7D7#2290650000000000
(1762375447.435425) can0 7D7#2300000000000000
(1762375447.435676) can0 7D7#2400000000000000
(1762375447.435926) can0 7D7#2500000000000000
(1762375447.436176) can0 7D7#2600000000000000
(1762375447.436425) can0 7D7#2700400000000000
(1762375447.436678) can0 7D7#2D00000000010000
(1762375447.436924) can0 7D7#322C000000000000
(1762375447.437169) can0 266#00002C2C00000000
(1762375447.437415) can0 7D7#3590650000000000
(1762375447.437650) can0 118#416B3000000D0080
(1762375447.437901) can0 7D7#02F0320000000000
(1762375447.438136) can0 297#74461F0002A00F05
(1762375447.438930) can0 132#107200003840080E
(1762375447.439171) can0 055#0300000000000E66
(1762375447.440599) can0 1D5#210000000000E0D7
(1762375447.440844) can0 2E5#000000000000DD00
(1762375447.441879) can0 1D8#080000000000A081
(1762375447.442836) can0 056#0400000000000F69
(1762375447.447064) can0 266#00002C2C00000000
(1762375447.447317) can0 7D7#02F0320000000000
(1762375447.447557) can0 118#426C3000000D0080
(1762375447.447755) can0 356#6D0B0000B400
(1762375447.447988) can0 355#5300640043030618
(1762375447.448218) can0 351#AC0B0A00D2007008
(1762375447.448551) can0 132#107200003840080E
(1762375447.449215) can0 055#0001000000000F65
(1762375447.449453) can0 1D5#21000000000000F7
(1762375447.449703) can0 2E5#000000000000DD00
(1762375447.449927) can0 053#D43084C78F384615
(1762375447.451860) can0 1D8#100000000000C0A9
(1762375447.456929) can0 266#00002C2C00000000
(1762375447.457174) can0 7D7#02F0320000000000
(1762375447.457413) can0 118#436D3000000D0080
(1762375447.457645) can0 297#75471F0002A00F05
(1762375447.458663) can0 132#107200003840080E
(1762375447.459127) can0 055#0100000000000F65
(1762375447.460574) can0 1D5#2100000000002017
(1762375447.460819) can0 2E5#000000000000DD00
(1762375447.461067) can0 221#610555050000B093
(1762375447.461289) can0 3A1#0300986EBE00B082
(1762375447.461522) can0 3C2#0155151500005509
(1762375447.461766) can0 441#0000000000002DE7
(1762375447.462004) can0 052#6418138B64312000
(1762375447.462246) can0 1D8#100000000000E0C9
(1762375447.462490) can0 339#4144FE0000038000
(1762375447.462730) can0 102#22B348040000A009
(1762375447.462967) can0 103#22B3884400002032
(1762375447.463213) can0 207#0000000000282800
(1762375447.463453) can0 224#0408004019011008
(1762375447.463672) can0 241#3C3C160F8F5500
(1762375447.463913) can0 247#100EFF0000000000
(1762375447.464168) can0 2A8#040000000080507E
(1762375447.464405) can0 2E8#04000000008050BE
(1762375447.464658) can0 2E1#0500000000000000
(1762375447.464791) can0 500#0101
(1762375447.465037) can0 7FF#0600000000000000
(1762375447.465273) can0 212#B904A32F01380001
(1762375447.465513) can0 252#0000CD0100000100
(1762375447.465762) can0 25D#3441012A08000000
(1762375447.465996) can0 2D2#302A343A0A008C00
(1762375447.466141) can0 229#410500
(1762375447.466275) can0 2D1#FF01
(1762375447.466452) can0 333#0030840702
(1762375447.466695) can0 125#0A00720B00000000
(1762375447.466940) can0 126#00C2000010000000
(1762375447.467191) can0 266#00002C2C00000000
(1762375447.467415) can0 3D9#713853692E0868AF
(1762375447.467654) can0 118#446E3000000D0080
(1762375447.467830) can0 39D#406E0A2800
(1762375447.468074) can0 7D7#02F0320000000000
(1762375447.469226) can0 132#107200003840080E
(1762375447.469680) can0 055#0201000000000F67
(1762375447.469927) can0 1D5#2100000000004037
(1762375447.470171) can0 2E5#000000000000DD00
(1762375447.470386) can0 053#D43084C78F384615
(1762375447.471870) can0 1D8#08000000000000E1
(1762375447.476611) can0 266#00002C2C00000000
(1762375447.476855) can0 118#456F3000000D0080
(1762375447.477096) can0 7D7#02F0320000000000
(1762375447.477345) can0 297#76481F0002A00F05
(1762375447.478543) can0 132#107200003840080E
(1762375447.479012) can0 055#0300000000000F67
(1762375447.480472) can0 1D5#2100000000006057
(1762375447.480720) can0 2E5#000000000000DD00
(1762375447.481871) can0 1D8#0800000000002001
(1762375447.487042) can0 266#00002C2C00000000
(1762375447.487293) can0 7D7#02F0320000000000
(1762375447.487537) can0 118#36603000000D0080
(1762375447.488549) can0 132#107200003840080E
(1762375447.489206) can0 055#0001000000000056
(1762375447.489448) can0 1D5#2100000000008077
(1762375447.489700) can0 2E5#000000000000DD00
(1762375447.489925) can0 053#D43084C78F384615
(1762375447.491856) can0 1D8#1800000000004031
(1762375447.496965) can0 266#00002C2C00000000
(1762375447.497220) can0 7D7#02F0320000000000
(1762375447.497453) can0 118#37613000000D0080
(1762375447.497691) can0 297#77491F0002A00F05
(1762375447.498658) can0 132#107200003840080E
(1762375447.499128) can0 055#0100000000000056
(1762375447.500564) can0 1D5#210000000000A097
(1762375447.500812) can0 2E5#000000000000DD00
(1762375447.501870) can0 1D8#1800000000006051
(1762375447.506877) can0 39D#416F0A2800
(1762375447.507217) can0 266#00002C2C00000000
(1762375447.507462) can0 7D7#02F0320000000000
(1762375447.507713) can0 118#38623000000D0080
(1762375447.508587) can0 132#107200003840080E
(1762375447.509492) can0 055#0201000000000058
(1762375447.509741) can0 1D5#210000000000C0B7
(1762375447.509991) can0 2E5#000000000000DD00
(1762375447.510220) can0 053#D43084C78F384615
(1762375447.511324) can0 221#605555155451C1A8
(1762375447.511558) can0 3A1#884E0BC80000C074
(1762375447.511789) can0 3C2#1055555500005D19
(1762375447.512037) can0 1D8#1800000000008071
(1762375447.512261) can0 441#46652220DB0E30C0
(1762375447.515614) can0 375#5030315F30323100
(1762375447.515869) can0 076#000F010F020F00AE
(1762375447.516972) can0 266#00002C2C00000000
(1762375447.517235) can0 7D7#02F0320000000000
(1762375447.517467) can0 118#39633000000D0080
(1762375447.517691) can0 166#2409000000B603
(1762375447.517918) can0 297#784A1F0002A00F05
(1762375447.518157) can0 1D6#00080800282D5610
(1762375447.518323) can0 279#0C850C0000
(1762375447.518570) can0 395#F0110740FF00007D
(1762375447.518817) can0 108#1505000200000005
(1762375447.519057) can0 132#107200003840080E
(1762375447.519311) can0 055#0300000000000058
(1762375447.519413) can0 2B6#DA01
(1762375447.519677) can0 1D5#210000000000E0D7
(1762375447.519932) can0 2E5#000000000000DD00
(1762375447.520176) can0 397#000000003B000000
(1762375447.520337) can0 128#83003802
(1762375447.520527) can0 268#2C2CFF01FF
(1762375447.521888) can0 1D8#180000000000A091
(1762375447.527179) can0 266#00002C2C00000000
(1762375447.527422) can0 7D7#02F0320000000000
(1762375447.527661) can0 118#3A643000000D0080
(1762375447.527913) can0 7D5#20FB000000000000
(1762375447.528156) can0 7D5#21FF00000000E015
(1762375447.528413) can0 7D5#2261000000000000
(1762375447.528658) can0 7D5#23FA000000001027
(1762375447.528901) can0 132#107200003840080E
(1762375447.529147) can0 7D5#24FA000000000000
(1762375447.529380) can0 7D5#25AC00000000F543
(1762375447.529626) can0 055#0001000000000157
(1762375447.529869) can0 1D5#21000000000000F7
(1762375447.530123) can0 2E5#000000000000DD00
(1762375447.530337) can0 053#D43084C78F384615
(1762375447.530593) can0 7D5#2660522100000000
(1762375447.530826) can0 7D5#27730000FAFA0000
(1762375447.531068) can0 7D5#280000000000FA00
(1762375447.531318) can0 7D5#290000005E100000
(1762375447.531565) can0 7D5#2A0001FA43000000
(1762375447.531815) can0 7D5#2B00000000000000
(1762375447.532062) can0 1D8#180000000000C0B1
(1762375447.532304) can0 7D5#2ECDFF1401000000
(1762375447.532543) can0 7D5#2F00000000004600
(1762375447.532779) can0 7D5#306E6E3566010000
(1762375447.533035) can0 7D5#3100000000000000
(1762375447.533279) can0 7D5#320E000000000000
(1762375447.533528) can0 7D5#3400000000000000
(1762375447.533783) can0 7D5#3F00000000000000
(1762375447.534033) can0 7D7#200100FAFAFAFA01
(1762375447.534280) can0 7D7#21FF0F00FAFA0000
(1762375447.534524) can0 7D7#2290650000000000
(1762375447.534783) can0 7D7#2300000000000000
(1762375447.535027) can0 7D7#2400000000000000
(1762375447.535276) can0 7D7#2500000000000000
(1762375447.535528) can0 7D7#2600000000000000
(1762375447.535788) can0 7D7#2700400000000000
(1762375447.536037) can0 7D7#2D00000000010000
(1762375447.536284) can0 7D7#322C000000000000
(1762375447.536516) can0 7D7#3590650000000000
(1762375447.537061) can0 266#00002C2C00000000
(1762375447.537313) can0 7D7#02F0320000000000
(1762375447.537549) can0 118#3B653000000D0080
(1762375447.537778) can0 297#794B1F0002A00F05
(1762375447.538743) can0 132#107200003840080E
(1762375447.539203) can0 055#0100000000000157
(1762375447.539922) can0 1D5#2100000000002017
(1762375447.540168) can0 2E5#000000000000DD00
(1762375447.541873) can0 1D8#180000000000E0D1
(1762375447.542127) can0 056#040000000000005A
(1762375447.546921) can0 39D#32600A2800
(1762375447.547270) can0 266#06002C2C05000000
(1762375447.547525) can0 7D7#02F0320000000000
(1762375447.547763) can0 118#3C663000000D0080
(1762375447.548723) can0 132#107200003840080E
(1762375447.549619) can0 055#0201000000000159
(1762375447.549889) can0 1D5#2100000000004037
(1762375447.550128) can0 2E5#000000000000DD00
(1762375447.550354) can0 053#D43084C78F384615
(1762375447.551303) can0 351#AC0B0A00D2007008
(1762375447.551504) can0 356#6D0B0200B400
(1762375447.551740) can0 355#5300640043030618
(1762375447.551987) can0 1D8#18000000000000F1
(1762375447.557030) can0 266#05002C2C03000000
(1762375447.557268) can0 7D7#02F0320000000000
(1762375447.557514) can0 118#3D673000000D0080
(1762375447.557753) can0 297#7A4C1F0002A00F05
(1762375447.558542) can0 132#107200003840080E
(1762375447.559197) can0 055#0300000000000159
(1762375447.560160) can0 1D5#2100000000006057
(1762375447.560417) can0 2E5#000000000000DD00
(1762375447.561054) can0 221#610555050000D0B3
(1762375447.561297) can0 3A1#0300986EBE00D0A2
(1762375447.561522) can0 3C2#0155151500005509
(1762375447.561769) can0 441#00000000000035EF
(1762375447.561994) can0 052#6418138B64312000
(1762375447.562246) can0 1D8#1800000000002011
(1762375447.562490) can0 339#4144FE0000038000
(1762375447.562732) can0 102#22B348040000A009
(1762375447.562964) can0 103#22B3884400002032
(1762375447.563214) can0 207#0000000000282800
(1762375447.563468) can0 224#0408004019011008
(1762375447.563667) can0 241#3C3C160F8F5500
(1762375447.563917) can0 247#100EFF0000000000
(1762375447.564176) can0 2A8#040000000080608E
(1762375447.564404) can0 2E8#04000000008060CE
(1762375447.564630) can0 2E1#76800800E1C37363
(1762375447.564770) can0 500#0101
(1762375447.565003) can0 7FF#0141535504041501
(1762375447.565248) can0 212#B904A32F01380001
(1762375447.565476) can0 252#0000CD0100000100
(1762375447.565722) can0 25D#3441012A08000000
(1762375447.565965) can0 2D2#302A343A0A008C00
(1762375447.566100) can0 229#DD0600
(1762375447.566236) can0 2D1#FF01
(1762375447.566433) can0 333#0030840702
(1762375447.566669) can0 125#0A00680B00000000
(1762375447.566922) can0 126#00C2000010000000
(1762375447.567155) can0 266#0200021900000000
(1762375447.567380) can0 3D9#713853692E0868AF
(1762375447.567631) can0 118#3E683000000D0080
(1762375447.567877) can0 7D7#02F0320000000000
(1762375447.568555) can0 132#107200003840080E
(1762375447.569209) can0 055#0001000000000258
(1762375447.569453) can0 1D5#2100000000008077
(1762375447.569716) can0 2E5#000000000000DD00
(1762375447.570006) can0 053#D43084C78F384615
(1762375447.571893) can0 1D8#210020000000405A
(1762375447.576575) can0 266#0000021900000000
(1762375447.576823) can0 118#3F693000000D0080
(1762375447.577065) can0 7D7#02F0320000000000
(1762375447.577296) can0 297#7B4D1F0002A00F05
(1762375447.578727) can0 132#107200003840080E
(1762375447.578974) can0 055#0100000000000258
(1762375447.580153) can0 1D5#210000000000A097
(1762375447.580399) can0 2E5#000000000000DD00
(1762375447.581880) can0 1D8#210020000000607A
(1762375447.586990) can0 266#0000021900000000
(1762375447.587182) can0 39D#33610A2800
(1762375447.587411) can0 118#406A3000000D0080
(1762375447.587660) can0 7D7#02F0320000000000
(1762375447.588633) can0 132#107200003840080E
(1762375447.589521) can0 055#020100000000025A
(1762375447.589775) can0 1D5#210000000000C0B7
(1762375447.590024) can0 2E5#000000000000DD00
(1762375447.590245) can0 053#D43084C78F384615
(1762375447.591870) can0 1D8#210020000000809A
(1762375447.596584) can0 266#0000021900000000
(1762375447.596825) can0 118#416B3000000D0080
(1762375447.597078) can0 7D7#02F0320000000000
(1762375447.597313) can0 297#7C4E1F0002A00F05
(1762375447.598769) can0 132#107200003840080E
(1762375447.599240) can0 055#030000000000025A
(1762375447.599709) can0 1D5#210000000000E0D7
(1762375447.599955) can0 2E5#000000000000DD00
(1762375447.601880) can0 1D8#210000000000A09A
(1762375447.607005) can0 266#0000021900000000
(1762375447.607258) can0 7D7#02F0320000000000
(1762375447.607497) can0 118#426C3000000D0080
(1762375447.608695) can0 132#107200003840080E
(1762375447.609161) can0 055#0001000000000359
(1762375447.609418) can0 1D5#21000000000000F7
(1762375447.609664) can0 2E5#000000000000DD00
(1762375447.609974) can0 053#D43084C78F384615
(1762375447.610996) can0 221#605555155451E1C8
(1762375447.611235) can0 3A1#884E0BC80000E094
(1762375447.611470) can0 3C2#1055555500005D19
(1762375447.611692) can0 441#46652220DB0E38C8
(1762375447.611939) can0 1D8#210000000000C0BA
(1762375447.614001) can0 55A#0100000030000000
(1762375447.615618) can0 376#5030315F30310000
(1762375447.615870) can0 076#030F040F050F00B7
(1762375447.616581) can0 266#0000021900000000
(1762375447.616823) can0 118#436D3000000D0080
(1762375447.617061) can0 7D7#02F0320000000000
(1762375447.617306) can0 297#7D4F1F0002A00F05
(1762375447.617518) can0 166#2439000000B603
(1762375447.617755) can0 1D6#00080800282D5E10
(1762375447.617944) can0 279#0D860C0000
(1762375447.618190) can0 395#011107400000007D
(1762375447.618440) can0 108#1606000200000005
(1762375447.618537) can0 2B6#DA19
(1762375447.618811) can0 132#107200003840080E
(1762375447.619051) can0 397#000000003B000000
(1762375447.619300) can0 055#0100000000000359
(1762375447.619456) can0 128#83003802
(1762375447.619657) can0 268#0202060065
(1762375447.620303) can0 1D5#2100000000002017
(1762375447.620540) can0 2E5#000000000000DD00
(1762375447.621899) can0 1D8#210000000000E0DA
(1762375447.627027) can0 266#0000021900004F01
(1762375447.627212) can0 39D#34620A2800
(1762375447.627448) can0 118#456E3100000D0080
(1762375447.627698) can0 7D7#02F0320000000000
(1762375447.627935) can0 7D5#20FC4C0100004D01
(1762375447.628185) can0 7D5#21FF0000FFFFE015
(1762375447.628432) can0 7D5#2261000003001702
(1762375447.628666) can0 7D5#23FA00007E021027
(1762375447.628929) can0 7D5#24FA00000000FC04
(1762375447.629171) can0 7D5#25AB000000005E26
(1762375447.629419) can0 132#107200003840080E
(1762375447.629669) can0 055#020100000000035B
(1762375447.629904) can0 1D5#2100000000004037
(1762375447.630157) can0 2E5#000000000000DD00
(1762375447.630373) can0 053#D43084C78F384615
(1762375447.630617) can0 7D5#2610522100000000
(1762375447.630865) can0 7D5#27730000FAFA0000
(1762375447.631110) can0 7D5#280000000000FA00
(1762375447.631358) can0 7D5#290000005A100000
(1762375447.631604) can0 7D5#2A0002FA43000000
(1762375447.631852) can0 7D5#2B00000000000000
(1762375447.632101) can0 1D8#21000000000000FA
(1762375447.632350) can0 7D5#2E04041201000000
(1762375447.632597) can0 7D5#2F00000000004600
(1762375447.632833) can0 7D5#306E6E3566010000
(1762375447.633074) can0 7D5#311E0384019F0100
(1762375447.633320) can0 7D5#320E000000000000
(1762375447.633577) can0 7D5#3400000000000000
(1762375447.633824) can0 7D5#3F00000000000000
(1762375447.634074) can0 7D7#200100FAFAFAFA02
(1762375447.634312) can0 7D7#21FF0F00FAFA0000
(1762375447.634563) can0 7D7#2290650000000000
(1762375447.634813) can0 7D7#2300000000000000
(1762375447.635075) can0 7D7#2400000000000000
(1762375447.635313) can0 7D7#2500000000000000
(1762375447.635566) can0 7D7#2600000000000000
(1762375447.635810) can0 7D7#2700400000000000
(1762375447.636072) can0 7D7#2D00000000010000
(1762375447.636325) can0 7D7#3202000000000000
(1762375447.636555) can0 7D7#3590650000000000
(1762375447.636918) can0 266#0000021900004F01
(1762375447.637173) can0 7D7#02F0320000000000
(1762375447.637402) can0 118#466F3100000D0080
(1762375447.637651) can0 297#6E401F0002A00F05
(1762375447.638875) can0 132#107200003840080E
(1762375447.639114) can0 055#030000000000035B
(1762375447.640560) can0 1D5#2100000000006057
(1762375447.640810) can0 2E5#000000000000DD00
(1762375447.641055) can0 056#040000000000015B
(1762375447.641883) can0 1D8#210000000000201A
(1762375447.647024) can0 266#0000021900004F01
(1762375447.647269) can0 7D7#02F0320000000000
(1762375447.647513) can0 118#37603100000D0080
(1762375447.648712) can0 132#107200003840080E
(1762375447.649180) can0 055#000100000000045A
(1762375447.649421) can0 1D5#2100000000008077
(1762375447.649679) can0 2E5#000000000000DD00
(1762375447.649986) can0 053#D43084C78F384615
(1762375447.651866) can0 1D8#210000000000403A
(1762375447.655301) can0 351#AC0B0A00D2007008
(1762375447.655506) can0 356#6D0B0000B400
(1762375447.655746) can0 355#5300640043030618
(1762375447.656584) can0 266#0000021900004F01
(1762375447.656831) can0 118#38613100000D0080
(1762375447.657067) can0 7D7#02F0320000000000
(1762375447.657309) can0 297#6F411F0002A00F05
(1762375447.658764) can0 132#107200003840080E
(1762375447.659232) can0 055#010000000000045A
(1762375447.659701) can0 1D5#210000000000A097
(1762375447.659959) can0 2E5#000000000000DD00
(1762375447.661009) can0 221#610555050000F0D3
(1762375447.661246) can0 3A1#0300986EBE00F0C2
(1762375447.661492) can0 3C2#0155151500005509
(1762375447.661727) can0 441#0000000000003DF7
(1762375447.661961) can0 052#6418138B64312000
(1762375447.662206) can0 1D8#210000000000605A
(1762375447.662453) can0 339#4144FE0000038000
(1762375447.662682) can0 102#22B348040000A009
(1762375447.662916) can0 103#22B3884400002032
(1762375447.663167) can0 207#0000000000282800
(1762375447.663413) can0 224#0408004019011008
(1762375447.663623) can0 241#3C3C160F8F5500
(1762375447.663872) can0 247#100EFF0000000000
(1762375447.664113) can0 2A8#040000000080709E
(1762375447.664355) can0 2E8#04000000008070DE
(1762375447.664587) can0 2E1#10210B9EE4680004
(1762375447.664716) can0 500#0101
(1762375447.664954) can0 7FF#02263226441196A2
(1762375447.665197) can0 212#B904A32F01380001
(1762375447.665422) can0 252#0000CD0100000100
(1762375447.665674) can0 25D#3441012A08000000
(1762375447.665902) can0 2D2#302A343A0A008C00
(1762375447.666049) can0 229#F90700
(1762375447.666189) can0 2D1#FF01
(1762375447.666370) can0 333#0030840702
(1762375447.666609) can0 125#4600680B0000F80C
(1762375447.666861) can0 126#00C2000010000000
(1762375447.667079) can0 3D9#713853692E0868AF
(1762375447.667326) can0 266#0000021900004F01
(1762375447.667494) can0 39D#35630A2800
(1762375447.667742) can0 118#39623100000D0080
(1762375447.667983) can0 7D7#02F0320000000000
(1762375447.669440) can0 132#107200003840080E
(1762375447.669684) can0 055#020100000000045C
(1762375447.669922) can0 1D5#210000000000C0B7
(1762375447.670171) can0 2E5#000000000000DD00
(1762375447.670397) can0 053#D43084C78F384615
(1762375447.671865) can0 1D8#210000000000807A
(1762375447.676591) can0 266#0000021900004F01
(1762375447.676835) can0 118#3A633100000D0080
(1762375447.677078) can0 7D7#02F0320000000000
(1762375447.677313) can0 297#70421F0002A00F05
(1762375447.678743) can0 132#107200003840080E
(1762375447.678996) can0 055#030000000000045C
(1762375447.679302) can0 35B#5F090500
(1762375447.679459) can0 35A#00000000
(1762375447.680428) can0 1D5#210000000000E0D7
(1762375447.680676) can0 2E5#000000000000DD00
(1762375447.681865) can0 1D8#210000000000A09A
(1762375447.687021) can0 266#0000021900004F01
(1762375447.687269) can0 7D7#02F0320000000000
(1762375447.687515) can0 118#3B643100000D0080
(1762375447.688707) can0 132#107200003840080E
(1762375447.689174) can0 055#000100000000055B
(1762375447.689418) can0 1D5#21000000000000F7
(1762375447.689673) can0 2E5#000000000000DD00
(1762375447.689991) can0 053#D43084C78F384615
(1762375447.691857) can0 1D8#210000000000C0BA
(1762375447.696588) can0 266#0000021900004F01
(1762375447.696835) can0 118#3C653100000D0080
(1762375447.697073) can0 7D7#02F0320000000000
